vg	vd	ids
0.0	0.0	1.32276996308612E-16
0.0	0.05	7.84018617994610E-12
0.0	0.1	9.80306601155503E-12
0.0	0.15	1.20535488056008E-11
0.0	0.2	1.49352389018694E-11
0.0	0.25	1.86671200047357E-11
0.0	0.3	2.35500028695578E-11
0.0	0.35	3.00053209585742E-11
0.0	0.4	3.86180634757525E-11
0.0	0.45	5.02015142970568E-11
0.0	0.5	6.58887725061166E-11
0.0	0.55	8.72459633681061E-11
0.0	0.6	1.16387082685241E-10
0.0	0.65	1.56434002557351E-10
0.0	0.7	2.11619506330066E-10
0.0	0.75	2.87910321704106E-10
0.0	0.8	3.93537697951960E-10
0.0	0.85	5.39935212445041E-10
0.0	0.9	7.42831476784303E-10
0.0	0.95	1.02395201013426E-09
0.0	1.0	1.41305062105696E-09
0.0	1.05	1.95075080983598E-09
0.0	1.1	2.69233922117896E-09
0.0	1.15	3.71288869153605E-09
0.0	1.2	5.11364228064569E-09
0.1	0.0	8.60673071448115E-17
0.1	0.05	1.67798714723052E-10
0.1	0.1	2.02879260492790E-10
0.1	0.15	2.38468670390248E-10
0.1	0.2	2.80822176489371E-10
0.1	0.25	3.31633217195313E-10
0.1	0.3	3.93091090710365E-10
0.1	0.35	4.68049714199545E-10
0.1	0.4	5.60244396954490E-10
0.1	0.45	6.74570240411295E-10
0.1	0.5	8.17520977204601E-10
0.1	0.55	9.97702337457370E-10
0.1	0.6	1.22651231911501E-09
0.1	0.65	1.51907821146111E-09
0.1	0.7	1.89551334652768E-09
0.1	0.75	2.38266038189776E-09
0.1	0.8	3.01588181081239E-09
0.1	0.85	3.84196963319861E-09
0.1	0.9	4.92096093075457E-09
0.1	0.95	6.33450060994791E-09
0.1	1.0	8.19195236786426E-09
0.1	1.05	1.06372187069537E-08
0.1	1.1	1.38581318937759E-08
0.1	1.15	1.81018809666363E-08
0.1	1.2	2.36906055456249E-08
0.2	0.0	-2.58414698665450E-17
0.2	0.05	4.03650782995864E-09
0.2	0.1	4.81588603364057E-09
0.2	0.15	5.53487898992444E-09
0.2	0.2	6.34914449936750E-09
0.2	0.25	7.27615465145075E-09
0.2	0.3	8.33658698711674E-09
0.2	0.35	9.55548682355166E-09
0.2	0.4	1.09635097464017E-08
0.2	0.45	1.25983603929687E-08
0.2	0.5	1.45066858733252E-08
0.2	0.55	1.67465213409998E-08
0.2	0.6	1.93898074843823E-08
0.2	0.65	2.25267153010507E-08
0.2	0.7	2.62707603563474E-08
0.2	0.75	3.07646329437305E-08
0.2	0.8	3.61870195532047E-08
0.2	0.85	4.27643984522462E-08
0.2	0.9	5.07813877435173E-08
0.2	0.95	6.05948157955030E-08
0.2	1.0	7.26524781358706E-08
0.2	1.05	8.75220615822144E-08
0.2	1.1	1.05910761269240E-07
0.2	1.15	1.28700639753706E-07
0.2	1.2	1.56984561878259E-07
0.3	0.0	5.09702155589938E-17
0.3	0.05	1.00832903141115E-07
0.3	0.1	1.20072024904644E-07
0.3	0.15	1.36383464668128E-07
0.3	0.2	1.54150491763623E-07
0.3	0.25	1.73616213067280E-07
0.3	0.3	1.95016152248392E-07
0.3	0.35	2.18609677558047E-07
0.3	0.4	2.44688240180837E-07
0.3	0.45	2.73584682936308E-07
0.3	0.5	3.05681271322412E-07
0.3	0.55	3.41419072451261E-07
0.3	0.6	3.81311218206143E-07
0.3	0.65	4.25953342354213E-07
0.3	0.7	4.76043791876029E-07
0.3	0.75	5.32398957999862E-07
0.3	0.8	5.95976918160052E-07
0.3	0.85	6.67903468229046E-07
0.3	0.9	7.49498935609606E-07
0.3	0.95	8.42320476584495E-07
0.3	1.0	9.48191227985288E-07
0.3	1.05	1.06925592489236E-06
0.3	1.1	1.20802347458748E-06
0.3	1.15	1.36741712346046E-06
0.3	1.2	1.55084452462561E-06
0.4	0.0	-8.16744167843763E-17
0.4	0.05	2.22986527212839E-06
0.4	0.1	2.68087524194174E-06
0.4	0.15	3.00337952516714E-06
0.4	0.2	3.33347971507398E-06
0.4	0.25	3.67694548325922E-06
0.4	0.3	4.03632563753927E-06
0.4	0.35	4.41358741567802E-06
0.4	0.4	4.81049776008789E-06
0.4	0.45	5.22869887107777E-06
0.4	0.5	5.66983219094172E-06
0.4	0.55	6.13555870151392E-06
0.4	0.6	6.62760212083652E-06
0.4	0.65	7.14778978126808E-06
0.4	0.7	7.69804883497156E-06
0.4	0.75	8.28047137016292E-06
0.4	0.8	8.89729647531081E-06
0.4	0.85	9.55097460012762E-06
0.4	0.9	1.02441391904727E-05
0.4	0.95	1.09797130961403E-05
0.4	1.0	1.17608171435137E-05
0.4	1.05	1.25909525400070E-05
0.4	1.1	1.34738433038934E-05
0.4	1.15	1.44136154460688E-05
0.4	1.2	1.54147188133051E-05
0.5	0.0	2.53658599046896E-16
0.5	0.05	2.07452255769251E-05
0.5	0.1	2.70531714943131E-05
0.5	0.15	2.96691473727761E-05
0.5	0.2	3.18254051179764E-05
0.5	0.25	3.38728387006717E-05
0.5	0.3	3.58646355662645E-05
0.5	0.35	3.78253730918903E-05
0.5	0.4	3.97707000190300E-05
0.5	0.45	4.17111115487969E-05
0.5	0.5	4.36538458508716E-05
0.5	0.55	4.56049536926258E-05
0.5	0.6	4.75689185390897E-05
0.5	0.65	4.95496887557047E-05
0.5	0.7	5.15508248583424E-05
0.5	0.75	5.35753535428076E-05
0.5	0.8	5.56264578110085E-05
0.5	0.85	5.77069625872704E-05
0.5	0.9	5.98198099641190E-05
0.5	0.95	6.19678449228607E-05
0.5	1.0	6.41544286076427E-05
0.5	1.05	6.63823785986616E-05
0.5	1.1	6.86554054415880E-05
0.5	1.15	7.09768649516713E-05
0.5	1.2	7.33506874674788E-05
0.6	0.0	2.78137681052420E-17
0.6	0.05	5.73257398414302E-05
0.6	0.1	8.75212934424137E-05
0.6	0.15	1.00748543377686E-04
0.6	0.2	1.07322517365463E-04
0.6	0.25	1.12266335633541E-04
0.6	0.3	1.16671428390192E-04
0.6	0.35	1.20771347390212E-04
0.6	0.4	1.24671532709456E-04
0.6	0.45	1.28432710981545E-04
0.6	0.5	1.32094117260107E-04
0.6	0.55	1.35680596813934E-04
0.6	0.6	1.39211405337267E-04
0.6	0.65	1.42699848216123E-04
0.6	0.7	1.46156493906266E-04
0.6	0.75	1.49590997589738E-04
0.6	0.8	1.53010284984429E-04
0.6	0.85	1.56421084719991E-04
0.6	0.9	1.59829737097835E-04
0.6	0.95	1.63240715906217E-04
0.6	1.0	1.66659187847477E-04
0.6	1.05	1.70091098575057E-04
0.6	1.1	1.73539833383893E-04
0.6	1.15	1.77010693751979E-04
0.6	1.2	1.80508335489952E-04
0.7	0.0	5.35699105287080E-17
0.7	0.05	9.31620447947464E-05
0.7	0.1	1.55724274619759E-04
0.7	0.15	1.93222973851800E-04
0.7	0.2	2.13395098658495E-04
0.7	0.25	2.24592471723415E-04
0.7	0.3	2.32498551816935E-04
0.7	0.35	2.39157499577424E-04
0.7	0.4	2.45145050369313E-04
0.7	0.45	2.50711268456266E-04
0.7	0.5	2.55992749889824E-04
0.7	0.55	2.61069061086366E-04
0.7	0.6	2.65991635310455E-04
0.7	0.65	2.70793952826502E-04
0.7	0.7	2.75499958301949E-04
0.7	0.75	2.80129761606887E-04
0.7	0.8	2.84697213488665E-04
0.7	0.85	2.89214598160089E-04
0.7	0.9	2.93692357271469E-04
0.7	0.95	2.98139427645617E-04
0.7	1.0	3.02564009258985E-04
0.7	1.05	3.06973005441005E-04
0.7	1.1	3.11371972527679E-04
0.7	1.15	3.15770291301478E-04
0.7	1.2	3.20172636961100E-04
0.8	0.0	1.75847203286633E-16
0.8	0.05	1.23537020268338E-04
0.8	0.1	2.16308392486367E-04
0.8	0.15	2.81626520593857E-04
0.8	0.2	3.24324809324537E-04
0.8	0.25	3.50332047538070E-04
0.8	0.3	3.66160963706048E-04
0.8	0.35	3.77139046552996E-04
0.8	0.4	3.85983290099279E-04
0.8	0.45	3.93697520654815E-04
0.8	0.5	4.00723322812718E-04
0.8	0.55	4.07304478979616E-04
0.8	0.6	4.13576154648395E-04
0.8	0.65	4.19618290865489E-04
0.8	0.7	4.25481196088445E-04
0.8	0.75	4.31201481189680E-04
0.8	0.8	4.36805759414602E-04
0.8	0.85	4.42313010998172E-04
0.8	0.9	4.47744171342790E-04
0.8	0.95	4.53108110603558E-04
0.8	1.0	4.58418380954868E-04
0.8	1.05	4.63687640865020E-04
0.8	1.1	4.68921635812858E-04
0.8	1.15	4.74129508690448E-04
0.8	1.2	4.79321353858802E-04
0.9	0.0	-7.04439517966998E-17
0.9	0.05	1.48534968589788E-04
0.9	0.1	2.67220534435069E-04
0.9	0.15	3.58258224486433E-04
0.9	0.2	4.24977142441010E-04
0.9	0.25	4.71358044189822E-04
0.9	0.3	5.02039270181748E-04
0.9	0.35	5.22119186355007E-04
0.9	0.4	5.36202961186688E-04
0.9	0.45	5.47235190745368E-04
0.9	0.5	5.56616852156356E-04
0.9	0.55	5.65008659263720E-04
0.9	0.6	5.72771893303779E-04
0.9	0.65	5.80111763353011E-04
0.9	0.7	5.87145495611246E-04
0.9	0.75	5.93942391393766E-04
0.9	0.8	6.00554845011684E-04
0.9	0.85	6.07012320443749E-04
0.9	0.9	6.13347207655725E-04
0.9	0.95	6.19576518589712E-04
0.9	1.0	6.25718175416746E-04
0.9	1.05	6.31788241412785E-04
0.9	1.1	6.37797197292827E-04
0.9	1.15	6.43759369640681E-04
0.9	1.2	6.49680990707554E-04
1.0	0.0	8.42629313299849E-17
1.0	0.05	1.69000889919364E-04
1.0	0.1	3.09384860407936E-04
1.0	0.15	4.22769089129739E-04
1.0	0.2	5.11682834581031E-04
1.0	0.25	5.79026610416062E-04
1.0	0.3	6.28057832437077E-04
1.0	0.35	6.62463734075502E-04
1.0	0.4	6.86287713632223E-04
1.0	0.45	7.03393104599239E-04
1.0	0.5	7.16643480726941E-04
1.0	0.55	7.27694114151973E-04
1.0	0.6	7.37423585072309E-04
1.0	0.65	7.46321645653465E-04
1.0	0.7	7.54668576556543E-04
1.0	0.75	7.62625886002302E-04
1.0	0.8	7.70286569602913E-04
1.0	0.85	7.77715179824240E-04
1.0	0.9	7.84956361371676E-04
1.0	0.95	7.92044234430454E-04
1.0	1.0	7.99002469895755E-04
1.0	1.05	8.05853310044532E-04
1.0	1.1	8.12616562190588E-04
1.0	1.15	8.19304012147799E-04
1.0	1.2	8.25931032772184E-04
1.1	0.0	-1.72599990529670E-16
1.1	0.05	1.85821210139998E-04
1.1	0.1	3.44262614410342E-04
1.1	0.15	4.76634937370853E-04
1.1	0.2	5.85034478548119E-04
1.1	0.25	6.71765773420970E-04
1.1	0.3	7.39283290175950E-04
1.1	0.35	7.90257883338133E-04
1.1	0.4	8.27659178931304E-04
1.1	0.45	8.54733617705142E-04
1.1	0.5	8.74694089538362E-04
1.1	0.55	8.90167868618674E-04
1.1	0.6	9.02920459052503E-04
1.1	0.65	9.13995857101314E-04
1.1	0.7	9.24021008652290E-04
1.1	0.75	9.33356723731249E-04
1.1	0.8	9.42203243669616E-04
1.1	0.85	9.50691707746499E-04
1.1	0.9	9.58899330291692E-04
1.1	0.95	9.66880080582147E-04
1.1	1.0	9.74678379836811E-04
1.1	1.05	9.82322576462499E-04
1.1	1.1	9.89843267905865E-04
1.1	1.15	9.97257035436802E-04
1.1	1.2	1.00457969755402E-03
1.2	0.0	9.32318368786958E-17
1.2	0.05	1.99757529307266E-04
1.2	0.1	3.73256558962422E-04
1.2	0.15	5.21651425761788E-04
1.2	0.2	6.46805752072319E-04
1.2	0.25	7.50695778980653E-04
1.2	0.3	8.35321903276230E-04
1.2	0.35	9.02747740654215E-04
1.2	0.4	9.55173005944590E-04
1.2	0.45	9.95015854991759E-04
1.2	0.5	1.02490687569060E-03
1.2	0.55	1.04751428316744E-03
1.2	0.6	1.06518322990632E-03
1.2	0.65	1.07966909131591E-03
1.2	0.7	1.09212406237460E-03
1.2	0.75	1.10329020484268E-03
1.2	0.8	1.11361343761836E-03
1.2	0.85	1.12334571289613E-03
1.2	0.9	1.13264463307197E-03
1.2	0.95	1.14161204628187E-03
1.2	1.0	1.15031219486813E-03
1.2	1.05	1.15879992089620E-03
1.2	1.1	1.16710684805364E-03
1.2	1.15	1.17526785232565E-03
1.2	1.2	1.18330802885796E-03