vg	vd	ids
0.0	0.0	-1.82234071669383E-18
0.0	0.05	3.71922616738616E-12
0.0	0.1	4.51120793579236E-12
0.0	0.15	5.25996576311680E-12
0.0	0.2	6.15407111419615E-12
0.0	0.25	7.23214027899588E-12
0.0	0.3	8.54367880550401E-12
0.0	0.35	1.01536170977040E-11
0.0	0.4	1.21477719210537E-11
0.0	0.45	1.46404204702584E-11
0.0	0.5	1.77831394659696E-11
0.0	0.55	2.17773340061419E-11
0.0	0.6	2.68938887536639E-11
0.0	0.65	3.34967216124952E-11
0.0	0.7	4.20672801652667E-11
0.0	0.75	5.32560246277245E-11
0.0	0.8	6.79423025830552E-11
0.0	0.85	8.72210496608256E-11
0.0	0.9	1.12741120715609E-10
0.0	0.95	1.46552898745593E-10
0.0	1.0	1.91493780962632E-10
0.0	1.05	2.51346916728627E-10
0.0	1.1	3.31163958488299E-10
0.0	1.15	4.37678236401562E-10
0.0	1.2	5.79858723792721E-10
0.1	0.0	-7.79257540316737E-17
0.1	0.05	9.36766010904275E-11
0.1	0.1	1.11800462998477E-10
0.1	0.15	1.27145688555818E-10
0.1	0.2	1.44545978560170E-10
0.1	0.25	1.64433518789740E-10
0.1	0.3	1.87287034391617E-10
0.1	0.35	2.13695408262663E-10
0.1	0.4	2.44394695526614E-10
0.1	0.45	2.80305388089592E-10
0.1	0.5	3.22582366305306E-10
0.1	0.55	3.72673389203763E-10
0.1	0.6	4.32473413586684E-10
0.1	0.65	5.04192462724461E-10
0.1	0.7	5.91038315184359E-10
0.1	0.75	6.96853239645034E-10
0.1	0.8	8.26353136124928E-10
0.1	0.85	9.85977234330999E-10
0.1	0.9	1.18385393855776E-09
0.1	0.95	1.43038667222735E-09
0.1	1.0	1.73912139553271E-09
0.1	1.05	2.12730551281981E-09
0.1	1.1	2.61712409419117E-09
0.1	1.15	3.23704185983006E-09
0.1	1.2	4.02219210711994E-09
0.2	0.0	2.74442547561068E-17
0.2	0.05	2.52094123552153E-09
0.2	0.1	2.99262007362998E-09
0.2	0.15	3.36064318238552E-09
0.2	0.2	3.76353776056138E-09
0.2	0.25	4.20816992411859E-09
0.2	0.3	4.70047482421083E-09
0.2	0.35	5.24734836837250E-09
0.2	0.4	5.85683742046941E-09
0.2	0.45	6.53841934992736E-09
0.2	0.5	7.30329407876926E-09
0.2	0.55	8.16480500545867E-09
0.2	0.6	9.13890014442447E-09
0.2	0.65	1.02401870173664E-08
0.2	0.7	1.15054191677388E-08
0.2	0.75	1.29488221140239E-08
0.2	0.8	1.46088548676546E-08
0.2	0.85	1.65267431468745E-08
0.2	0.9	1.87526116180838E-08
0.2	0.95	2.13479085791913E-08
0.2	1.0	2.43875420811478E-08
0.2	1.05	2.79640063524385E-08
0.2	1.1	3.21898611892464E-08
0.2	1.15	3.72047931907482E-08
0.2	1.2	4.31788222137474E-08
0.3	0.0	1.98248638078069E-17
0.3	0.05	6.90598210467948E-08
0.3	0.1	8.21092086593660E-08
0.3	0.15	9.15907172921981E-08
0.3	0.2	1.01652478922951E-07
0.3	0.25	1.12454025434479E-07
0.3	0.3	1.24084673376346E-07
0.3	0.35	1.36637917457968E-07
0.3	0.4	1.50214802021955E-07
0.3	0.45	1.64925876155759E-07
0.3	0.5	1.80895093791640E-07
0.3	0.55	1.98259726502845E-07
0.3	0.6	2.17128276801340E-07
0.3	0.65	2.37817457053812E-07
0.3	0.7	2.60384392438528E-07
0.3	0.75	2.85102184711886E-07
0.3	0.8	3.12227989259025E-07
0.3	0.85	3.42061946511029E-07
0.3	0.9	3.74939366636820E-07
0.3	0.95	4.11250377394992E-07
0.3	1.0	4.51444033584281E-07
0.3	1.05	4.96037813472117E-07
0.3	1.1	5.45631444082729E-07
0.3	1.15	6.00914449610108E-07
0.3	1.2	6.62687528650326E-07
0.4	0.0	5.50259497529612E-17
0.4	0.05	1.67994694399130E-06
0.4	0.1	2.02280991601890E-06
0.4	0.15	2.23688838031816E-06
0.4	0.2	2.45132505429661E-06
0.4	0.25	2.67219007564364E-06
0.4	0.3	2.90076894065102E-06
0.4	0.35	3.13889306483057E-06
0.4	0.4	3.38670915487149E-06
0.4	0.45	3.64531607668308E-06
0.4	0.5	3.91549257176604E-06
0.4	0.55	4.19803677945507E-06
0.4	0.6	4.49371588982202E-06
0.4	0.65	4.80335943873708E-06
0.4	0.7	5.12777236252817E-06
0.4	0.75	5.46788949197991E-06
0.4	0.8	5.82460030641277E-06
0.4	0.85	6.19890238439144E-06
0.4	0.9	6.59184662338789E-06
0.4	0.95	7.00456639978842E-06
0.4	1.0	7.43826902422801E-06
0.4	1.05	7.89427319513844E-06
0.4	1.1	8.37398486670195E-06
0.4	1.15	8.87893309778231E-06
0.4	1.2	9.41080006057306E-06
0.5	0.0	1.41722005676403E-17
0.5	0.05	1.69875088963930E-05
0.5	0.1	2.24555870346732E-05
0.5	0.15	2.45667858816320E-05
0.5	0.2	2.61924387765974E-05
0.5	0.25	2.77245266647497E-05
0.5	0.3	2.92110662955924E-05
0.5	0.35	3.06707798938616E-05
0.5	0.4	3.21145461496087E-05
0.5	0.45	3.35501076556756E-05
0.5	0.5	3.49826893003987E-05
0.5	0.55	3.64164330670561E-05
0.5	0.6	3.78545607564900E-05
0.5	0.65	3.92997299717864E-05
0.5	0.7	4.07542493881120E-05
0.5	0.75	4.22200627465413E-05
0.5	0.8	4.36991796524875E-05
0.5	0.85	4.51930063404193E-05
0.5	0.9	4.67033734064116E-05
0.5	0.95	4.82317353003902E-05
0.5	1.0	4.97795399374424E-05
0.5	1.05	5.13483610150453E-05
0.5	1.1	5.29397571322467E-05
0.5	1.15	5.45552072511667E-05
0.5	1.2	5.61963014654773E-05
0.6	0.0	2.64515574516615E-17
0.6	0.05	4.82801533185323E-05
0.6	0.1	7.52334052893522E-05
0.6	0.15	8.77335650814913E-05
0.6	0.2	9.36813813560755E-05
0.6	0.25	9.78201876753105E-05
0.6	0.3	1.01443971069463E-04
0.6	0.35	1.04803156488185E-04
0.6	0.4	1.07987278742675E-04
0.6	0.45	1.11047746679667E-04
0.6	0.5	1.14016434037545E-04
0.6	0.55	1.16915448522036E-04
0.6	0.6	1.19759399797820E-04
0.6	0.65	1.22560336341967E-04
0.6	0.7	1.25326988254663E-04
0.6	0.75	1.28066426819999E-04
0.6	0.8	1.30784844482017E-04
0.6	0.85	1.33487336178398E-04
0.6	0.9	1.36177982837045E-04
0.6	0.95	1.38860620178994E-04
0.6	1.0	1.41539093214828E-04
0.6	1.05	1.44216304778522E-04
0.6	1.1	1.46894505599791E-04
0.6	1.15	1.49577670138272E-04
0.6	1.2	1.52267409781192E-04
0.7	0.0	6.75620399466882E-18
0.7	0.05	7.93487796798852E-05
0.7	0.1	1.35105554958922E-04
0.7	0.15	1.70497768255666E-04
0.7	0.2	1.90598605977408E-04
0.7	0.25	2.01639468187433E-04
0.7	0.3	2.08882109607548E-04
0.7	0.35	2.14761563119934E-04
0.7	0.4	2.19987475128435E-04
0.7	0.45	2.24808699675104E-04
0.7	0.5	2.29352716924409E-04
0.7	0.55	2.33696860535762E-04
0.7	0.6	2.37887680254135E-04
0.7	0.65	2.41958496635539E-04
0.7	0.7	2.45932157275517E-04
0.7	0.75	2.49825819023296E-04
0.7	0.8	2.53653450136783E-04
0.7	0.85	2.57425394547895E-04
0.7	0.9	2.61151417141999E-04
0.7	0.95	2.64838113694510E-04
0.7	1.0	2.68492206408925E-04
0.7	1.05	2.72119983067559E-04
0.7	1.1	2.75726061502232E-04
0.7	1.15	2.79313810347065E-04
0.7	1.2	2.82888794513355E-04
0.8	0.0	6.32322137587456E-17
0.8	0.05	1.05942996915812E-04
0.8	0.1	1.88524217504418E-04
0.8	0.15	2.49360886604835E-04
0.8	0.2	2.91269581614227E-04
0.8	0.25	3.18094765807701E-04
0.8	0.3	3.34569766961898E-04
0.8	0.35	3.45414639268967E-04
0.8	0.4	3.53728039834609E-04
0.8	0.45	3.60811244144576E-04
0.8	0.5	3.67169981368969E-04
0.8	0.55	3.73060163773710E-04
0.8	0.6	3.78623924197630E-04
0.8	0.65	3.83946235840415E-04
0.8	0.7	3.89082261271200E-04
0.8	0.75	3.94066768006122E-04
0.8	0.8	3.98929895497530E-04
0.8	0.85	4.03689483150232E-04
0.8	0.9	4.08361083226842E-04
0.8	0.95	4.12960068393932E-04
0.8	1.0	4.17496509184355E-04
0.8	1.05	4.21976978420780E-04
0.8	1.1	4.26412002277868E-04
0.8	1.15	4.30809911507590E-04
0.8	1.2	4.35170040191807E-04
0.9	0.0	5.51366481782285E-18
0.9	0.05	1.27996507230273E-04
0.9	0.1	2.33613599643937E-04
0.9	0.15	3.17711800278747E-04
0.9	0.2	3.82027935689151E-04
0.9	0.25	4.28902579924206E-04
0.9	0.3	4.61320342942384E-04
0.9	0.35	4.82932850023520E-04
0.9	0.4	4.97648210913231E-04
0.9	0.45	5.08623638106945E-04
0.9	0.5	5.17643560481401E-04
0.9	0.55	5.25527794315093E-04
0.9	0.6	5.32694947667316E-04
0.9	0.65	5.39384864374362E-04
0.9	0.7	5.45735428570683E-04
0.9	0.75	5.51829202951794E-04
0.9	0.8	5.57718508796432E-04
0.9	0.85	5.63445534368761E-04
0.9	0.9	5.69030446936819E-04
0.9	0.95	5.74502038691875E-04
0.9	1.0	5.79874454410696E-04
0.9	1.05	5.85160692060886E-04
0.9	1.1	5.90374984030141E-04
0.9	1.15	5.95525846883204E-04
0.9	1.2	6.00620394962759E-04
1.0	0.0	-3.18006901128990E-17
1.0	0.05	1.46161861987280E-04
1.0	0.1	2.71100360274733E-04
1.0	0.15	3.75307781502228E-04
1.0	0.2	4.59982290859451E-04
1.0	0.25	5.26690399027062E-04
1.0	0.3	5.77363019284091E-04
1.0	0.35	6.14372456997115E-04
1.0	0.4	6.40580028910133E-04
1.0	0.45	6.59154073904940E-04
1.0	0.5	6.72980638107471E-04
1.0	0.55	6.84065897080202E-04
1.0	0.6	6.93531710564708E-04
1.0	0.65	7.01980772474917E-04
1.0	0.7	7.09764540712223E-04
1.0	0.75	7.17092148594849E-04
1.0	0.8	7.24081495457742E-04
1.0	0.85	7.30812555170106E-04
1.0	0.9	7.37329846528236E-04
1.0	0.95	7.43678781351829E-04
1.0	1.0	7.49879708521760E-04
1.0	1.05	7.55957849820607E-04
1.0	1.1	7.61930591531859E-04
1.0	1.15	7.67811334196699E-04
1.0	1.2	7.73614302914828E-04
1.1	0.0	-2.41095754790180E-17
1.1	0.05	1.61167319540230E-04
1.1	0.1	3.02216403055765E-04
1.1	0.15	4.23467016495088E-04
1.1	0.2	5.25849529879502E-04
1.1	0.25	6.10531960110105E-04
1.1	0.3	6.78877553097728E-04
1.1	0.35	7.32484593486891E-04
1.1	0.4	7.73264668804959E-04
1.1	0.45	8.03493633173257E-04
1.1	0.5	8.25728946922843E-04
1.1	0.55	8.42487560721091E-04
1.1	0.6	8.55775985576155E-04
1.1	0.65	8.66913039487399E-04
1.1	0.7	8.76691008939993E-04
1.1	0.75	8.85582738035937E-04
1.1	0.8	8.93877137299330E-04
1.1	0.85	9.01739100788546E-04
1.1	0.9	9.09275413904615E-04
1.1	0.95	9.16550151866725E-04
1.1	1.0	9.23615596824324E-04
1.1	1.05	9.30504249339204E-04
1.1	1.1	9.37243143276497E-04
1.1	1.15	9.43858729151094E-04
1.1	1.2	9.50362341528932E-04
1.2	0.0	5.57163509924904E-17
1.2	0.05	1.73656315513557E-04
1.2	0.1	3.28167670831133E-04
1.2	0.15	4.63782425503642E-04
1.2	0.2	5.81304896960534E-04
1.2	0.25	6.81702811127560E-04
1.2	0.3	7.66040537620080E-04
1.2	0.35	8.35489808886076E-04
1.2	0.4	8.91383265634543E-04
1.2	0.45	9.35275638997380E-04
1.2	0.5	9.68995433524801E-04
1.2	0.55	9.94613614468229E-04
1.2	0.6	1.01427787521036E-03
1.2	0.65	1.02986604068927E-03
1.2	0.7	1.04277905035753E-03
1.2	0.75	1.05395912059860E-03
1.2	0.8	1.06399807499590E-03
1.2	0.85	1.07327636009078E-03
1.2	0.9	1.08201319773894E-03
1.2	0.95	1.09034515838677E-03
1.2	1.0	1.09836021105295E-03
1.2	1.05	1.10612134272507E-03
1.2	1.1	1.11367462626527E-03
1.2	1.15	1.12105051768733E-03
1.2	1.2	1.12827519950285E-03