vg	vd	ids
0.0	0.0	9.46225199444084E-17
0.0	0.05	2.49179699429743E-11
0.0	0.1	3.43236396261531E-11
0.0	0.15	4.70911640354392E-11
0.0	0.2	6.54277024725251E-11
0.0	0.25	9.19341146028137E-11
0.0	0.3	1.30413628601395E-10
0.0	0.35	1.86704141899515E-10
0.0	0.4	2.69337040768394E-10
0.0	0.45	3.90973776486432E-10
0.0	0.5	5.70139379271413E-10
0.0	0.55	8.33986941890579E-10
0.0	0.6	1.22199576332186E-09
0.0	0.65	1.79049359845638E-09
0.0	0.7	2.62469482861991E-09
0.0	0.75	3.83964744301682E-09
0.0	0.8	5.60351097404132E-09
0.0	0.85	8.15524371509828E-09
0.0	0.9	1.18263753610761E-08
0.0	0.95	1.70816807576614E-08
0.0	1.0	2.45613803308750E-08
0.0	1.05	3.51446010719108E-08
0.0	1.1	5.00265106249064E-08
0.0	1.15	7.08174666139307E-08
0.0	1.2	9.96625208694765E-08
0.1	0.0	-2.77485555133812E-17
0.1	0.05	3.87574960116199E-10
0.1	0.1	4.94599211629464E-10
0.1	0.15	6.20624668223835E-10
0.1	0.2	7.84824713792069E-10
0.1	0.25	1.00122539978475E-09
0.1	0.3	1.28938845277206E-09
0.1	0.35	1.67680036221166E-09
0.1	0.4	2.20200985224017E-09
0.1	0.45	2.91871649822057E-09
0.1	0.5	3.90168887855691E-09
0.1	0.55	5.25151048066774E-09
0.1	0.6	7.11237178278303E-09
0.1	0.65	9.69268934310832E-09
0.1	0.7	1.32662819873752E-08
0.1	0.75	1.82147303727395E-08
0.1	0.8	2.50701268966185E-08
0.1	0.85	3.45583169170536E-08
0.1	0.9	4.76301293679118E-08
0.1	0.95	6.55874450830471E-08
0.1	1.0	9.01575641860419E-08
0.1	1.05	1.23618335508558E-07
0.1	1.1	1.68948938630044E-07
0.1	1.15	2.30000452567814E-07
0.1	1.2	3.11699745614635E-07
0.2	0.0	3.17313191584356E-17
0.2	0.05	7.81234000119098E-09
0.2	0.1	9.59857885328370E-09
0.2	0.15	1.14399799492316E-08
0.2	0.2	1.36437570255014E-08
0.2	0.25	1.63045612691982E-08
0.2	0.3	1.95448229371573E-08
0.2	0.35	2.35245872224049E-08
0.2	0.4	2.84509798128915E-08
0.2	0.45	3.45992154247846E-08
0.2	0.5	4.23262929667618E-08
0.2	0.55	5.21032076423452E-08
0.2	0.6	6.45568892841359E-08
0.2	0.65	8.04888549092312E-08
0.2	0.7	1.00954590811516E-07
0.2	0.75	1.27362008881361E-07
0.2	0.8	1.61465943995601E-07
0.2	0.85	2.05518049057083E-07
0.2	0.9	2.62302678921596E-07
0.2	0.95	3.35606021608744E-07
0.2	1.0	4.30100649792602E-07
0.2	1.05	5.51654025884737E-07
0.2	1.1	7.07452200054285E-07
0.2	1.15	9.06261458697129E-07
0.2	1.2	1.15859873820758E-06
0.3	0.0	1.60217069812020E-17
0.3	0.05	1.74334752570795E-07
0.3	0.1	2.11371850400755E-07
0.3	0.15	2.45293705538793E-07
0.3	0.2	2.83328273789317E-07
0.3	0.25	3.26282090102322E-07
0.3	0.3	3.75061124721145E-07
0.3	0.35	4.30704604180204E-07
0.3	0.4	4.94483491106505E-07
0.3	0.45	5.67896315854894E-07
0.3	0.5	6.52756547217427E-07
0.3	0.55	7.51275574610068E-07
0.3	0.6	8.66113196990050E-07
0.3	0.65	1.00044942712761E-06
0.3	0.7	1.15801885289678E-06
0.3	0.75	1.34400706700851E-06
0.3	0.8	1.56339571018883E-06
0.3	0.85	1.82298150529831E-06
0.3	0.9	2.13055134927562E-06
0.3	0.95	2.49514804789353E-06
0.3	1.0	2.92725218568128E-06
0.3	1.05	3.43875429062845E-06
0.3	1.1	4.04302574184812E-06
0.3	1.15	4.75455555335420E-06
0.3	1.2	5.58936941499868E-06
0.4	0.0	-7.13913240609876E-17
0.4	0.05	3.40147112373390E-06
0.4	0.1	4.14369621045332E-06
0.4	0.15	4.69059510524319E-06
0.4	0.2	5.25275433935085E-06
0.4	0.25	5.84161825942582E-06
0.4	0.3	6.46251851571894E-06
0.4	0.35	7.12013037112215E-06
0.4	0.4	7.81877273320712E-06
0.4	0.45	8.56273805355632E-06
0.4	0.5	9.35645403455105E-06
0.4	0.55	1.02047046028458E-05
0.4	0.6	1.11125958631821E-05
0.4	0.65	1.20858100324628E-05
0.4	0.7	1.31306003167341E-05
0.4	0.75	1.42536053556217E-05
0.4	0.8	1.54624126055032E-05
0.4	0.85	1.67650575875021E-05
0.4	0.9	1.81704132013923E-05
0.4	0.95	1.96879121460217E-05
0.4	1.0	2.13275461513082E-05
0.4	1.05	2.31000030848317E-05
0.4	1.1	2.50159794893908E-05
0.4	1.15	2.70867730827448E-05
0.4	1.2	2.93234377414387E-05
0.5	0.0	8.07883665335321E-17
0.5	0.05	2.63176925393210E-05
0.5	0.1	3.49287099789354E-05
0.5	0.15	3.85532730013184E-05
0.5	0.2	4.14818281309387E-05
0.5	0.25	4.42403074180343E-05
0.5	0.3	4.69171457880868E-05
0.5	0.35	4.95541294370407E-05
0.5	0.4	5.21774941793256E-05
0.5	0.45	5.48040746661343E-05
0.5	0.5	5.74467293306876E-05
0.5	0.55	6.01156464776410E-05
0.5	0.6	6.28198447373496E-05
0.5	0.65	6.55670823273354E-05
0.5	0.7	6.83652987045104E-05
0.5	0.75	7.12220780464204E-05
0.5	0.8	7.41447804227337E-05
0.5	0.85	7.71418155442780E-05
0.5	0.9	8.02205562965670E-05
0.5	0.95	8.33895433074507E-05
0.5	1.0	8.66574556452955E-05
0.5	1.05	9.00332457433581E-05
0.5	1.1	9.35249541891580E-05
0.5	1.15	9.71417950084370E-05
0.5	1.2	1.00893158881583E-04
0.6	0.0	8.55969919214305E-17
0.6	0.05	6.64088310765383E-05
0.6	0.1	1.02337929958258E-04
0.6	0.15	1.18712378707902E-04
0.6	0.2	1.26988887089803E-04
0.6	0.25	1.33110144675472E-04
0.6	0.3	1.38497025291016E-04
0.6	0.35	1.43495311032474E-04
0.6	0.4	1.48256948400744E-04
0.6	0.45	1.52865841603894E-04
0.6	0.5	1.57372128839696E-04
0.6	0.55	1.61810166458807E-04
0.6	0.6	1.66203144101171E-04
0.6	0.65	1.70571328803398E-04
0.6	0.7	1.74930264321937E-04
0.6	0.75	1.79292870251789E-04
0.6	0.8	1.83673154452578E-04
0.6	0.85	1.88080681504750E-04
0.6	0.9	1.92527333013802E-04
0.6	0.95	1.97023768063873E-04
0.6	1.0	2.01579801474699E-04
0.6	1.05	2.06205845856657E-04
0.6	1.1	2.10911674267016E-04
0.6	1.15	2.15706854320243E-04
0.6	1.2	2.20599628575498E-04
0.7	0.0	-1.76889016292405E-17
0.7	0.05	1.04538139455862E-04
0.7	0.1	1.75282843959735E-04
0.7	0.15	2.18290983478603E-04
0.7	0.2	2.41969782947873E-04
0.7	0.25	2.55371699258576E-04
0.7	0.3	2.64772672349169E-04
0.7	0.35	2.72590558996390E-04
0.7	0.4	2.79594410833443E-04
0.7	0.45	2.86126053803432E-04
0.7	0.5	2.92354975717664E-04
0.7	0.55	2.98377459305734E-04
0.7	0.6	3.04249822532583E-04
0.7	0.65	3.10014431725548E-04
0.7	0.7	3.15700308618918E-04
0.7	0.75	3.21331125618148E-04
0.7	0.8	3.26927260931375E-04
0.7	0.85	3.32505916705498E-04
0.7	0.9	3.38083801672577E-04
0.7	0.95	3.43670966980765E-04
0.7	1.0	3.49284303728804E-04
0.7	1.05	3.54937813220332E-04
0.7	1.1	3.60635336138828E-04
0.7	1.15	3.66395018138221E-04
0.7	1.2	3.72226497048343E-04
0.8	0.0	-3.17648102237010E-17
0.8	0.05	1.36555333390631E-04
0.8	0.1	2.39333348249927E-04
0.8	0.15	3.12010122559388E-04
0.8	0.2	3.59920388884573E-04
0.8	0.25	3.89537515015008E-04
0.8	0.3	4.07867688428242E-04
0.8	0.35	4.20603100648014E-04
0.8	0.4	4.30767249211191E-04
0.8	0.45	4.39606860917760E-04
0.8	0.5	4.47694881731247E-04
0.8	0.55	4.55320375537566E-04
0.8	0.6	4.62634849209979E-04
0.8	0.65	4.69724931635337E-04
0.8	0.7	4.76650770941844E-04
0.8	0.75	4.83448816004045E-04
0.8	0.8	4.90159195230033E-04
0.8	0.85	4.96798107680747E-04
0.8	0.9	5.03394886877677E-04
0.8	0.95	5.09967133425503E-04
0.8	1.0	5.16529226130372E-04
0.8	1.05	5.23099711594798E-04
0.8	1.1	5.29690201410188E-04
0.8	1.15	5.36316550538847E-04
0.8	1.2	5.42986542659037E-04
0.9	0.0	5.04367268644748E-17
0.9	0.05	1.62711053063705E-04
0.9	0.1	2.92775893724346E-04
0.9	0.15	3.92659786018667E-04
0.9	0.2	4.66060133593438E-04
0.9	0.25	5.17368670941055E-04
0.9	0.3	5.51652597557493E-04
0.9	0.35	5.74384158953025E-04
0.9	0.4	5.90422223458719E-04
0.9	0.45	6.02937277131191E-04
0.9	0.5	6.13567476247545E-04
0.9	0.55	6.23132780626072E-04
0.9	0.6	6.32053221629974E-04
0.9	0.65	6.40547432106816E-04
0.9	0.7	6.48743129276475E-04
0.9	0.75	6.56710248234389E-04
0.9	0.8	6.64513598748293E-04
0.9	0.85	6.72186389642201E-04
0.9	0.9	6.79765729427823E-04
0.9	0.95	6.87277729605658E-04
0.9	1.0	6.94745875887469E-04
0.9	1.05	7.02187603453121E-04
0.9	1.1	7.09624134099456E-04
0.9	1.15	7.17069154784839E-04
0.9	1.2	7.24536377297769E-04
1.0	0.0	1.28640859340490E-16
1.0	0.05	1.83974764444821E-04
1.0	0.1	3.36739226036971E-04
1.0	0.15	4.60127075147423E-04
1.0	0.2	5.56957844074660E-04
1.0	0.25	6.30437867668916E-04
1.0	0.3	6.84149481836549E-04
1.0	0.35	7.22111186865684E-04
1.0	0.4	7.48658164105492E-04
1.0	0.45	7.67856322786345E-04
1.0	0.5	7.82742402019963E-04
1.0	0.55	7.95179225290584E-04
1.0	0.6	8.06211659510980E-04
1.0	0.65	8.16395683370109E-04
1.0	0.7	8.26027287980121E-04
1.0	0.75	8.35270806523869E-04
1.0	0.8	8.44228751921632E-04
1.0	0.85	8.52973072806182E-04
1.0	0.9	8.61553803194350E-04
1.0	0.95	8.70012860180905E-04
1.0	1.0	8.78385105878908E-04
1.0	1.05	8.86691633499868E-04
1.0	1.1	8.94957992792567E-04
1.0	1.15	9.03209826712597E-04
1.0	1.2	9.11457633968301E-04
1.1	0.0	-2.57820054671070E-17
1.1	0.05	2.01338188710151E-04
1.1	0.1	3.72872997926179E-04
1.1	0.15	5.16115192209042E-04
1.1	0.2	6.33414493413265E-04
1.1	0.25	7.27322129789167E-04
1.1	0.3	8.00540157008437E-04
1.1	0.35	8.55987807242908E-04
1.1	0.4	8.96891169738492E-04
1.1	0.45	9.26726585402778E-04
1.1	0.5	9.48879216241008E-04
1.1	0.55	9.66125171854335E-04
1.1	0.6	9.80405753164462E-04
1.1	0.65	9.92925857049163E-04
1.1	0.7	1.00437996801726E-03
1.1	0.75	1.01514369601017E-03
1.1	0.8	1.02541815221222E-03
1.1	0.85	1.03534547354913E-03
1.1	0.9	1.04500468325918E-03
1.1	0.95	1.05446893843458E-03
1.1	1.0	1.06377815453332E-03
1.1	1.05	1.07297649199528E-03
1.1	1.1	1.08209298116175E-03
1.1	1.15	1.09115686247579E-03
1.1	1.2	1.10018660292928E-03
1.2	0.0	-7.21562113063445E-17
1.2	0.05	2.15642672684786E-04
1.2	0.1	4.02736262715660E-04
1.2	0.15	5.62633002618112E-04
1.2	0.2	6.97436349212982E-04
1.2	0.25	8.09341500936812E-04
1.2	0.3	9.00555116713683E-04
1.2	0.35	9.73329604710671E-04
1.2	0.4	1.03005933780462E-03
1.2	0.45	1.07335787875349E-03
1.2	0.5	1.10603864533091E-03
1.2	0.55	1.13092027331955E-03
1.2	0.6	1.15048304251649E-03
1.2	0.65	1.16663514026220E-03
1.2	0.7	1.18068015161009E-03
1.2	0.75	1.19342873867414E-03
1.2	0.8	1.20533265900869E-03
1.2	0.85	1.21664898910441E-03
1.2	0.9	1.22754172818788E-03
1.2	0.95	1.23811735457261E-03
1.2	1.0	1.24844939255534E-03
1.2	1.05	1.25859863853465E-03
1.2	1.1	1.26861185949854E-03
1.2	1.15	1.27851744597477E-03
1.2	1.2	1.28835837305431E-03