vg	vd	ids
0.0	0.0	-1.29965007179549E-17
0.0	0.05	5.38521283169119E-12
0.0	0.1	6.76500231098583E-12
0.0	0.15	8.35233746000759E-12
0.0	0.2	1.03876367011433E-11
0.0	0.25	1.30265991142620E-11
0.0	0.3	1.64857223355565E-11
0.0	0.35	2.10685640010159E-11
0.0	0.4	2.72015145382376E-11
0.0	0.45	3.54825206608586E-11
0.0	0.5	4.67577036808010E-11
0.0	0.55	6.22152682670461E-11
0.0	0.6	8.35141590482483E-11
0.0	0.65	1.12942522716754E-10
0.0	0.7	1.53832710947370E-10
0.0	0.75	2.10868762396395E-10
0.0	0.8	2.90604986268036E-10
0.0	0.85	4.02239569878560E-10
0.0	0.9	5.58634636213396E-10
0.0	0.95	7.77715925840171E-10
0.0	1.0	1.08437685525037E-09
0.0	1.05	1.51303136545625E-09
0.0	1.1	2.11110034818062E-09
0.0	1.15	2.94364187098180E-09
0.0	1.2	4.09948448166764E-09
0.1	0.0	-3.65210697452748E-19
0.1	0.05	1.12315139267299E-10
0.1	0.1	1.36888964928453E-10
0.1	0.15	1.62241530528202E-10
0.1	0.2	1.92620444719589E-10
0.1	0.25	2.29287788499496E-10
0.1	0.3	2.73876202703348E-10
0.1	0.35	3.28514146714661E-10
0.1	0.4	3.95998209004402E-10
0.1	0.45	4.80035108588131E-10
0.1	0.5	5.85552744563240E-10
0.1	0.55	7.19117356847787E-10
0.1	0.6	8.89515362786583E-10
0.1	0.65	1.10847922029515E-09
0.1	0.7	1.39180521604881E-09
0.1	0.75	1.76077881899083E-09
0.1	0.8	2.24376701639799E-09
0.1	0.85	2.87902860768813E-09
0.1	0.9	3.71733867693024E-09
0.1	0.95	4.82485142990637E-09
0.1	1.0	6.29183801260426E-09
0.1	1.05	8.24089252296952E-09
0.1	1.1	1.08329411078591E-08
0.1	1.15	1.42828699096338E-08
0.1	1.2	1.88732864087154E-08
0.2	0.0	1.88043873516128E-17
0.2	0.05	2.60251374712364E-09
0.2	0.1	3.13337479440992E-09
0.2	0.15	3.63782670527653E-09
0.2	0.2	4.21634969582564E-09
0.2	0.25	4.88282955520934E-09
0.2	0.3	5.65377874857167E-09
0.2	0.35	6.54917303153013E-09
0.2	0.4	7.59345022488382E-09
0.2	0.45	8.81669300592384E-09
0.2	0.5	1.02564149602650E-08
0.2	0.55	1.19592856947334E-08
0.2	0.6	1.39838156171438E-08
0.2	0.65	1.64035149283806E-08
0.2	0.7	1.93112217610711E-08
0.2	0.75	2.28243716406791E-08
0.2	0.8	2.70920338762495E-08
0.2	0.85	3.23033982665112E-08
0.2	0.9	3.86972462760655E-08
0.2	0.95	4.65794561776006E-08
0.2	1.0	5.63384136004883E-08
0.2	1.05	6.84673423989400E-08
0.2	1.1	8.35894941530725E-08
0.2	1.15	1.02486951646441E-07
0.2	1.2	1.26151413763378E-07
0.3	0.0	-5.26101861101408E-17
0.3	0.05	6.24308167854505E-08
0.3	0.1	7.50149945603266E-08
0.3	0.15	8.61219705137082E-08
0.3	0.2	9.84231345911920E-08
0.3	0.25	1.12120836977695E-07
0.3	0.3	1.27416518344186E-07
0.3	0.35	1.44534271785758E-07
0.3	0.4	1.63727643826673E-07
0.3	0.45	1.85286694467520E-07
0.3	0.5	2.09545835540099E-07
0.3	0.55	2.36892815826462E-07
0.3	0.6	2.67779053564430E-07
0.3	0.65	3.02732395450113E-07
0.3	0.7	3.42372239042875E-07
0.3	0.75	3.87427569424579E-07
0.3	0.8	4.38758965825096E-07
0.3	0.85	4.97381446038256E-07
0.3	0.9	5.64497787664605E-07
0.3	0.95	6.41529476988638E-07
0.3	1.0	7.30161100385452E-07
0.3	1.05	8.32381613861378E-07
0.3	1.1	9.50540690850750E-07
0.3	1.15	1.08740617119393E-06
0.3	1.2	1.24622504828879E-06
0.4	0.0	6.82300692868192E-18
0.4	0.05	1.35931160191743E-06
0.4	0.1	1.64675476729845E-06
0.4	0.15	1.86739601937207E-06
0.4	0.2	2.09821212035502E-06
0.4	0.25	2.34332109907907E-06
0.4	0.3	2.60492099445650E-06
0.4	0.35	2.88485089474289E-06
0.4	0.4	3.18478125005537E-06
0.4	0.45	3.50633268853269E-06
0.4	0.5	3.85111540852709E-06
0.4	0.55	4.22080714201066E-06
0.4	0.6	4.61713535482576E-06
0.4	0.65	5.04194836379897E-06
0.4	0.7	5.49719664390492E-06
0.4	0.75	5.98498934249152E-06
0.4	0.8	6.50759494700884E-06
0.4	0.85	7.06747533025819E-06
0.4	0.9	7.66731989495954E-06
0.4	0.95	8.31005281717662E-06
0.4	1.0	8.99889445883758E-06
0.4	1.05	9.73733609126983E-06
0.4	1.1	1.05292542837407E-05
0.4	1.15	1.13788178917257E-05
0.4	1.2	1.22906284168992E-05
0.5	0.0	4.66278019342218E-17
0.5	0.05	1.43060770998213E-05
0.5	0.1	1.84130737653133E-05
0.5	0.15	2.03614593645945E-05
0.5	0.2	2.20645239568770E-05
0.5	0.25	2.37123076695625E-05
0.5	0.3	2.53435312824250E-05
0.5	0.35	2.69774971996842E-05
0.5	0.4	2.86249034097928E-05
0.5	0.45	3.02926196822996E-05
0.5	0.5	3.19849593907938E-05
0.5	0.55	3.37051315355516E-05
0.5	0.6	3.54557081841462E-05
0.5	0.65	3.72387181265728E-05
0.5	0.7	3.90561157430475E-05
0.5	0.75	4.09097261771026E-05
0.5	0.8	4.28013373544702E-05
0.5	0.85	4.47328650893058E-05
0.5	0.9	4.67063033450529E-05
0.5	0.95	4.87237823561020E-05
0.5	1.0	5.07877584015766E-05
0.5	1.05	5.29007834702412E-05
0.5	1.1	5.50656545531065E-05
0.5	1.15	5.72857506486917E-05
0.5	1.2	5.95643369039306E-05
0.6	0.0	5.91813335592105E-18
0.6	0.05	4.47443952175267E-05
0.6	0.1	6.67191274433167E-05
0.6	0.15	7.60956343622715E-05
0.6	0.2	8.12547550440471E-05
0.6	0.25	8.53921942942052E-05
0.6	0.3	8.91478673514696E-05
0.6	0.35	9.27049601246630E-05
0.6	0.4	9.61483568342907E-05
0.6	0.45	9.95223270536105E-05
0.6	0.5	1.02850605340107E-04
0.6	0.55	1.06148975545365E-04
0.6	0.6	1.09427422710686E-04
0.6	0.65	1.12694483540875E-04
0.6	0.7	1.15955720048168E-04
0.6	0.75	1.19216231197312E-04
0.6	0.8	1.22480579882555E-04
0.6	0.85	1.25752222958172E-04
0.6	0.9	1.29035265249273E-04
0.6	0.95	1.32332888859370E-04
0.6	1.0	1.35648924145026E-04
0.6	1.05	1.38986914691015E-04
0.6	1.1	1.42350738488768E-04
0.6	1.15	1.45744194431588E-04
0.6	1.2	1.49171029543259E-04
0.7	0.0	2.32852524785535E-17
0.7	0.05	7.72323958776014E-05
0.7	0.1	1.26604295392544E-04
0.7	0.15	1.54686845646285E-04
0.7	0.2	1.69491248013697E-04
0.7	0.25	1.78245006439939E-04
0.7	0.3	1.84850154410960E-04
0.7	0.35	1.90566919394970E-04
0.7	0.4	1.95823104180622E-04
0.7	0.45	2.00816678788523E-04
0.7	0.5	2.05641126770078E-04
0.7	0.55	2.10345715235549E-04
0.7	0.6	2.14959617205807E-04
0.7	0.65	2.19503615545462E-04
0.7	0.7	2.23991485898343E-04
0.7	0.75	2.28434191628953E-04
0.7	0.8	2.32841036909078E-04
0.7	0.85	2.37219339175450E-04
0.7	0.9	2.41575122483531E-04
0.7	0.95	2.45915125008550E-04
0.7	1.0	2.50244910116902E-04
0.7	1.05	2.54568724359385E-04
0.7	1.1	2.58892971240135E-04
0.7	1.15	2.63223108137416E-04
0.7	1.2	2.67562541570116E-04
0.8	0.0	-3.50373761676612E-17
0.8	0.05	1.06173284126759E-04
0.8	0.1	1.82848261433067E-04
0.8	0.15	2.34497894818333E-04
0.8	0.2	2.66829471994266E-04
0.8	0.25	2.86136561589904E-04
0.8	0.3	2.98332425722976E-04
0.8	0.35	3.07319465171808E-04
0.8	0.4	3.14835436455138E-04
0.8	0.45	3.21595238717076E-04
0.8	0.5	3.27923581547052E-04
0.8	0.55	3.33978081808595E-04
0.8	0.6	3.39838104838461E-04
0.8	0.65	3.45549150674554E-04
0.8	0.7	3.51142989616221E-04
0.8	0.75	3.56640273608889E-04
0.8	0.8	3.62058228059372E-04
0.8	0.85	3.67407600828591E-04
0.8	0.9	3.72702016075578E-04
0.8	0.95	3.77948396289899E-04
0.8	1.0	3.83156262942850E-04
0.8	1.05	3.88332906279103E-04
0.8	1.1	3.93485334998909E-04
0.8	1.15	3.98621338342142E-04
0.8	1.2	4.03746231071679E-04
0.9	0.0	1.15330394086089E-17
0.9	0.05	1.30942030157271E-04
0.9	0.1	2.32171580283861E-04
0.9	0.15	3.06964185480752E-04
0.9	0.2	3.59604476932743E-04
0.9	0.25	3.94821188396355E-04
0.9	0.3	4.17644684606827E-04
0.9	0.35	4.32888498883593E-04
0.9	0.4	4.44129995849329E-04
0.9	0.45	4.53342704419416E-04
0.9	0.5	4.61486532905648E-04
0.9	0.55	4.69024765879010E-04
0.9	0.6	4.76175350077102E-04
0.9	0.65	4.83054216353840E-04
0.9	0.7	4.89727227498401E-04
0.9	0.75	4.96234066354586E-04
0.9	0.8	5.02608293943047E-04
0.9	0.85	5.08867608866619E-04
0.9	0.9	5.15034039128523E-04
0.9	0.95	5.21117612109672E-04
0.9	1.0	5.27134119712403E-04
0.9	1.05	5.33092959164943E-04
0.9	1.1	5.39001942630051E-04
0.9	1.15	5.44873441728851E-04
0.9	1.2	5.50714355988643E-04
1.0	0.0	2.15904924736860E-17
1.0	0.05	1.51881495541225E-04
1.0	0.1	2.74493218197027E-04
1.0	0.15	3.70368791828384E-04
1.0	0.2	4.42924207916998E-04
1.0	0.25	4.95849208361425E-04
1.0	0.3	5.33047300355917E-04
1.0	0.35	5.58600278335862E-04
1.0	0.4	5.76458227371527E-04
1.0	0.45	5.89790762846084E-04
1.0	0.5	6.00622536682295E-04
1.0	0.55	6.10080468402432E-04
1.0	0.6	6.18749366670688E-04
1.0	0.65	6.26917867526968E-04
1.0	0.7	6.34732492984329E-04
1.0	0.75	6.42279980795417E-04
1.0	0.8	6.49617134033467E-04
1.0	0.85	6.56780434872611E-04
1.0	0.9	6.63801571650194E-04
1.0	0.95	6.70699011311917E-04
1.0	1.0	6.77495394017818E-04
1.0	1.05	6.84201764966504E-04
1.0	1.1	6.90834008243908E-04
1.0	1.15	6.97405152057253E-04
1.0	1.2	7.03924486641067E-04
1.1	0.0	-5.66612723423036E-17
1.1	0.05	1.69542552978782E-04
1.1	0.1	3.10537407502665E-04
1.1	0.15	4.25051413194686E-04
1.1	0.2	5.15949252627420E-04
1.1	0.25	5.86258473106232E-04
1.1	0.3	6.39092288504275E-04
1.1	0.35	6.77684307966013E-04
1.1	0.4	7.05386582761810E-04
1.1	0.45	7.25474878966474E-04
1.1	0.5	7.40724265254212E-04
1.1	0.55	7.53101524001293E-04
1.1	0.6	7.63825137479842E-04
1.1	0.65	7.73577094029691E-04
1.1	0.7	7.82709580959853E-04
1.1	0.75	7.91407086058633E-04
1.1	0.8	7.99776879339091E-04
1.1	0.85	8.07887473237879E-04
1.1	0.9	8.15788271296726E-04
1.1	0.95	8.23515603890291E-04
1.1	1.0	8.31092980502178E-04
1.1	1.05	8.38547415819262E-04
1.1	1.1	8.45893886872226E-04
1.1	1.15	8.53151489904894E-04
1.1	1.2	8.60335325373188E-04
1.2	0.0	-2.57901704258541E-18
1.2	0.05	1.84480438870997E-04
1.2	0.1	3.41216641298721E-04
1.2	0.15	4.71983464098805E-04
1.2	0.2	5.79293664757514E-04
1.2	0.25	6.65748837838584E-04
1.2	0.3	7.33944588171671E-04
1.2	0.35	7.86496953017144E-04
1.2	0.4	8.26098490583056E-04
1.2	0.45	8.55531279812264E-04
1.2	0.5	8.77537175844714E-04
1.2	0.55	8.94538196848556E-04
1.2	0.6	9.08388198164750E-04
1.2	0.65	9.20337872999290E-04
1.2	0.7	9.31138937003823E-04
1.2	0.75	9.41201712161213E-04
1.2	0.8	9.50745370336493E-04
1.2	0.85	9.59901823634341E-04
1.2	0.9	9.68752944863576E-04
1.2	0.95	9.77355195209930E-04
1.2	1.0	9.85752590522103E-04
1.2	1.05	9.93975142147769E-04
1.2	1.1	1.00205243158611E-03
1.2	1.15	1.01000541398895E-03
1.2	1.2	1.01785515580784E-03