vg	vd	ids
0.0	0.0	-1.34032379346414E-17
0.0	0.05	7.49626376688262E-13
0.0	0.1	8.35674752137988E-13
0.0	0.15	8.82313810814161E-13
0.0	0.2	9.30595271410206E-13
0.0	0.25	9.81276653567229E-13
0.0	0.3	1.03453108879133E-12
0.0	0.35	1.09045468045132E-12
0.0	0.4	1.14887435967638E-12
0.0	0.45	1.21055126832642E-12
0.0	0.5	1.27544265961199E-12
0.0	0.55	1.34636195910116E-12
0.0	0.6	1.41849190722231E-12
0.0	0.65	1.49558650197780E-12
0.0	0.7	1.57549394783952E-12
0.0	0.75	1.66432617553013E-12
0.0	0.8	1.75708748078665E-12
0.0	0.85	1.85316377369056E-12
0.0	0.9	1.95802397951467E-12
0.0	0.95	2.06798562967715E-12
0.0	1.0	2.18332287765659E-12
0.0	1.05	2.30976802243252E-12
0.0	1.1	2.44273751432322E-12
0.0	1.15	2.58468245500485E-12
0.0	1.2	2.73604643410425E-12
0.1	0.0	-1.43201967072768E-17
0.1	0.05	2.58267147105580E-11
0.1	0.1	2.88818606561013E-11
0.1	0.15	3.04833867627433E-11
0.1	0.2	3.21255709733741E-11
0.1	0.25	3.38356060159283E-11
0.1	0.3	3.56190261879110E-11
0.1	0.35	3.74803016336366E-11
0.1	0.4	3.94272486379752E-11
0.1	0.45	4.14636833866486E-11
0.1	0.5	4.35995515640279E-11
0.1	0.55	4.58336750885556E-11
0.1	0.6	4.81158410879245E-11
0.1	0.65	5.06426796217279E-11
0.1	0.7	5.32243072303545E-11
0.1	0.75	5.58598991237847E-11
0.1	0.8	5.87975355516176E-11
0.1	0.85	6.17987373237966E-11
0.1	0.9	6.49600947907857E-11
0.1	0.95	6.82860027178615E-11
0.1	1.0	7.17904840821542E-11
0.1	1.05	7.54689128898964E-11
0.1	1.1	7.93853126464722E-11
0.1	1.15	8.35016523530925E-11
0.1	1.2	8.78506164650930E-11
0.2	0.0	4.34049925153049E-17
0.2	0.05	8.96876819948282E-10
0.2	0.1	1.00685491550533E-09
0.2	0.15	1.06295543064409E-09
0.2	0.2	1.11979734085492E-09
0.2	0.25	1.17852277836928E-09
0.2	0.3	1.23927232175773E-09
0.2	0.35	1.30223556054025E-09
0.2	0.4	1.36762522383370E-09
0.2	0.45	1.43598192634154E-09
0.2	0.5	1.50682077996497E-09
0.2	0.55	1.58061994508857E-09
0.2	0.6	1.65752746810527E-09
0.2	0.65	1.73780237560422E-09
0.2	0.7	1.82041223719937E-09
0.2	0.75	1.90890712714905E-09
0.2	0.8	2.00015259290392E-09
0.2	0.85	2.09550223954497E-09
0.2	0.9	2.19513601597869E-09
0.2	0.95	2.29932020375589E-09
0.2	1.0	2.40830678905578E-09
0.2	1.05	2.52229822958607E-09
0.2	1.1	2.64159005497777E-09
0.2	1.15	2.76650785113293E-09
0.2	1.2	2.89745954720796E-09
0.3	0.0	-4.61181948313998E-17
0.3	0.05	3.10328107527584E-08
0.3	0.1	3.50285220990900E-08
0.3	0.15	3.70134198353569E-08
0.3	0.2	3.89925566703876E-08
0.3	0.25	4.10160656040971E-08
0.3	0.3	4.30921045756266E-08
0.3	0.35	4.52311580740616E-08
0.3	0.4	4.74352459440335E-08
0.3	0.45	4.97085151347767E-08
0.3	0.5	5.20613023203862E-08
0.3	0.55	5.44993512829676E-08
0.3	0.6	5.70031062110611E-08
0.3	0.65	5.96354858003530E-08
0.3	0.7	6.23460548260474E-08
0.3	0.75	6.51582710639710E-08
0.3	0.8	6.80769644286351E-08
0.3	0.85	7.11014393908402E-08
0.3	0.9	7.42459887888845E-08
0.3	0.95	7.75230205256053E-08
0.3	1.0	8.09190064963687E-08
0.3	1.05	8.44489331242254E-08
0.3	1.1	8.81187651982102E-08
0.3	1.15	9.19335997175131E-08
0.3	1.2	9.59005187294958E-08
0.4	0.0	-7.40655779890214E-18
0.4	0.05	9.90686410647363E-07
0.4	0.1	1.13319779220890E-06
0.4	0.15	1.19785111528533E-06
0.4	0.2	1.25983496055072E-06
0.4	0.25	1.32194611823431E-06
0.4	0.3	1.38446219261023E-06
0.4	0.35	1.44827600464088E-06
0.4	0.4	1.51302453754624E-06
0.4	0.45	1.57906637195897E-06
0.4	0.5	1.64622851952674E-06
0.4	0.55	1.71535070645762E-06
0.4	0.6	1.78635474549208E-06
0.4	0.65	1.85887664711030E-06
0.4	0.7	1.93327146585691E-06
0.4	0.75	2.00962422538043E-06
0.4	0.8	2.08799119863467E-06
0.4	0.85	2.16851959650162E-06
0.4	0.9	2.25121677706922E-06
0.4	0.95	2.33617714635935E-06
0.4	1.0	2.42347359520365E-06
0.4	1.05	2.51317583173057E-06
0.4	1.1	2.60535577258398E-06
0.4	1.15	2.70008317314565E-06
0.4	1.2	2.79742793188999E-06
0.5	0.0	-2.78187603437734E-17
0.5	0.05	1.43880515046419E-05
0.5	0.1	1.81132036864338E-05
0.5	0.15	1.91724640323726E-05
0.5	0.2	1.99317188780476E-05
0.5	0.25	2.06433192871857E-05
0.5	0.3	2.13305655322663E-05
0.5	0.35	2.20029639169567E-05
0.5	0.4	2.26660370281339E-05
0.5	0.45	2.33223374869635E-05
0.5	0.5	2.39770789884457E-05
0.5	0.55	2.46300418143853E-05
0.5	0.6	2.52829896405603E-05
0.5	0.65	2.59366786603084E-05
0.5	0.7	2.65922527182800E-05
0.5	0.75	2.72503517210593E-05
0.5	0.8	2.79114475809531E-05
0.5	0.85	2.85759938338427E-05
0.5	0.9	2.92443695013998E-05
0.5	0.95	2.99168592127706E-05
0.5	1.0	3.05937121326472E-05
0.5	1.05	3.12751408462417E-05
0.5	1.1	3.19613435545171E-05
0.5	1.15	3.26524230929502E-05
0.5	1.2	3.33485429615692E-05
0.6	0.0	-2.36241538812804E-17
0.6	0.05	4.75859214595376E-05
0.6	0.1	7.29470357076839E-05
0.6	0.15	8.33485830973755E-05
0.6	0.2	8.73036701258617E-05
0.6	0.25	8.97494848225018E-05
0.6	0.3	9.18584570329969E-05
0.6	0.35	9.38092321794541E-05
0.6	0.4	9.56620975883622E-05
0.6	0.45	9.74476611848668E-05
0.6	0.5	9.91839883238115E-05
0.6	0.55	1.00883866374202E-04
0.6	0.6	1.02554164890514E-04
0.6	0.65	1.04201027237732E-04
0.6	0.7	1.05828313149774E-04
0.6	0.75	1.07439838866523E-04
0.6	0.8	1.09037921268631E-04
0.6	0.85	1.10624700243984E-04
0.6	0.9	1.12201906946306E-04
0.6	0.95	1.13770953084969E-04
0.6	1.0	1.15332827873970E-04
0.6	1.05	1.16888534907167E-04
0.6	1.1	1.18439074039085E-04
0.6	1.15	1.19984851750852E-04
0.6	1.2	1.21526589323994E-04
0.7	0.0	-2.11214865883542E-17
0.7	0.05	8.06271494934067E-05
0.7	0.1	1.37133512781149E-04
0.7	0.15	1.72296326579049E-04
0.7	0.2	1.91041876065897E-04
0.7	0.25	1.99946396194981E-04
0.7	0.3	2.04938427563617E-04
0.7	0.35	2.08758927071711E-04
0.7	0.4	2.12110544396673E-04
0.7	0.45	2.15205753987058E-04
0.7	0.5	2.18138148465155E-04
0.7	0.55	2.20955305314660E-04
0.7	0.6	2.23685800001616E-04
0.7	0.65	2.26347596011155E-04
0.7	0.7	2.28952204087320E-04
0.7	0.75	2.31510112881405E-04
0.7	0.8	2.34027326658184E-04
0.7	0.85	2.36509349894604E-04
0.7	0.9	2.38960394562752E-04
0.7	0.95	2.41384296213225E-04
0.7	1.0	2.43783423085799E-04
0.7	1.05	2.46159979841373E-04
0.7	1.1	2.48516437226246E-04
0.7	1.15	2.50854203002625E-04
0.7	1.2	2.53174980557058E-04
0.8	0.0	-7.04675552814194E-17
0.8	0.05	1.07677516219915E-04
0.8	0.1	1.92337577726778E-04
0.8	0.15	2.54991239591152E-04
0.8	0.2	2.97866055986796E-04
0.8	0.25	3.24390445185465E-04
0.8	0.3	3.39294003364333E-04
0.8	0.35	3.47826187016689E-04
0.8	0.4	3.53737383934109E-04
0.8	0.45	3.58586583897003E-04
0.8	0.5	3.62909228399005E-04
0.8	0.55	3.66930604201558E-04
0.8	0.6	3.70752399366263E-04
0.8	0.65	3.74428297511676E-04
0.8	0.7	3.77990228323638E-04
0.8	0.75	3.81459976652330E-04
0.8	0.8	3.84852001534922E-04
0.8	0.85	3.88178064013044E-04
0.8	0.9	3.91446747570050E-04
0.8	0.95	3.94664387096739E-04
0.8	1.0	3.97835391669497E-04
0.8	1.05	4.00966000878838E-04
0.8	1.1	4.04058401029312E-04
0.8	1.15	4.07116060009796E-04
0.8	1.2	4.10141676843104E-04
0.9	0.0	-2.00951569261165E-17
0.9	0.05	1.28988229707104E-04
0.9	0.1	2.36662425490042E-04
0.9	0.15	3.23386482325129E-04
0.9	0.2	3.90281987210071E-04
0.9	0.25	4.39084391769436E-04
0.9	0.3	4.72234264444696E-04
0.9	0.35	4.93140150083045E-04
0.9	0.4	5.05957475155261E-04
0.9	0.45	5.14498850583789E-04
0.9	0.5	5.21065558254579E-04
0.9	0.55	5.26676015581346E-04
0.9	0.6	5.31771237061038E-04
0.9	0.65	5.36550948982900E-04
0.9	0.7	5.41110458490095E-04
0.9	0.75	5.45503287029977E-04
0.9	0.8	5.49764151747860E-04
0.9	0.85	5.53914273030831E-04
0.9	0.9	5.57971882463380E-04
0.9	0.95	5.61947533934892E-04
0.9	1.0	5.65852393361994E-04
0.9	1.05	5.69693167578573E-04
0.9	1.1	5.73476469956441E-04
0.9	1.15	5.77205747128911E-04
0.9	1.2	5.80888009378519E-04
1.0	0.0	-1.89746626114724E-17
1.0	0.05	1.45733340014164E-04
1.0	0.1	2.71763342844942E-04
1.0	0.15	3.78248644217393E-04
1.0	0.2	4.65908339287245E-04
1.0	0.25	5.35745997517040E-04
1.0	0.3	5.89082962587795E-04
1.0	0.35	6.27727434888351E-04
1.0	0.4	6.54153606293142E-04
1.0	0.45	6.71530223041988E-04
1.0	0.5	6.83219793794363E-04
1.0	0.55	6.91838669463771E-04
1.0	0.6	6.98888730914582E-04
1.0	0.65	7.05111404035522E-04
1.0	0.7	7.10851077783281E-04
1.0	0.75	7.16270884536566E-04
1.0	0.8	7.21457810379530E-04
1.0	0.85	7.26461716752730E-04
1.0	0.9	7.31319571373910E-04
1.0	0.95	7.36052416259691E-04
1.0	1.0	7.40678830329489E-04
1.0	1.05	7.45214256681640E-04
1.0	1.1	7.49666087297082E-04
1.0	1.15	7.54042469143951E-04
1.0	1.2	7.58353484236792E-04
1.1	0.0	2.81069320649275E-17
1.1	0.05	1.59026611614128E-04
1.1	0.1	2.99692088308032E-04
1.1	0.15	4.22122246900825E-04
1.1	0.2	5.26914429017050E-04
1.1	0.25	6.14806269082634E-04
1.1	0.3	6.86648216646927E-04
1.1	0.35	7.43477210275494E-04
1.1	0.4	7.86641976426409E-04
1.1	0.45	8.17962348680277E-04
1.1	0.5	8.39824549914117E-04
1.1	0.55	8.54994499146876E-04
1.1	0.6	8.66029218615289E-04
1.1	0.65	8.74744048918473E-04
1.1	0.7	8.82204966557733E-04
1.1	0.75	8.88953276233627E-04
1.1	0.8	8.95246026809559E-04
1.1	0.85	9.01218429899382E-04
1.1	0.9	9.06947705476394E-04
1.1	0.95	9.12481954484989E-04
1.1	1.0	9.17858777529956E-04
1.1	1.05	9.23100377722739E-04
1.1	1.1	9.28222527585081E-04
1.1	1.15	9.33245143579211E-04
1.1	1.2	9.38173648989569E-04
1.2	0.0	-6.53625669962974E-18
1.2	0.05	1.69740954263727E-04
1.2	0.1	3.22189950531150E-04
1.2	0.15	4.57499520261503E-04
1.2	0.2	5.76256421988044E-04
1.2	0.25	6.79125709233713E-04
1.2	0.3	7.66789688403008E-04
1.2	0.35	8.39968490084425E-04
1.2	0.4	8.99482542783120E-04
1.2	0.45	9.46354133523169E-04
1.2	0.5	9.81937164676472E-04
1.2	0.55	1.00802183505723E-03
1.2	0.6	1.02679764201934E-03
1.2	0.65	1.04054937979175E-03
1.2	0.7	1.05119146721765E-03
1.2	0.75	1.06004751127975E-03
1.2	0.8	1.06788564699429E-03
1.2	0.85	1.07509358711102E-03
1.2	0.9	1.08187016472696E-03
1.2	0.95	1.08832473045530E-03
1.2	1.0	1.09453015317254E-03
1.2	1.05	1.10053174259936E-03
1.2	1.1	1.10636520785710E-03
1.2	1.15	1.11205265135779E-03
1.2	1.2	1.11761500018764E-03