vg	vd	ids
0.0	0.0	9.21885316803511E-17
0.0	0.05	2.67633499385784E-12
0.0	0.1	3.28503149497792E-12
0.0	0.15	3.85687044660075E-12
0.0	0.2	4.53475830564906E-12
0.0	0.25	5.34695182371199E-12
0.0	0.3	6.32613157546037E-12
0.0	0.35	7.51493946075444E-12
0.0	0.4	8.96805578988779E-12
0.0	0.45	1.07568736088845E-11
0.0	0.5	1.29769413663471E-11
0.0	0.55	1.57495170336876E-11
0.0	0.6	1.92358921008289E-11
0.0	0.65	2.36478113947007E-11
0.0	0.7	2.92637327486652E-11
0.0	0.75	3.64512008288201E-11
0.0	0.8	4.56968469542763E-11
0.0	0.85	5.76363460815736E-11
0.0	0.9	7.30932769953552E-11
0.0	0.95	9.31599137870477E-11
0.0	1.0	1.19290725912483E-10
0.0	1.05	1.53499641896090E-10
0.0	1.1	1.98291372007602E-10
0.0	1.15	2.57017640839445E-10
0.0	1.2	3.34089068514316E-10
0.1	0.0	-1.74490409798459E-16
0.1	0.05	6.37254482931122E-11
0.1	0.1	7.71831212646353E-11
0.1	0.15	8.87244197838307E-11
0.1	0.2	1.01837494047285E-10
0.1	0.25	1.16844523847532E-10
0.1	0.3	1.34084562506665E-10
0.1	0.35	1.53969845831543E-10
0.1	0.4	1.77003637233868E-10
0.1	0.45	2.03806258638325E-10
0.1	0.5	2.35145614878864E-10
0.1	0.55	2.71972098690250E-10
0.1	0.6	3.15466545472438E-10
0.1	0.65	3.67111377293476E-10
0.1	0.7	4.28752277779957E-10
0.1	0.75	5.02739003685591E-10
0.1	0.8	5.92008368557418E-10
0.1	0.85	7.00284343140168E-10
0.1	0.9	8.32259622533355E-10
0.1	0.95	9.93764476206058E-10
0.1	1.0	1.19283975385697E-09
0.1	1.05	1.43860575546680E-09
0.1	1.1	1.74330875193719E-09
0.1	1.15	2.12232773725472E-09
0.1	1.2	2.59530193099693E-09
0.2	0.0	-2.28840533718825E-16
0.2	0.05	1.60645677920670E-09
0.2	0.1	1.93811660052905E-09
0.2	0.15	2.20412751959794E-09
0.2	0.2	2.49731201056195E-09
0.2	0.25	2.82298759881637E-09
0.2	0.3	3.18547718955449E-09
0.2	0.35	3.58975385634916E-09
0.2	0.4	4.04156966737590E-09
0.2	0.45	4.54762907998672E-09
0.2	0.5	5.11573923632281E-09
0.2	0.55	5.75510940042755E-09
0.2	0.6	6.47678723905380E-09
0.2	0.65	7.29324737518063E-09
0.2	0.7	8.22015685707712E-09
0.2	0.75	9.27558949062443E-09
0.2	0.8	1.04812728665978E-08
0.2	0.85	1.18634398497424E-08
0.2	0.9	1.34539468060605E-08
0.2	0.95	1.52912865499432E-08
0.2	1.0	1.74198388959388E-08
0.2	1.05	1.98955097953647E-08
0.2	1.1	2.27858794075042E-08
0.2	1.15	2.61721617608247E-08
0.2	1.2	3.01532851889529E-08
0.3	0.0	1.84632561755497E-16
0.3	0.05	4.11243985403734E-08
0.3	0.1	4.97186928780786E-08
0.3	0.15	5.62242130239426E-08
0.3	0.2	6.32034782586815E-08
0.3	0.25	7.07728450009502E-08
0.3	0.3	7.89953080843307E-08
0.3	0.35	8.79381342565636E-08
0.3	0.4	9.76744763134631E-08
0.3	0.45	1.08284484283274E-07
0.3	0.5	1.19857150216574E-07
0.3	0.55	1.32491111353249E-07
0.3	0.6	1.46293287989317E-07
0.3	0.65	1.61395537215068E-07
0.3	0.7	1.77933169496956E-07
0.3	0.75	1.96063863654622E-07
0.3	0.8	2.15967029761525E-07
0.3	0.85	2.37847385293347E-07
0.3	0.9	2.61929023718738E-07
0.3	0.95	2.88476371814360E-07
0.3	1.0	3.17790123277411E-07
0.3	1.05	3.50211502203166E-07
0.3	1.1	3.86131776984861E-07
0.3	1.15	4.25999587279557E-07
0.3	1.2	4.70328916791513E-07
0.4	0.0	6.10522910596098E-16
0.4	0.05	9.62228297631701E-07
0.4	0.1	1.17538349561676E-06
0.4	0.15	1.31923323640294E-06
0.4	0.2	1.46631435051955E-06
0.4	0.25	1.62023351556960E-06
0.4	0.3	1.78183216109102E-06
0.4	0.35	1.95177353071350E-06
0.4	0.4	2.13064914645848E-06
0.4	0.45	2.31902736456041E-06
0.4	0.5	2.51745728384607E-06
0.4	0.55	2.72650441681784E-06
0.4	0.6	2.94670810807401E-06
0.4	0.65	3.17872249086462E-06
0.4	0.7	3.42312549215303E-06
0.4	0.75	3.68058533994383E-06
0.4	0.8	3.95177133804259E-06
0.4	0.85	4.23742493319088E-06
0.4	0.9	4.53833057194378E-06
0.4	0.95	4.85532449247671E-06
0.4	1.0	5.18931020082205E-06
0.4	1.05	5.54124830347156E-06
0.4	1.1	5.91218295972147E-06
0.4	1.15	6.30323558771760E-06
0.4	1.2	6.71562700071155E-06
0.5	0.0	-4.04306578466129E-16
0.5	0.05	1.09293740393534E-05
0.5	0.1	1.43267356363066E-05
0.5	0.15	1.58234752476289E-05
0.5	0.2	1.70714495746708E-05
0.5	0.25	1.82765149665504E-05
0.5	0.3	1.94643060047404E-05
0.5	0.35	2.06443070628991E-05
0.5	0.4	2.18220818505711E-05
0.5	0.45	2.30014223395223E-05
0.5	0.5	2.41853609550794E-05
0.5	0.55	2.53758362208641E-05
0.5	0.6	2.65750172503506E-05
0.5	0.65	2.77840669479414E-05
0.5	0.7	2.90044969214639E-05
0.5	0.75	3.02373338179357E-05
0.5	0.8	3.14837297543852E-05
0.5	0.85	3.27446934498385E-05
0.5	0.9	3.40213164666472E-05
0.5	0.95	3.53144832209903E-05
0.5	1.0	3.66253779638327E-05
0.5	1.05	3.79549810674241E-05
0.5	1.1	3.93043055610905E-05
0.5	1.15	4.06746727283478E-05
0.5	1.2	4.20671333650597E-05
0.6	0.0	-1.04139019191464E-16
0.6	0.05	3.50504828161441E-05
0.6	0.1	5.37829482224748E-05
0.6	0.15	6.23243060752349E-05
0.6	0.2	6.67641933129979E-05
0.6	0.25	7.01490439231331E-05
0.6	0.3	7.32148691140277E-05
0.6	0.35	7.61086788950937E-05
0.6	0.4	7.88809793256479E-05
0.6	0.45	8.15621739831613E-05
0.6	0.5	8.41736820049010E-05
0.6	0.55	8.67298525857054E-05
0.6	0.6	8.92419189616109E-05
0.6	0.65	9.17183556301029E-05
0.6	0.7	9.41654962683353E-05
0.6	0.75	9.65892762608804E-05
0.6	0.8	9.89938209473113E-05
0.6	0.85	1.01383354876803E-04
0.6	0.9	1.03761266293174E-04
0.6	0.95	1.06130698533700E-04
0.6	1.0	1.08494370865141E-04
0.6	1.05	1.10855355152461E-04
0.6	1.1	1.13215497468974E-04
0.6	1.15	1.15577582592602E-04
0.6	1.2	1.17943714995798E-04
0.7	0.0	-1.39478415503392E-16
0.7	0.05	6.08473987620374E-05
0.7	0.1	1.02583860353099E-04
0.7	0.15	1.28371002760536E-04
0.7	0.2	1.42844672158780E-04
0.7	0.25	1.51168162602244E-04
0.7	0.3	1.57109418229228E-04
0.7	0.35	1.62184214818044E-04
0.7	0.4	1.66811773681739E-04
0.7	0.45	1.71136148961808E-04
0.7	0.5	1.75236908572562E-04
0.7	0.55	1.79165283841771E-04
0.7	0.6	1.82958573406653E-04
0.7	0.65	1.86642008121957E-04
0.7	0.7	1.90234455465950E-04
0.7	0.75	1.93751137677204E-04
0.7	0.8	1.97203113600051E-04
0.7	0.85	2.00599773056583E-04
0.7	0.9	2.03949697174961E-04
0.7	0.95	2.07259384488804E-04
0.7	1.0	2.10534109329724E-04
0.7	1.05	2.13780306341297E-04
0.7	1.1	2.17001685450929E-04
0.7	1.15	2.20202861193783E-04
0.7	1.2	2.23387524548607E-04
0.8	0.0	-1.26620882086289E-16
0.8	0.05	8.38623011918344E-05
0.8	0.1	1.48157636221387E-04
0.8	0.15	1.94626007894177E-04
0.8	0.2	2.26023167161345E-04
0.8	0.25	2.45910822746678E-04
0.8	0.3	2.58409272104017E-04
0.8	0.35	2.67182481742170E-04
0.8	0.4	2.74335100232106E-04
0.8	0.45	2.80653511790908E-04
0.8	0.5	2.86432021989372E-04
0.8	0.55	2.91824007808447E-04
0.8	0.6	2.96925715190280E-04
0.8	0.65	3.01802173577946E-04
0.8	0.7	3.06499820140894E-04
0.8	0.75	3.11050349117037E-04
0.8	0.8	3.15478469972220E-04
0.8	0.85	3.19802865170132E-04
0.8	0.9	3.24038112071762E-04
0.8	0.95	3.28196143543793E-04
0.8	1.0	3.32288657631109E-04
0.8	1.05	3.36322435045904E-04
0.8	1.1	3.40307410210578E-04
0.8	1.15	3.44248505275355E-04
0.8	1.2	3.48152102791965E-04
0.9	0.0	1.34341713056094E-16
0.9	0.05	1.03663488995833E-04
0.9	0.1	1.88086964444833E-04
0.9	0.15	2.54307163651198E-04
0.9	0.2	3.04127786703295E-04
0.9	0.25	3.39860046367822E-04
0.9	0.3	3.64339435997240E-04
0.9	0.35	3.80842611503781E-04
0.9	0.4	3.92590033359799E-04
0.9	0.45	4.01889897765927E-04
0.9	0.5	4.09888685320279E-04
0.9	0.55	4.17063082231819E-04
0.9	0.6	4.23656890514204E-04
0.9	0.65	4.29827034540643E-04
0.9	0.7	4.35675458854879E-04
0.9	0.75	4.41272071476884E-04
0.9	0.8	4.46666286490795E-04
0.9	0.85	4.51893014783320E-04
0.9	0.9	4.56978961038427E-04
0.9	0.95	4.61944913637610E-04
0.9	1.0	4.66807619419021E-04
0.9	1.05	4.71578897406939E-04
0.9	1.1	4.76273885253560E-04
0.9	1.15	4.80900882419909E-04
0.9	1.2	4.85467625826233E-04
1.0	0.0	2.78896421227313E-16
1.0	0.05	1.20537540569279E-04
1.0	0.1	2.22453178940947E-04
1.0	0.15	3.06394039104085E-04
1.0	0.2	3.73651126085982E-04
1.0	0.25	4.25852712019435E-04
1.0	0.3	4.64947765493852E-04
1.0	0.35	4.93237933293846E-04
1.0	0.4	5.13370220563194E-04
1.0	0.45	5.28070634372951E-04
1.0	0.5	5.39580125174690E-04
1.0	0.55	5.49269418101232E-04
1.0	0.6	5.57818002750780E-04
1.0	0.65	5.65572639333825E-04
1.0	0.7	5.72747482454059E-04
1.0	0.75	5.79494288618692E-04
1.0	0.8	5.85911987989043E-04
1.0	0.85	5.92072359168516E-04
1.0	0.9	5.98018449903391E-04
1.0	0.95	6.03790698061488E-04
1.0	1.0	6.09411119208020E-04
1.0	1.05	6.14904550802926E-04
1.0	1.1	6.20288172254574E-04
1.0	1.15	6.25573784292188E-04
1.0	1.2	6.30777315690393E-04
1.1	0.0	-5.70721856552304E-16
1.1	0.05	1.34900302007169E-04
1.1	0.1	2.51881914784186E-04
1.1	0.15	3.51368893119841E-04
1.1	0.2	4.34357893477013E-04
1.1	0.25	5.02088394826704E-04
1.1	0.3	5.55993880937655E-04
1.1	0.35	5.97718123988914E-04
1.1	0.4	6.29167983553743E-04
1.1	0.45	6.52508192533161E-04
1.1	0.5	6.70023370413564E-04
1.1	0.55	6.83757802750194E-04
1.1	0.6	6.95166089872967E-04
1.1	0.65	7.05086778038271E-04
1.1	0.7	7.13985692769564E-04
1.1	0.75	7.22143327697575E-04
1.1	0.8	7.29748541060250E-04
1.1	0.85	7.36941024774054E-04
1.1	0.9	7.43813474424523E-04
1.1	0.95	7.50429496401817E-04
1.1	1.0	7.56831747587163E-04
1.1	1.05	7.63058901036061E-04
1.1	1.1	7.69132763533764E-04
1.1	1.15	7.75076991922830E-04
1.1	1.2	7.80908249621114E-04
1.2	0.0	3.38930478254983E-17
1.2	0.05	1.47160545494818E-04
1.2	0.1	2.77094653492017E-04
1.2	0.15	3.90099209850791E-04
1.2	0.2	4.86999772784531E-04
1.2	0.25	5.68806868575288E-04
1.2	0.3	6.36649134891697E-04
1.2	0.35	6.91771416616700E-04
1.2	0.4	7.35578963502121E-04
1.2	0.45	7.69661775524472E-04
1.2	0.5	7.95811556740688E-04
1.2	0.55	8.15942538829949E-04
1.2	0.6	8.31865511025779E-04
1.2	0.65	8.45013980079175E-04
1.2	0.7	8.56326250736267E-04
1.2	0.75	8.66369689147396E-04
1.2	0.8	8.75500692215927E-04
1.2	0.85	8.83952792378573E-04
1.2	0.9	8.91898632016158E-04
1.2	0.95	8.99455300533540E-04
1.2	1.0	9.06706979266089E-04
1.2	1.05	9.13709589439866E-04
1.2	1.1	9.20505054366457E-04
1.2	1.15	9.27125756760396E-04
1.2	1.2	9.33597280902977E-04