vg	vd	ids
0.0	0.0	-7.11004881866882E-17
0.0	0.05	8.78809263379807E-12
0.0	0.1	1.21956523401159E-11
0.0	0.15	1.61689255152191E-11
0.0	0.2	2.16330234912789E-11
0.0	0.25	2.92369954908111E-11
0.0	0.3	3.98949044398942E-11
0.0	0.35	5.49078071060537E-11
0.0	0.4	7.61520742690128E-11
0.0	0.45	1.06362974708575E-10
0.0	0.5	1.49441322212487E-10
0.0	0.55	2.10988004925865E-10
0.0	0.6	2.98985809382040E-10
0.0	0.65	4.24782353095277E-10
0.0	0.7	6.04394683309988E-10
0.0	0.75	8.60729661230044E-10
0.0	0.8	1.22552631354920E-09
0.0	0.85	1.74323738628194E-09
0.0	0.9	2.47604159135319E-09
0.0	0.95	3.50956104911832E-09
0.0	1.0	4.96196177057463E-09
0.0	1.05	6.99458676814207E-09
0.0	1.1	9.82682015365586E-09
0.0	1.15	1.37549812215835E-08
0.0	1.2	1.91766380366671E-08
0.1	0.0	-1.73810919038766E-16
0.1	0.05	1.47192765303125E-10
0.1	0.1	1.92882848957361E-10
0.1	0.15	2.38351642134599E-10
0.1	0.2	2.95471257210937E-10
0.1	0.25	3.68320741491791E-10
0.1	0.3	4.62083527874712E-10
0.1	0.35	5.83791142381602E-10
0.1	0.4	7.43072551656478E-10
0.1	0.45	9.53055516044582E-10
0.1	0.5	1.23160535156232E-09
0.1	0.55	1.60319230543703E-09
0.1	0.6	2.10091786932325E-09
0.1	0.65	2.76900991388244E-09
0.1	0.7	3.66909908365642E-09
0.1	0.75	4.88448751955175E-09
0.1	0.8	6.52723455878748E-09
0.1	0.85	8.74923025072415E-09
0.1	0.9	1.17527147504258E-08
0.1	0.95	1.58095313903389E-08
0.1	1.0	2.12785712426472E-08
0.1	1.05	2.86342777003571E-08
0.1	1.1	3.84992470319654E-08
0.1	1.15	5.16854044475042E-08
0.1	1.2	6.92437576294605E-08
0.2	0.0	6.45629078987962E-17
0.2	0.05	3.01267735099206E-09
0.2	0.1	3.84194889853764E-09
0.2	0.15	4.56804846943202E-09
0.2	0.2	5.41542105848021E-09
0.2	0.25	6.42004990134961E-09
0.2	0.3	7.61875353428878E-09
0.2	0.35	9.05825507052173E-09
0.2	0.4	1.07979945549125E-08
0.2	0.45	1.29141443436151E-08
0.2	0.5	1.55042022298143E-08
0.2	0.55	1.86937846376903E-08
0.2	0.6	2.26440605670618E-08
0.2	0.65	2.75635739404032E-08
0.2	0.7	3.37207350004315E-08
0.2	0.75	4.14569695837337E-08
0.2	0.8	5.12134389080887E-08
0.2	0.85	6.35520974084428E-08
0.2	0.9	7.91928921359888E-08
0.2	0.95	9.90392491368542E-08
0.2	1.0	1.24222040437205E-07
0.2	1.05	1.56155668855482E-07
0.2	1.1	1.96665448276659E-07
0.2	1.15	2.47980888719677E-07
0.2	1.2	3.12860754663979E-07
0.3	0.0	-1.70168953574638E-17
0.3	0.05	6.65171978635402E-08
0.3	0.1	8.41015341331790E-08
0.3	0.15	9.80528734414482E-08
0.3	0.2	1.13417874140604E-07
0.3	0.25	1.30668126834469E-07
0.3	0.3	1.50110033581358E-07
0.3	0.35	1.72099335422618E-07
0.3	0.4	1.97052002438733E-07
0.3	0.45	2.25454302244293E-07
0.3	0.5	2.57900571252635E-07
0.3	0.55	2.95079254075352E-07
0.3	0.6	3.37824817717317E-07
0.3	0.65	3.87130205421280E-07
0.3	0.7	4.44178116205911E-07
0.3	0.75	5.10395999369527E-07
0.3	0.8	5.87476953594278E-07
0.3	0.85	6.77442003963176E-07
0.3	0.9	7.82691875485907E-07
0.3	0.95	9.06059558888649E-07
0.3	1.0	1.05088196061153E-06
0.3	1.05	1.22106649721241E-06
0.3	1.1	1.42112353089606E-06
0.3	1.15	1.65625593773154E-06
0.3	1.2	1.93238262480362E-06
0.4	0.0	-4.20225142895632E-17
0.4	0.05	1.31271298011876E-06
0.4	0.1	1.67240263147457E-06
0.4	0.15	1.91619262593087E-06
0.4	0.2	2.16323903650208E-06
0.4	0.25	2.42344362313280E-06
0.4	0.3	2.69916809120908E-06
0.4	0.35	2.99229709586065E-06
0.4	0.4	3.30464789367023E-06
0.4	0.45	3.63801809891900E-06
0.4	0.5	3.99432925958980E-06
0.4	0.55	4.37561755743401E-06
0.4	0.6	4.78406342836924E-06
0.4	0.65	5.22211133094545E-06
0.4	0.7	5.69239456438377E-06
0.4	0.75	6.19785859624252E-06
0.4	0.8	6.74172955240997E-06
0.4	0.85	7.32757125125930E-06
0.4	0.9	7.95931464050440E-06
0.4	0.95	8.64126530639085E-06
0.4	1.0	9.37813491749758E-06
0.4	1.05	1.01750505345602E-05
0.4	1.1	1.10375198061482E-05
0.4	1.15	1.19714455691220E-05
0.4	1.2	1.29831729192589E-05
0.5	0.0	-9.77910132894995E-18
0.5	0.05	1.14017608420511E-05
0.5	0.1	1.57547581428703E-05
0.5	0.15	1.77877133570007E-05
0.5	0.2	1.93765837620397E-05
0.5	0.25	2.08770172075803E-05
0.5	0.3	2.23448052936504E-05
0.5	0.35	2.37997028916755E-05
0.5	0.4	2.52537621661190E-05
0.5	0.45	2.67153197751920E-05
0.5	0.5	2.81903714494320E-05
0.5	0.55	2.96843048586639E-05
0.5	0.6	3.12012987904468E-05
0.5	0.65	3.27454833624498E-05
0.5	0.7	3.43207536030585E-05
0.5	0.75	3.59307246997381E-05
0.5	0.8	3.75794717639057E-05
0.5	0.85	3.92706889315588E-05
0.5	0.9	4.10085313323881E-05
0.5	0.95	4.27972400741213E-05
0.5	1.0	4.46413856747201E-05
0.5	1.05	4.65453848505574E-05
0.5	1.1	4.85144592197427E-05
0.5	1.15	5.05533977765371E-05
0.5	1.2	5.26676809669166E-05
0.6	0.0	3.07055744274158E-17
0.6	0.05	3.18512043174757E-05
0.6	0.1	5.06654646482401E-05
0.6	0.15	6.05261121366888E-05
0.6	0.2	6.59878033904438E-05
0.6	0.25	6.99538780915606E-05
0.6	0.3	7.34218526676907E-05
0.6	0.35	7.66449240276591E-05
0.6	0.4	7.97158049410392E-05
0.6	0.45	8.26858620940581E-05
0.6	0.5	8.55879366239718E-05
0.6	0.55	8.84437606971881E-05
0.6	0.6	9.12701025705207E-05
0.6	0.65	9.40786507997787E-05
0.6	0.7	9.68798082337483E-05
0.6	0.75	9.96822813358034E-05
0.6	0.8	1.02492996086147E-04
0.6	0.85	1.05319721402763E-04
0.6	0.9	1.08168333595999E-04
0.6	0.95	1.11045118322449E-04
0.6	1.0	1.13955812372990E-04
0.6	1.05	1.16907051654124E-04
0.6	1.1	1.19904069645675E-04
0.6	1.15	1.22952525702418E-04
0.6	1.2	1.26058909278403E-04
0.7	0.0	-5.88739296050875E-17
0.7	0.05	5.34008190428460E-05
0.7	0.1	9.18470165772868E-05
0.7	0.15	1.17445429432926E-04
0.7	0.2	1.33324283441849E-04
0.7	0.25	1.43160223447832E-04
0.7	0.3	1.50082647699243E-04
0.7	0.35	1.55758899900756E-04
0.7	0.4	1.60808835078156E-04
0.7	0.45	1.65479900663951E-04
0.7	0.5	1.69901113069081E-04
0.7	0.55	1.74149324614468E-04
0.7	0.6	1.78273934097525E-04
0.7	0.65	1.82307416686113E-04
0.7	0.7	1.86274402576634E-04
0.7	0.75	1.90193456365366E-04
0.7	0.8	1.94078360204792E-04
0.7	0.85	1.97943091417168E-04
0.7	0.9	2.01797600641443E-04
0.7	0.95	2.05651657444579E-04
0.7	1.0	2.09513668079579E-04
0.7	1.05	2.13393204337300E-04
0.7	1.1	2.17296306250465E-04
0.7	1.15	2.21231004777395E-04
0.7	1.2	2.25205003664208E-04
0.8	0.0	5.18232537370183E-17
0.8	0.05	7.31662442076485E-05
0.8	0.1	1.30924514306333E-04
0.8	0.15	1.74451683015289E-04
0.8	0.2	2.05645883365616E-04
0.8	0.25	2.26975516130010E-04
0.8	0.3	2.41350109691953E-04
0.8	0.35	2.51588221833828E-04
0.8	0.4	2.59671378238548E-04
0.8	0.45	2.66598328473004E-04
0.8	0.5	2.72831319141466E-04
0.8	0.55	2.78621207621572E-04
0.8	0.6	2.84112278344970E-04
0.8	0.65	2.89390595695864E-04
0.8	0.7	2.94513287141272E-04
0.8	0.75	2.99518396911086E-04
0.8	0.8	3.04434616384424E-04
0.8	0.85	3.09283903788965E-04
0.8	0.9	3.14084453902191E-04
0.8	0.95	3.18851073571904E-04
0.8	1.0	3.23595881248228E-04
0.8	1.05	3.28333029559783E-04
0.8	1.1	3.33070093309478E-04
0.8	1.15	3.37816862391204E-04
0.8	1.2	3.42583900952586E-04
0.9	0.0	1.08765060258241E-18
0.9	0.05	9.07101188963562E-05
0.9	0.1	1.66117523329844E-04
0.9	0.15	2.26901411511771E-04
0.9	0.2	2.74315668474204E-04
0.9	0.25	3.10001251003372E-04
0.9	0.3	3.35978512878840E-04
0.9	0.35	3.54588573481653E-04
0.9	0.4	3.68226450425067E-04
0.9	0.45	3.78862188914689E-04
0.9	0.5	3.87745290259978E-04
0.9	0.55	3.95555370590639E-04
0.9	0.6	4.02677056832141E-04
0.9	0.65	4.09347074233384E-04
0.9	0.7	4.15704634007280E-04
0.9	0.75	4.21834900693378E-04
0.9	0.8	4.27796181609342E-04
0.9	0.85	4.33626078466737E-04
0.9	0.9	4.39356840443026E-04
0.9	0.95	4.45013488687994E-04
0.9	1.0	4.50611375217181E-04
0.9	1.05	4.56172069072682E-04
0.9	1.1	4.61705699774783E-04
0.9	1.15	4.67226590172076E-04
0.9	1.2	4.72745771721404E-04
1.0	0.0	-2.19579904170915E-16
1.0	0.05	1.06087135300753E-04
1.0	0.1	1.97236609611024E-04
1.0	0.15	2.73826025919790E-04
1.0	0.2	3.36733793154571E-04
1.0	0.25	3.87121006856526E-04
1.0	0.3	4.26408450990452E-04
1.0	0.35	4.56280769277976E-04
1.0	0.4	4.78659649629337E-04
1.0	0.45	4.95563158891458E-04
1.0	0.5	5.08801167716143E-04
1.0	0.55	5.19707588558297E-04
1.0	0.6	5.29133417727795E-04
1.0	0.65	5.37599972234194E-04
1.0	0.7	5.45430085292159E-04
1.0	0.75	5.52829097840865E-04
1.0	0.8	5.59923063518595E-04
1.0	0.85	5.66786695389565E-04
1.0	0.9	5.73479882520345E-04
1.0	0.95	5.80037934056404E-04
1.0	1.0	5.86494345677038E-04
1.0	1.05	5.92873759543868E-04
1.0	1.1	5.99193511861803E-04
1.0	1.15	6.05471874956817E-04
1.0	1.2	6.11725481046772E-04
1.1	0.0	-1.23158544041327E-17
1.1	0.05	1.19490931384453E-04
1.1	0.1	2.24525054507634E-04
1.1	0.15	3.15291351555536E-04
1.1	0.2	3.92434654258571E-04
1.1	0.25	4.56820620473037E-04
1.1	0.3	5.09496027703560E-04
1.1	0.35	5.51688697878793E-04
1.1	0.4	5.84819786186229E-04
1.1	0.45	6.10497073200903E-04
1.1	0.5	6.30424716431040E-04
1.1	0.55	6.46214986773763E-04
1.1	0.6	6.59178720145692E-04
1.1	0.65	6.70262113616098E-04
1.1	0.7	6.80097200921750E-04
1.1	0.75	6.89100366430860E-04
1.1	0.8	6.97536997967886E-04
1.1	0.85	7.05573354487750E-04
1.1	0.9	7.13320238068890E-04
1.1	0.95	7.20843031194191E-04
1.1	1.0	7.28197701094980E-04
1.1	1.05	7.35420618299888E-04
1.1	1.1	7.42541575809862E-04
1.1	1.15	7.49586586046477E-04
1.1	1.2	7.56577993758179E-04
1.2	0.0	1.23222894884897E-16
1.2	0.05	1.31157039859875E-04
1.2	0.1	2.48373340288567E-04
1.2	0.15	3.51720830772023E-04
1.2	0.2	4.41697437789288E-04
1.2	0.25	5.18981630257653E-04
1.2	0.3	5.84381710531306E-04
1.2	0.35	6.38827329037992E-04
1.2	0.4	6.83380510173728E-04
1.2	0.45	7.19254069926794E-04
1.2	0.5	7.47807832118955E-04
1.2	0.55	7.70489750127259E-04
1.2	0.6	7.88717781537587E-04
1.2	0.65	8.03728657145231E-04
1.2	0.7	8.16499150613054E-04
1.2	0.75	8.27730837782936E-04
1.2	0.8	8.37926419082946E-04
1.2	0.85	8.47414214486058E-04
1.2	0.9	8.56397325337855E-04
1.2	0.95	8.65017372456829E-04
1.2	1.0	8.73360741921521E-04
1.2	1.05	8.81496081399946E-04
1.2	1.1	8.89465902327047E-04
1.2	1.15	8.97313920899889E-04
1.2	1.2	9.05063429375156E-04