vg	vd	ids
0.0	0.0	3.12554765260501E-17
0.0	0.05	1.00461493531618E-13
0.0	0.1	1.11701605612259E-13
0.0	0.15	1.15677949953213E-13
0.0	0.2	1.19284052425775E-13
0.0	0.25	1.23063131560522E-13
0.0	0.3	1.26732089598456E-13
0.0	0.35	1.30440616651676E-13
0.0	0.4	1.34332823462556E-13
0.0	0.45	1.38646933315094E-13
0.0	0.5	1.42446607486149E-13
0.0	0.55	1.46983354698830E-13
0.0	0.6	1.50949846578028E-13
0.0	0.65	1.55796519162038E-13
0.0	0.7	1.60158228325964E-13
0.0	0.75	1.64717274751309E-13
0.0	0.8	1.69450873379786E-13
0.0	0.85	1.74027577534230E-13
0.0	0.9	1.79079740888802E-13
0.0	0.95	1.84382157295293E-13
0.0	1.0	1.89794255366912E-13
0.0	1.05	1.95275158879085E-13
0.0	1.1	2.01187591905356E-13
0.0	1.15	2.06596785609562E-13
0.0	1.2	2.13287452353000E-13
0.1	0.0	-1.03565070481535E-16
0.1	0.05	3.31227879512661E-12
0.1	0.1	3.70840532483438E-12
0.1	0.15	3.84327269608165E-12
0.1	0.2	3.96999724283770E-12
0.1	0.25	4.09856237560571E-12
0.1	0.3	4.22984470803194E-12
0.1	0.35	4.36361144757263E-12
0.1	0.4	4.49997586637742E-12
0.1	0.45	4.63996425738855E-12
0.1	0.5	4.78221716601866E-12
0.1	0.55	4.92817023184876E-12
0.1	0.6	5.07807718833732E-12
0.1	0.65	5.23136017156369E-12
0.1	0.7	5.38879562317981E-12
0.1	0.75	5.54984551573565E-12
0.1	0.8	5.71448360217654E-12
0.1	0.85	5.88433924524893E-12
0.1	0.9	6.05813152927841E-12
0.1	0.95	6.23661110857571E-12
0.1	1.0	6.41964825070325E-12
0.1	1.05	6.60828823748823E-12
0.1	1.1	6.80196874851192E-12
0.1	1.15	7.00069861769041E-12
0.1	1.2	7.20503179232721E-12
0.2	0.0	2.81505068440647E-17
0.2	0.05	1.11481124386540E-10
0.2	0.1	1.25308047698758E-10
0.2	0.15	1.30118543818752E-10
0.2	0.2	1.34605691547802E-10
0.2	0.25	1.39160771214851E-10
0.2	0.3	1.43795055049491E-10
0.2	0.35	1.48516210187588E-10
0.2	0.4	1.53329688399397E-10
0.2	0.45	1.58242487485423E-10
0.2	0.5	1.63251647815007E-10
0.2	0.55	1.68388243746429E-10
0.2	0.6	1.73633319841742E-10
0.2	0.65	1.78999133188092E-10
0.2	0.7	1.84492163821110E-10
0.2	0.75	1.90117249627035E-10
0.2	0.8	1.95878546195892E-10
0.2	0.85	2.01782555630166E-10
0.2	0.9	2.07833949918565E-10
0.2	0.95	2.14039539121777E-10
0.2	1.0	2.20403828953185E-10
0.2	1.05	2.26933245929103E-10
0.2	1.1	2.33632845513493E-10
0.2	1.15	2.40509740840063E-10
0.2	1.2	2.47567977064205E-10
0.3	0.0	1.32212990000691E-16
0.3	0.05	3.79168954747849E-09
0.3	0.1	4.28035487534826E-09
0.3	0.15	4.45351419574438E-09
0.3	0.2	4.61365506238814E-09
0.3	0.25	4.77558854034940E-09
0.3	0.3	4.93986523422212E-09
0.3	0.35	5.10681675282667E-09
0.3	0.4	5.27670204367902E-09
0.3	0.45	5.44972947001386E-09
0.3	0.5	5.62619107401588E-09
0.3	0.55	5.80624067831012E-09
0.3	0.6	5.99007850718892E-09
0.3	0.65	6.17788122920288E-09
0.3	0.7	6.36981712430579E-09
0.3	0.75	6.56606818625810E-09
0.3	0.8	6.76680713494467E-09
0.3	0.85	6.97220541339470E-09
0.3	0.9	7.18243554488621E-09
0.3	0.95	7.39766963152300E-09
0.3	1.0	7.61808394123610E-09
0.3	1.05	7.84385450145441E-09
0.3	1.1	8.07516108230046E-09
0.3	1.15	8.31218637871072E-09
0.3	1.2	8.55511193368464E-09
0.4	0.0	-9.51043200947145E-17
0.4	0.05	1.26894926569473E-07
0.4	0.1	1.44277156051409E-07
0.4	0.15	1.50435683151322E-07
0.4	0.2	1.56009634152608E-07
0.4	0.25	1.61597420969860E-07
0.4	0.3	1.67233400078682E-07
0.4	0.35	1.72934618311522E-07
0.4	0.4	1.78713160392940E-07
0.4	0.45	1.84580691825016E-07
0.4	0.5	1.90541045766600E-07
0.4	0.55	1.96605323773511E-07
0.4	0.6	2.02779251673808E-07
0.4	0.65	2.09068565664731E-07
0.4	0.7	2.15478901539786E-07
0.4	0.75	2.22015611101395E-07
0.4	0.8	2.28683771627037E-07
0.4	0.85	2.35488350760068E-07
0.4	0.9	2.42434195026187E-07
0.4	0.95	2.49526113690861E-07
0.4	1.0	2.56768872596302E-07
0.4	1.05	2.64167230885861E-07
0.4	1.1	2.71725965177490E-07
0.4	1.15	2.79449843141450E-07
0.4	1.2	2.87343660096846E-07
0.5	0.0	3.37702955056229E-17
0.5	0.05	3.01137173300101E-06
0.5	0.1	3.58173637612106E-06
0.5	0.15	3.74527687527398E-06
0.5	0.2	3.87087799889806E-06
0.5	0.25	3.99207559817912E-06
0.5	0.3	4.11173295999528E-06
0.5	0.35	4.23080312480117E-06
0.5	0.4	4.34987515663425E-06
0.5	0.45	4.46902319025572E-06
0.5	0.5	4.58870566790690E-06
0.5	0.55	4.70903571667846E-06
0.5	0.6	4.83014411266156E-06
0.5	0.65	4.95214082547014E-06
0.5	0.7	5.07511975011726E-06
0.5	0.75	5.19916268159324E-06
0.5	0.8	5.32433747866510E-06
0.5	0.85	5.45071024417797E-06
0.5	0.9	5.57833236260076E-06
0.5	0.95	5.70725780910778E-06
0.5	1.0	5.83753201322206E-06
0.5	1.05	5.96919569018086E-06
0.5	1.1	6.10229283945357E-06
0.5	1.15	6.23685784438035E-06
0.5	1.2	6.37292706483017E-06
0.6	0.0	-1.70733682158519E-16
0.6	0.05	1.79064399094884E-05
0.6	0.1	2.56640981786002E-05
0.6	0.15	2.81868796732174E-05
0.6	0.2	2.91559542454826E-05
0.6	0.25	2.98528554469219E-05
0.6	0.3	3.04888679946729E-05
0.6	0.35	3.10982717542407E-05
0.6	0.4	3.16920122147509E-05
0.6	0.45	3.22741535662978E-05
0.6	0.5	3.28481193603903E-05
0.6	0.55	3.34156407020631E-05
0.6	0.6	3.39779106443139E-05
0.6	0.65	3.45359736102447E-05
0.6	0.7	3.50905294350766E-05
0.6	0.75	3.56422662723839E-05
0.6	0.8	3.61916695944051E-05
0.6	0.85	3.67391746423717E-05
0.6	0.9	3.72851878992491E-05
0.6	0.95	3.78299871847416E-05
0.6	1.0	3.83738901467975E-05
0.6	1.05	3.89171223918769E-05
0.6	1.1	3.94599030811760E-05
0.6	1.15	4.00024319991620E-05
0.6	1.2	4.05448867408860E-05
0.7	0.0	-2.59226756717209E-17
0.7	0.05	3.84566285498509E-05
0.7	0.1	6.33146134895487E-05
0.7	0.15	7.71104700309577E-05
0.7	0.2	8.35179269548293E-05
0.7	0.25	8.63796971446863E-05
0.7	0.3	8.81317951566426E-05
0.7	0.35	8.95963658012967E-05
0.7	0.4	9.09469089689187E-05
0.7	0.45	9.22322487760561E-05
0.7	0.5	9.34775685912298E-05
0.7	0.55	9.46919080187474E-05
0.7	0.6	9.58806371420595E-05
0.7	0.65	9.70478991582023E-05
0.7	0.7	9.81968345546679E-05
0.7	0.75	9.93297527775122E-05
0.7	0.8	1.00448546656231E-04
0.7	0.85	1.01554791594937E-04
0.7	0.9	1.02649815622605E-04
0.7	0.95	1.03734575353212E-04
0.7	1.0	1.04810225823738E-04
0.7	1.05	1.05877400686213E-04
0.7	1.1	1.06936882246085E-04
0.7	1.15	1.07989352055639E-04
0.7	1.2	1.09035319027966E-04
0.8	0.0	-1.18324021805678E-16
0.8	0.05	5.77643785411108E-05
0.8	0.1	1.01269281305224E-04
0.8	0.15	1.31703592884836E-04
0.8	0.2	1.51037433129469E-04
0.8	0.25	1.61966923188640E-04
0.8	0.3	1.67688056680649E-04
0.8	0.35	1.71026847052945E-04
0.8	0.4	1.73539679003559E-04
0.8	0.45	1.75742235422858E-04
0.8	0.5	1.77799211306712E-04
0.8	0.55	1.79765178788644E-04
0.8	0.6	1.81664532041159E-04
0.8	0.65	1.83510652495745E-04
0.8	0.7	1.85312367783049E-04
0.8	0.75	1.87075948973780E-04
0.8	0.8	1.88806228070746E-04
0.8	0.85	1.90507039186577E-04
0.8	0.9	1.92181220253953E-04
0.8	0.95	1.93831576100810E-04
0.8	1.0	1.95460064422030E-04
0.8	1.05	1.97068412922527E-04
0.8	1.1	1.98658374075924E-04
0.8	1.15	2.00231178256472E-04
0.8	1.2	2.01788106398290E-04
0.9	0.0	-2.05604569614736E-17
0.9	0.05	7.45011295127448E-05
0.9	0.1	1.34998813569103E-04
0.9	0.15	1.82065844815268E-04
0.9	0.2	2.16818361772887E-04
0.9	0.25	2.40787646101250E-04
0.9	0.3	2.56013977743554E-04
0.9	0.35	2.65017019453600E-04
0.9	0.4	2.70430038161856E-04
0.9	0.45	2.74232078848342E-04
0.9	0.5	2.77384710921308E-04
0.9	0.55	2.80249796218462E-04
0.9	0.6	2.82950913139237E-04
0.9	0.65	2.85537023035845E-04
0.9	0.7	2.88035024021617E-04
0.9	0.75	2.90460245454827E-04
0.9	0.8	2.92824304718930E-04
0.9	0.85	2.95134723294340E-04
0.9	0.9	2.97398091991684E-04
0.9	0.95	2.99619092739309E-04
0.9	1.0	3.01801713166993E-04
0.9	1.05	3.03949407042929E-04
0.9	1.1	3.06064866524282E-04
0.9	1.15	3.08150956090732E-04
0.9	1.2	3.10209232765956E-04
1.0	0.0	-6.64333835968862E-17
1.0	0.05	8.86544338735653E-05
1.0	0.1	1.63877587406228E-04
1.0	0.15	2.25945021199350E-04
1.0	0.2	2.75548794233284E-04
1.0	0.25	3.13625536451593E-04
1.0	0.3	3.41399676951126E-04
1.0	0.35	3.60446459615128E-04
1.0	0.4	3.72743154297059E-04
1.0	0.45	3.80540600181470E-04
1.0	0.5	3.85888325698627E-04
1.0	0.55	3.90107193570038E-04
1.0	0.6	3.93819242476532E-04
1.0	0.65	3.97262773485099E-04
1.0	0.7	4.00529618122056E-04
1.0	0.75	4.03664194361298E-04
1.0	0.8	4.06693538616782E-04
1.0	0.85	4.09634820839690E-04
1.0	0.9	4.12500116809233E-04
1.0	0.95	4.15298826402875E-04
1.0	1.0	4.18038166066791E-04
1.0	1.05	4.20723925816132E-04
1.0	1.1	4.23360729485895E-04
1.0	1.15	4.25953423687397E-04
1.0	1.2	4.28504465751571E-04
1.1	0.0	-2.16864457839933E-16
1.1	0.05	1.00542900889836E-04
1.1	0.1	1.88297900309392E-04
1.1	0.15	2.63398134275860E-04
1.1	0.2	3.26328188545689E-04
1.1	0.25	3.77726322733875E-04
1.1	0.3	4.18383959104075E-04
1.1	0.35	4.49281306091819E-04
1.1	0.4	4.71655995937375E-04
1.1	0.45	4.87067528051113E-04
1.1	0.5	4.97375750647060E-04
1.1	0.55	5.04489311299335E-04
1.1	0.6	5.09914282627668E-04
1.1	0.65	5.14529524070588E-04
1.1	0.7	5.18730493443193E-04
1.1	0.75	5.22674654583674E-04
1.1	0.8	5.26433996541761E-04
1.1	0.85	5.30049372111717E-04
1.1	0.9	5.33545748704357E-04
1.1	0.95	5.36941952313159E-04
1.1	1.0	5.40250234808353E-04
1.1	1.05	5.43481449521991E-04
1.1	1.1	5.46642621566534E-04
1.1	1.15	5.49740961880655E-04
1.1	1.2	5.52781468722101E-04
1.2	0.0	2.20003442941139E-17
1.2	0.05	1.10545799482107E-04
1.2	0.1	2.08915009230025E-04
1.2	0.15	2.95177758579104E-04
1.2	0.2	3.69722153385942E-04
1.2	0.25	4.33040782184762E-04
1.2	0.3	4.85705647814454E-04
1.2	0.35	5.28378475643945E-04
1.2	0.4	5.61852294065364E-04
1.2	0.45	5.87110598801636E-04
1.2	0.5	6.05390615100952E-04
1.2	0.55	6.18207712605131E-04
1.2	0.6	6.27240764252476E-04
1.2	0.65	6.34019531620891E-04
1.2	0.7	6.39615830766395E-04
1.2	0.75	6.44602223961569E-04
1.2	0.8	6.49228765154517E-04
1.2	0.85	6.53606090458395E-04
1.2	0.9	6.57794049595133E-04
1.2	0.95	6.61829482730092E-04
1.2	1.0	6.65735998983217E-04
1.2	1.05	6.69533678823168E-04
1.2	1.1	6.73232821698235E-04
1.2	1.15	6.76846552267284E-04
1.2	1.2	6.80381757672875E-04