vg	vd	ids
0.0	0.0	6.94043951848959E-17
0.0	0.05	2.46471788452082E-13
0.0	0.1	2.76337362849247E-13
0.0	0.15	2.91531553350131E-13
0.0	0.2	3.06949719776006E-13
0.0	0.25	3.23083343955179E-13
0.0	0.3	3.40445962161595E-13
0.0	0.35	3.58089631304486E-13
0.0	0.4	3.76508666874343E-13
0.0	0.45	3.96311856102904E-13
0.0	0.5	4.17256545352874E-13
0.0	0.55	4.39045356094568E-13
0.0	0.6	4.62009001027470E-13
0.0	0.65	4.85889261534329E-13
0.0	0.7	5.11266964459428E-13
0.0	0.75	5.38113993493875E-13
0.0	0.8	5.66369123437620E-13
0.0	0.85	5.95814167688724E-13
0.0	0.9	6.27425193463858E-13
0.0	0.95	6.60561673576550E-13
0.0	1.0	6.95619968940229E-13
0.0	1.05	7.32286343893256E-13
0.0	1.1	7.71231692517508E-13
0.0	1.15	8.13110322991632E-13
0.0	1.2	8.56277776877514E-13
0.1	0.0	4.29901961418509E-17
0.1	0.05	8.03127511659344E-12
0.1	0.1	9.04242709725682E-12
0.1	0.15	9.54985559783726E-12
0.1	0.2	1.00651291122068E-11
0.1	0.25	1.06021257133124E-11
0.1	0.3	1.11625164464522E-11
0.1	0.35	1.17472316482470E-11
0.1	0.4	1.23583471044125E-11
0.1	0.45	1.29937764424908E-11
0.1	0.5	1.36645430089890E-11
0.1	0.55	1.43647772245026E-11
0.1	0.6	1.50997146445488E-11
0.1	0.65	1.58693771512565E-11
0.1	0.7	1.66746183514383E-11
0.1	0.75	1.75213644516939E-11
0.1	0.8	1.84083565421019E-11
0.1	0.85	1.93388205626057E-11
0.1	0.9	2.03162897178287E-11
0.1	0.95	2.13414503125472E-11
0.1	1.0	2.24179313700543E-11
0.1	1.05	2.35485447251729E-11
0.1	1.1	2.47356988406177E-11
0.1	1.15	2.59827786886039E-11
0.1	1.2	2.72932793108091E-11
0.2	0.0	-7.51133819750328E-17
0.2	0.05	2.64387953851294E-10
0.2	0.1	2.98978876258493E-10
0.2	0.15	3.16189959222200E-10
0.2	0.2	3.33500746523516E-10
0.2	0.25	3.51434718221973E-10
0.2	0.3	3.70049171850837E-10
0.2	0.35	3.89396592937278E-10
0.2	0.4	4.09529574788840E-10
0.2	0.45	4.30497089372084E-10
0.2	0.5	4.52259782537359E-10
0.2	0.55	4.75020403386046E-10
0.2	0.6	4.98825684972017E-10
0.2	0.65	5.23690273220443E-10
0.2	0.7	5.49598523216281E-10
0.2	0.75	5.76653708777950E-10
0.2	0.8	6.04927499193356E-10
0.2	0.85	6.34457617637041E-10
0.2	0.9	6.65312553304963E-10
0.2	0.95	6.97556619216670E-10
0.2	1.0	7.31254939236365E-10
0.2	1.05	7.66482040542436E-10
0.2	1.1	8.03311895733076E-10
0.2	1.15	8.41822023175783E-10
0.2	1.2	8.82095229318683E-10
0.3	0.0	-5.21889886704634E-17
0.3	0.05	8.70333494886433E-09
0.3	0.1	9.89593505303908E-09
0.3	0.15	1.04839331939563E-08
0.3	0.2	1.10677059028248E-08
0.3	0.25	1.16679071115046E-08
0.3	0.3	1.22868757429092E-08
0.3	0.35	1.29266021447392E-08
0.3	0.4	1.35888525210274E-08
0.3	0.45	1.42724457968565E-08
0.3	0.5	1.49860114946459E-08
0.3	0.55	1.57256556866659E-08
0.3	0.6	1.64936310323199E-08
0.3	0.65	1.72920520414255E-08
0.3	0.7	1.81221973383124E-08
0.3	0.75	1.89852910491152E-08
0.3	0.8	1.98829578550853E-08
0.3	0.85	2.08168519563433E-08
0.3	0.9	2.17885623425886E-08
0.3	0.95	2.27997621953450E-08
0.3	1.0	2.38521556604415E-08
0.3	1.05	2.49475005347745E-08
0.3	1.1	2.60876221214611E-08
0.3	1.15	2.72744148473788E-08
0.3	1.2	2.85098450197081E-08
0.4	0.0	4.70817236772919E-17
0.4	0.05	2.75161524028323E-07
0.4	0.1	3.16006814431512E-07
0.4	0.15	3.35410262072141E-07
0.4	0.2	3.54147889161475E-07
0.4	0.25	3.73132472099672E-07
0.4	0.3	3.92484960578591E-07
0.4	0.35	4.12289181078730E-07
0.4	0.4	4.32609406790914E-07
0.4	0.45	4.53450478625620E-07
0.4	0.5	4.74982150563990E-07
0.4	0.55	4.97156346131851E-07
0.4	0.6	5.20017554109181E-07
0.4	0.65	5.43604629406849E-07
0.4	0.7	5.67953582816526E-07
0.4	0.75	5.93098125578980E-07
0.4	0.8	6.19070627688458E-07
0.4	0.85	6.45902540527040E-07
0.4	0.9	6.73625155500273E-07
0.4	0.95	7.02269470023824E-07
0.4	1.0	7.31866576303141E-07
0.4	1.05	7.62447814920030E-07
0.4	1.1	7.94044596450575E-07
0.4	1.15	8.26688906519286E-07
0.4	1.2	8.60413217337089E-07
0.5	0.0	3.97540899708511E-17
0.5	0.05	5.42311555281210E-06
0.5	0.1	6.58946886235690E-06
0.5	0.15	6.98744786259618E-06
0.5	0.2	7.31313025467821E-06
0.5	0.25	7.62730072976152E-06
0.5	0.3	7.93654926266623E-06
0.5	0.35	8.24379963595476E-06
0.5	0.4	8.55085939228658E-06
0.5	0.45	8.85886481538816E-06
0.5	0.5	9.16888284767790E-06
0.5	0.55	9.48138249726914E-06
0.5	0.6	9.79684632373922E-06
0.5	0.65	1.01156578564181E-05
0.5	0.7	1.04381117884968E-05
0.5	0.75	1.07644383279367E-05
0.5	0.8	1.10948508935459E-05
0.5	0.85	1.14294877648315E-05
0.5	0.9	1.17685031256597E-05
0.5	0.95	1.21120080052721E-05
0.5	1.0	1.24600855603342E-05
0.5	1.05	1.28128398083819E-05
0.5	1.1	1.31703255054929E-05
0.5	1.15	1.35326034213788E-05
0.5	1.2	1.38997410967607E-05
0.6	0.0	-6.21130741098155E-18
0.6	0.05	2.56247526846410E-05
0.6	0.1	3.75437102396276E-05
0.6	0.15	4.18465253488260E-05
0.6	0.2	4.36804326604502E-05
0.6	0.25	4.50370229444522E-05
0.6	0.3	4.62693415992281E-05
0.6	0.35	4.74363796503920E-05
0.6	0.4	4.85616873857629E-05
0.6	0.45	4.96587608102380E-05
0.6	0.5	5.07359536972598E-05
0.6	0.55	5.17983660233487E-05
0.6	0.6	5.28499381700839E-05
0.6	0.65	5.38931494209664E-05
0.6	0.7	5.49301129498096E-05
0.6	0.75	5.59623260621049E-05
0.6	0.8	5.69909670252209E-05
0.6	0.85	5.80170386479118E-05
0.6	0.9	5.90412807373992E-05
0.6	0.95	6.00643351386155E-05
0.6	1.0	6.10866773458204E-05
0.6	1.05	6.21088411480439E-05
0.6	1.1	6.31310647574879E-05
0.6	1.15	6.41536915987656E-05
0.6	1.2	6.51770609969347E-05
0.7	0.0	-4.65518107631532E-17
0.7	0.05	5.01721000297521E-05
0.7	0.1	8.32644704158653E-05
0.7	0.15	1.02275362387317E-04
0.7	0.2	1.11635564194070E-04
0.7	0.25	1.16168045000850E-04
0.7	0.3	1.19102237450379E-04
0.7	0.35	1.21553656337406E-04
0.7	0.4	1.23781533670102E-04
0.7	0.45	1.25875787132044E-04
0.7	0.5	1.27881751659522E-04
0.7	0.55	1.29825082994830E-04
0.7	0.6	1.31720887776497E-04
0.7	0.65	1.33579110252158E-04
0.7	0.7	1.35406777997479E-04
0.7	0.75	1.37208963001070E-04
0.7	0.8	1.38989292298210E-04
0.7	0.85	1.40751064653908E-04
0.7	0.9	1.42496354457915E-04
0.7	0.95	1.44227077514945E-04
0.7	1.0	1.45944996673672E-04
0.7	1.05	1.47651418455457E-04
0.7	1.1	1.49347088706242E-04
0.7	1.15	1.51033396260340E-04
0.7	1.2	1.52711051720472E-04
0.8	0.0	4.65875827639990E-17
0.8	0.05	7.22743451243101E-05
0.8	0.1	1.27009995037502E-04
0.8	0.15	1.65683969650610E-04
0.8	0.2	1.90729099392118E-04
0.8	0.25	2.05391890736115E-04
0.8	0.3	2.13527419290794E-04
0.8	0.35	2.18581035843730E-04
0.8	0.4	2.22459948034537E-04
0.8	0.45	2.25822467230403E-04
0.8	0.5	2.28897120634047E-04
0.8	0.55	2.31794632760987E-04
0.8	0.6	2.34571780269530E-04
0.8	0.65	2.37259661770445E-04
0.8	0.7	2.39877492205423E-04
0.8	0.75	2.42437777519012E-04
0.8	0.8	2.44950245890280E-04
0.8	0.85	2.47421161704418E-04
0.8	0.9	2.49855920762266E-04
0.8	0.95	2.52258703219621E-04
0.8	1.0	2.54632514869325E-04
0.8	1.05	2.56980237465958E-04
0.8	1.1	2.59304146186900E-04
0.8	1.15	2.61606179079679E-04
0.8	1.2	2.63887704383743E-04
0.9	0.0	-2.41286188371977E-16
0.9	0.05	9.10524951054195E-05
0.9	0.1	1.65003581403663E-04
0.9	0.15	2.22641275599417E-04
0.9	0.2	2.65420797007916E-04
0.9	0.25	2.95278971027682E-04
0.9	0.3	3.14703286098793E-04
0.9	0.35	3.26692872702998E-04
0.9	0.4	3.34326589089187E-04
0.9	0.45	3.39878457645026E-04
0.9	0.5	3.44464543140953E-04
0.9	0.55	3.48535286557796E-04
0.9	0.6	3.52302162465357E-04
0.9	0.65	3.55873501643267E-04
0.9	0.7	3.59305143731307E-04
0.9	0.75	3.62629282096208E-04
0.9	0.8	3.65866961788725E-04
0.9	0.85	3.69032172124802E-04
0.9	0.9	3.72134774040056E-04
0.9	0.95	3.75183233825545E-04
0.9	1.0	3.78183314354376E-04
0.9	1.05	3.81139334781345E-04
0.9	1.1	3.84056522429100E-04
0.9	1.15	3.86937241205047E-04
0.9	1.2	3.89783798672679E-04
1.0	0.0	-3.81013574424415E-17
1.0	0.05	1.06757528697555E-04
1.0	0.1	1.97137756215236E-04
1.0	0.15	2.71586219250496E-04
1.0	0.2	3.31075777590343E-04
1.0	0.25	3.76868317251809E-04
1.0	0.3	4.10538513667398E-04
1.0	0.35	4.34035397357982E-04
1.0	0.4	4.49714659747117E-04
1.0	0.45	4.60158832806878E-04
1.0	0.5	4.67631501355717E-04
1.0	0.55	4.73567874981922E-04
1.0	0.6	4.78681616905274E-04
1.0	0.65	4.83321343954459E-04
1.0	0.7	4.87666081893406E-04
1.0	0.75	4.91808129749913E-04
1.0	0.8	4.95799104469439E-04
1.0	0.85	4.99670577359625E-04
1.0	0.9	5.03442006469862E-04
1.0	0.95	5.07129448911201E-04
1.0	1.0	5.10744009039738E-04
1.0	1.05	5.14291847489222E-04
1.0	1.1	5.17781653545077E-04
1.0	1.15	5.21219447567580E-04
1.0	1.2	5.24606528932701E-04
1.1	0.0	-3.98498171379381E-17
1.1	0.05	1.19864343232235E-04
1.1	0.1	2.24120827593165E-04
1.1	0.15	3.13045728709865E-04
1.1	0.2	3.87367377539649E-04
1.1	0.25	4.47999385195254E-04
1.1	0.3	4.96023659311401E-04
1.1	0.35	5.32726259910772E-04
1.1	0.4	5.59662730418100E-04
1.1	0.45	5.78706645655745E-04
1.1	0.5	5.91983059634563E-04
1.1	0.55	6.01554948404913E-04
1.1	0.6	6.08988689483154E-04
1.1	0.65	6.15221706610868E-04
1.1	0.7	6.20762674332273E-04
1.1	0.75	6.25882056710289E-04
1.1	0.8	6.30720116360144E-04
1.1	0.85	6.35354236429750E-04
1.1	0.9	6.39829409104299E-04
1.1	0.95	6.44175306085150E-04
1.1	1.0	6.48412335544160E-04
1.1	1.05	6.52553907284575E-04
1.1	1.1	6.56613939037937E-04
1.1	1.15	6.60599592746576E-04
1.1	1.2	6.64517143498296E-04
1.2	0.0	-9.67798517435603E-17
1.2	0.05	1.30848798601648E-04
1.2	0.1	2.46805646876657E-04
1.2	0.15	3.48068077975106E-04
1.2	0.2	4.35244116499545E-04
1.2	0.25	5.09069097263910E-04
1.2	0.3	5.70364860106653E-04
1.2	0.35	6.20050146804895E-04
1.2	0.4	6.59183468637516E-04
1.2	0.45	6.89022526283522E-04
1.2	0.5	7.11074059674012E-04
1.2	0.55	7.27077425603719E-04
1.2	0.6	7.38835692068480E-04
1.2	0.65	7.47898074877641E-04
1.2	0.7	7.55345506122918E-04
1.2	0.75	7.61838035579455E-04
1.2	0.8	7.67750865492707E-04
1.2	0.85	7.73286905578131E-04
1.2	0.9	7.78553877968692E-04
1.2	0.95	7.83616083056928E-04
1.2	1.0	7.88514450015050E-04
1.2	1.05	7.93275825523830E-04
1.2	1.1	7.97921029342522E-04
1.2	1.15	8.02462938085359E-04
1.2	1.2	8.06915405458698E-04