vg	vd	ids
0.0	0.0	-1.44597146244057E-17
0.0	0.05	3.48314263928836E-13
0.0	0.1	4.17203535826930E-13
0.0	0.15	4.55685988446527E-13
0.0	0.2	4.94504536917916E-13
0.0	0.25	5.36272446748230E-13
0.0	0.3	5.81305648925187E-13
0.0	0.35	6.30076393003056E-13
0.0	0.4	6.82716093079698E-13
0.0	0.45	7.39920862129016E-13
0.0	0.5	8.01954491273662E-13
0.0	0.55	8.69454655979721E-13
0.0	0.6	9.43131011255318E-13
0.0	0.65	1.02351004399354E-12
0.0	0.7	1.11152662745815E-12
0.0	0.75	1.20804348792997E-12
0.0	0.8	1.31429673256112E-12
0.0	0.85	1.43145290752391E-12
0.0	0.9	1.56099584500716E-12
0.0	0.95	1.70463273698095E-12
0.0	1.0	1.86433140582402E-12
0.0	1.05	2.04272896600047E-12
0.0	1.1	2.24210882402998E-12
0.0	1.15	2.46659815020622E-12
0.0	1.2	2.71925247470307E-12
0.1	0.0	-1.68811522077683E-17
0.1	0.05	1.07095483820848E-11
0.1	0.1	1.28294876893112E-11
0.1	0.15	1.39824929024066E-11
0.1	0.2	1.51244966000145E-11
0.1	0.25	1.63375771444727E-11
0.1	0.3	1.76310130502833E-11
0.1	0.35	1.90115021746614E-11
0.1	0.4	2.04869310491509E-11
0.1	0.45	2.20652260364462E-11
0.1	0.5	2.37554107389645E-11
0.1	0.55	2.55674547367086E-11
0.1	0.6	2.75123203859846E-11
0.1	0.65	2.96008235367967E-11
0.1	0.7	3.18512074098475E-11
0.1	0.75	3.42728347137908E-11
0.1	0.8	3.68839626107396E-11
0.1	0.85	3.97063501137419E-11
0.1	0.9	4.27540803638734E-11
0.1	0.95	4.60621307974685E-11
0.1	1.0	4.96434774914254E-11
0.1	1.05	5.35412354043153E-11
0.1	1.1	5.77856263527691E-11
0.1	1.15	6.24050295990474E-11
0.1	1.2	6.74654664231756E-11
0.2	0.0	1.66852665609123E-17
0.2	0.05	3.32998743598508E-10
0.2	0.1	3.99626096184820E-10
0.2	0.15	4.35222753648205E-10
0.2	0.2	4.69908331554863E-10
0.2	0.25	5.06359045080647E-10
0.2	0.3	5.44830051811273E-10
0.2	0.35	5.85482068748576E-10
0.2	0.4	6.28481881930807E-10
0.2	0.45	6.73988066710111E-10
0.2	0.5	7.22219674301017E-10
0.2	0.55	7.73354332642007E-10
0.2	0.6	8.27572956184668E-10
0.2	0.65	8.85354659570089E-10
0.2	0.7	9.46517680164978E-10
0.2	0.75	1.01178626467592E-09
0.2	0.8	1.08106148054018E-09
0.2	0.85	1.15497129762293E-09
0.2	0.9	1.23377548682453E-09
0.2	0.95	1.31764586966415E-09
0.2	1.0	1.40748259236430E-09
0.2	1.05	1.50334662602153E-09
0.2	1.1	1.60585953100646E-09
0.2	1.15	1.71570557138998E-09
0.2	1.2	1.83340108371030E-09
0.3	0.0	-2.05608686535079E-18
0.3	0.05	1.03253660064896E-08
0.3	0.1	1.24376039146875E-08
0.3	0.15	1.35513723249105E-08
0.3	0.2	1.46173098711335E-08
0.3	0.25	1.57242524169671E-08
0.3	0.3	1.68802572982639E-08
0.3	0.35	1.80894559372751E-08
0.3	0.4	1.93544626277572E-08
0.3	0.45	2.06816907153792E-08
0.3	0.5	2.20730905450488E-08
0.3	0.55	2.35396601149791E-08
0.3	0.6	2.50739722896114E-08
0.3	0.65	2.66932845511950E-08
0.3	0.7	2.83919374488978E-08
0.3	0.75	3.01805319568859E-08
0.3	0.8	3.20668629349864E-08
0.3	0.85	3.40496222511731E-08
0.3	0.9	3.61403056347396E-08
0.3	0.95	3.83452631779286E-08
0.3	1.0	4.06697965287012E-08
0.3	1.05	4.31224735787635E-08
0.3	1.1	4.57101887961305E-08
0.3	1.15	4.84423023260926E-08
0.3	1.2	5.13282010422260E-08
0.4	0.0	5.95892600256238E-17
0.4	0.05	2.98180454208543E-07
0.4	0.1	3.62976155614247E-07
0.4	0.15	3.95548098952822E-07
0.4	0.2	4.25486193270094E-07
0.4	0.25	4.55899243871594E-07
0.4	0.3	4.87092197948607E-07
0.4	0.35	5.19123577604502E-07
0.4	0.4	5.52188646351380E-07
0.4	0.45	5.86320869215341E-07
0.4	0.5	6.21682433261050E-07
0.4	0.55	6.58240907963394E-07
0.4	0.6	6.96031639016930E-07
0.4	0.65	7.35175854016659E-07
0.4	0.7	7.75767444437554E-07
0.4	0.75	8.17804973739915E-07
0.4	0.8	8.61370410101197E-07
0.4	0.85	9.06546541318675E-07
0.4	0.9	9.53391298933135E-07
0.4	0.95	1.00197197104733E-06
0.4	1.0	1.05235442346547E-06
0.4	1.05	1.10461622968908E-06
0.4	1.1	1.15883067189630E-06
0.4	1.15	1.21507329593672E-06
0.4	1.2	1.27342381832757E-06
0.5	0.0	-3.93745094362596E-18
0.5	0.05	4.42251813470554E-06
0.5	0.1	5.82475382309606E-06
0.5	0.15	6.36584115043661E-06
0.5	0.2	6.75290100088730E-06
0.5	0.25	7.11447153574931E-06
0.5	0.3	7.46784495575089E-06
0.5	0.35	7.81748880959988E-06
0.5	0.4	8.16544430767645E-06
0.5	0.45	8.51314817239850E-06
0.5	0.5	8.86138021970290E-06
0.5	0.55	9.21073369197773E-06
0.5	0.6	9.56173799680560E-06
0.5	0.65	9.91505852656131E-06
0.5	0.7	1.02711403366076E-05
0.5	0.75	1.06301843753920E-05
0.5	0.8	1.09925193884636E-05
0.5	0.85	1.13584568061626E-05
0.5	0.9	1.17281911370552E-05
0.5	0.95	1.21019767269647E-05
0.5	1.0	1.24799938578127E-05
0.5	1.05	1.28624366299529E-05
0.5	1.1	1.32494986041879E-05
0.5	1.15	1.36413308356668E-05
0.5	1.2	1.40381031009536E-05
0.6	0.0	4.54550679091066E-17
0.6	0.05	1.64603694934004E-05
0.6	0.1	2.57981402361448E-05
0.6	0.15	3.03106057856036E-05
0.6	0.2	3.25034864889618E-05
0.6	0.25	3.39459985034304E-05
0.6	0.3	3.51809439473702E-05
0.6	0.35	3.63321558573159E-05
0.6	0.4	3.74327944066546E-05
0.6	0.45	3.84976984681029E-05
0.6	0.5	3.95351901696874E-05
0.6	0.55	4.05516498532776E-05
0.6	0.6	4.15512410889859E-05
0.6	0.65	4.25377222021174E-05
0.6	0.7	4.35136135786794E-05
0.6	0.75	4.44810257024626E-05
0.6	0.8	4.54415942200736E-05
0.6	0.85	4.63968352209578E-05
0.6	0.9	4.73478284254022E-05
0.6	0.95	4.82957922593317E-05
0.6	1.0	4.92415406351934E-05
0.6	1.05	5.01858074128222E-05
0.6	1.1	5.11294789666898E-05
0.6	1.15	5.20730508059222E-05
0.6	1.2	5.30171022729633E-05
0.7	0.0	1.11584122956780E-17
0.7	0.05	3.06168807446258E-05
0.7	0.1	5.28098269870896E-05
0.7	0.15	6.75766112890433E-05
0.7	0.2	7.65096199220425E-05
0.7	0.25	8.16499016738303E-05
0.7	0.3	8.49125412487511E-05
0.7	0.35	8.74457340730694E-05
0.7	0.4	8.96812288159828E-05
0.7	0.45	9.17501418691964E-05
0.7	0.5	9.37051663755531E-05
0.7	0.55	9.55761520081232E-05
0.7	0.6	9.73824137237933E-05
0.7	0.65	9.91374829505423E-05
0.7	0.7	1.00850361365744E-04
0.7	0.75	1.02528720603931E-04
0.7	0.8	1.04177706349915E-04
0.7	0.85	1.05801860308190E-04
0.7	0.9	1.07404837741728E-04
0.7	0.95	1.08989660756548E-04
0.7	1.0	1.10558475416617E-04
0.7	1.05	1.12113809594451E-04
0.7	1.1	1.13657587311072E-04
0.7	1.15	1.15190977126268E-04
0.7	1.2	1.16715781057943E-04
0.8	0.0	-3.42355187852205E-17
0.8	0.05	4.41506132202505E-05
0.8	0.1	7.96486984978315E-05
0.8	0.15	1.06921604609112E-04
0.8	0.2	1.26760705143854E-04
0.8	0.25	1.40326658311614E-04
0.8	0.3	1.49154797534298E-04
0.8	0.35	1.54976311600125E-04
0.8	0.4	1.59252672594552E-04
0.8	0.45	1.62811275801589E-04
0.8	0.5	1.65990545456684E-04
0.8	0.55	1.68926009803813E-04
0.8	0.6	1.71688718746244E-04
0.8	0.65	1.74321557064191E-04
0.8	0.7	1.76854177218180E-04
0.8	0.75	1.79306305302399E-04
0.8	0.8	1.81691695652784E-04
0.8	0.85	1.84021864096896E-04
0.8	0.9	1.86304185651981E-04
0.8	0.95	1.88545667483145E-04
0.8	1.0	1.90751856562302E-04
0.8	1.05	1.92927065550700E-04
0.8	1.1	1.95074900313220E-04
0.8	1.15	1.97198939095253E-04
0.8	1.2	1.99301480083143E-04
0.9	0.0	3.64108753371456E-17
0.9	0.05	5.64763747386340E-05
0.9	0.1	1.04443317241328E-04
0.9	0.15	1.44051420573464E-04
0.9	0.2	1.75713632601057E-04
0.9	0.25	2.00067137334156E-04
0.9	0.3	2.18000998373114E-04
0.9	0.35	2.30688025767889E-04
0.9	0.4	2.39543784598469E-04
0.9	0.45	2.46001817922356E-04
0.9	0.5	2.51151585162691E-04
0.9	0.55	2.55585468273746E-04
0.9	0.6	2.59578583280852E-04
0.9	0.65	2.63271246630419E-04
0.9	0.7	2.66745379539982E-04
0.9	0.75	2.70055624351243E-04
0.9	0.8	2.73236768793450E-04
0.9	0.85	2.76314071167806E-04
0.9	0.9	2.79304870480825E-04
0.9	0.95	2.82222823314620E-04
0.9	1.0	2.85078353514502E-04
0.9	1.05	2.87879232779450E-04
0.9	1.1	2.90632461110342E-04
0.9	1.15	2.93344727422761E-04
0.9	1.2	2.96019299251213E-04
1.0	0.0	-3.01127953948804E-18
1.0	0.05	6.74864124009957E-05
1.0	0.1	1.26765884458964E-04
1.0	0.15	1.77833143485740E-04
1.0	0.2	2.20899043602129E-04
1.0	0.25	2.56327106062134E-04
1.0	0.3	2.84638822707835E-04
1.0	0.35	3.06539970510384E-04
1.0	0.4	3.22950854721756E-04
1.0	0.45	3.35008610253354E-04
1.0	0.5	3.43971988320738E-04
1.0	0.55	3.50985347685582E-04
1.0	0.6	3.56846758966417E-04
1.0	0.65	3.61993442531958E-04
1.0	0.7	3.66661921782558E-04
1.0	0.75	3.70994609890514E-04
1.0	0.8	3.75080715279237E-04
1.0	0.85	3.78979386659041E-04
1.0	0.9	3.82729469035875E-04
1.0	0.95	3.86357980542509E-04
1.0	1.0	3.89887115565085E-04
1.0	1.05	3.93328692787468E-04
1.0	1.1	3.96696141931034E-04
1.0	1.15	3.99999757502148E-04
1.0	1.2	4.03246364770741E-04
1.1	0.0	3.24015349839713E-17
1.1	0.05	7.72252613014161E-05
1.1	0.1	1.46611814283291E-04
1.1	0.15	2.08062793080302E-04
1.1	0.2	2.61672171405976E-04
1.1	0.25	3.07648031486114E-04
1.1	0.3	3.46304764683911E-04
1.1	0.35	3.78074423501379E-04
1.1	0.4	4.03529173742146E-04
1.1	0.45	4.23408298491881E-04
1.1	0.5	4.38630321571195E-04
1.1	0.55	4.50257475529421E-04
1.1	0.6	4.59361500862232E-04
1.1	0.65	4.66829199993958E-04
1.1	0.7	4.73249769952509E-04
1.1	0.75	4.78965687983694E-04
1.1	0.8	4.84189366366838E-04
1.1	0.85	4.89059720808803E-04
1.1	0.9	4.93670252601347E-04
1.1	0.95	4.98078258910013E-04
1.1	1.0	5.02327840416480E-04
1.1	1.05	5.06442995277137E-04
1.1	1.1	5.10447725783228E-04
1.1	1.15	5.14357726513438E-04
1.1	1.2	5.18184192256096E-04
1.2	0.0	7.64542738044182E-18
1.2	0.05	8.57986227376422E-05
1.2	0.1	1.64141817123983E-04
1.2	0.15	2.34880445103136E-04
1.2	0.2	2.98040510704766E-04
1.2	0.25	3.53738636054375E-04
1.2	0.3	4.02167114907725E-04
1.2	0.35	4.43596144331551E-04
1.2	0.4	4.78386646635025E-04
1.2	0.45	5.07010225899992E-04
1.2	0.5	5.30068768453495E-04
1.2	0.55	5.48312234623155E-04
1.2	0.6	5.62626332492136E-04
1.2	0.65	5.73961920984677E-04
1.2	0.7	5.83201321788852E-04
1.2	0.75	5.91020416023425E-04
1.2	0.8	5.97873328289114E-04
1.2	0.85	6.04044027138516E-04
1.2	0.9	6.09727530879996E-04
1.2	0.95	6.15055160636005E-04
1.2	1.0	6.20118496474564E-04
1.2	1.05	6.24972475677469E-04
1.2	1.1	6.29661000925111E-04
1.2	1.15	6.34209407973853E-04
1.2	1.2	6.38638671092915E-04