vg	vd	ids
0.0	0.0	6.79053852002154E-18
0.0	0.05	6.26851644820361E-14
0.0	0.1	7.13432919475045E-14
0.0	0.15	7.48607764038936E-14
0.0	0.2	7.82650887983720E-14
0.0	0.25	8.17530192091365E-14
0.0	0.3	8.53640740362988E-14
0.0	0.35	8.91215441545684E-14
0.0	0.4	9.29983886551044E-14
0.0	0.45	9.69959378790333E-14
0.0	0.5	1.01288450093006E-13
0.0	0.55	1.05575072063735E-13
0.0	0.6	1.10062664046760E-13
0.0	0.65	1.15063721596358E-13
0.0	0.7	1.19958645257671E-13
0.0	0.75	1.25252071461709E-13
0.0	0.8	1.30651376318195E-13
0.0	0.85	1.36356439730368E-13
0.0	0.9	1.42206202227863E-13
0.0	0.95	1.48450802243634E-13
0.0	1.0	1.54907769699676E-13
0.0	1.05	1.61620110496051E-13
0.0	1.1	1.68707290839125E-13
0.0	1.15	1.76091289081664E-13
0.0	1.2	1.83843217954914E-13
0.1	0.0	-2.49208681484526E-18
0.1	0.05	1.94737037040037E-12
0.1	0.1	2.22610677439324E-12
0.1	0.15	2.34122807723421E-12
0.1	0.2	2.45096962069040E-12
0.1	0.25	2.56438742225067E-12
0.1	0.3	2.68187078267317E-12
0.1	0.35	2.80375314231706E-12
0.1	0.4	2.93017536057811E-12
0.1	0.45	3.06149048325487E-12
0.1	0.5	3.19797258113674E-12
0.1	0.55	3.33995325787944E-12
0.1	0.6	3.48303301658889E-12
0.1	0.65	3.64105024507161E-12
0.1	0.7	3.80088494318595E-12
0.1	0.75	3.96581990042224E-12
0.1	0.8	4.14062988972607E-12
0.1	0.85	4.32123171797465E-12
0.1	0.9	4.50936672338810E-12
0.1	0.95	4.70546507430217E-12
0.1	1.0	4.90986292125022E-12
0.1	1.05	5.12286093564797E-12
0.1	1.1	5.34521998537923E-12
0.1	1.15	5.57699446562645E-12
0.1	1.2	5.81870898863918E-12
0.2	0.0	1.14993659682587E-17
0.2	0.05	6.15727282785207E-11
0.2	0.1	7.06734964384690E-11
0.2	0.15	7.44922296216916E-11
0.2	0.2	7.81122981196932E-11
0.2	0.25	8.18425676661416E-11
0.2	0.3	8.56982683316853E-11
0.2	0.35	8.96879447756759E-11
0.2	0.4	9.38198486469489E-11
0.2	0.45	9.81022492039390E-11
0.2	0.5	1.02418746953861E-10
0.2	0.55	1.07150544993859E-10
0.2	0.6	1.11933915047404E-10
0.2	0.65	1.16868652383865E-10
0.2	0.7	1.22059722507334E-10
0.2	0.75	1.27420446356215E-10
0.2	0.8	1.32985868716911E-10
0.2	0.85	1.38782805338394E-10
0.2	0.9	1.44799723927583E-10
0.2	0.95	1.51065113028590E-10
0.2	1.0	1.57576816086354E-10
0.2	1.05	1.64349882133539E-10
0.2	1.1	1.71395618047269E-10
0.2	1.15	1.78725658210519E-10
0.2	1.2	1.86352076086000E-10
0.3	0.0	6.77343922044469E-18
0.3	0.05	1.96288754507097E-09
0.3	0.1	2.26321349461092E-09
0.3	0.15	2.39086191130523E-09
0.3	0.2	2.51086562301014E-09
0.3	0.25	2.63396095414727E-09
0.3	0.3	2.76071631112944E-09
0.3	0.35	2.89143026410806E-09
0.3	0.4	3.02613424625379E-09
0.3	0.45	3.16620158105525E-09
0.3	0.5	3.30742385149285E-09
0.3	0.55	3.46014348288550E-09
0.3	0.6	3.61497783286309E-09
0.3	0.65	3.77538386032766E-09
0.3	0.7	3.94161709544914E-09
0.3	0.75	4.11393752826844E-09
0.3	0.8	4.29259863483329E-09
0.3	0.85	4.47790630683847E-09
0.3	0.9	4.67010144333186E-09
0.3	0.95	4.86947974935086E-09
0.3	1.0	5.07633189223624E-09
0.3	1.05	5.29096132923399E-09
0.3	1.1	5.51367357263906E-09
0.3	1.15	5.74478819676144E-09
0.3	1.2	5.98463269620119E-09
0.4	0.0	1.04136863532901E-17
0.4	0.05	6.16119442125935E-08
0.4	0.1	7.15490369102965E-08
0.4	0.15	7.57739684420020E-08
0.4	0.2	7.96695036242043E-08
0.4	0.25	8.36264165152887E-08
0.4	0.3	8.76742120256802E-08
0.4	0.35	9.18267916677351E-08
0.4	0.4	9.60946514381975E-08
0.4	0.45	1.00472329199179E-07
0.4	0.5	1.05009841501337E-07
0.4	0.55	1.09677132850986E-07
0.4	0.6	1.14491853206229E-07
0.4	0.65	1.19460075912522E-07
0.4	0.7	1.24588918001052E-07
0.4	0.75	1.29885387861008E-07
0.4	0.8	1.35356345855639E-07
0.4	0.85	1.41008578452848E-07
0.4	0.9	1.46848884164801E-07
0.4	0.95	1.52884140645005E-07
0.4	1.0	1.59121326077627E-07
0.4	1.05	1.65567512716154E-07
0.4	1.1	1.72229890161712E-07
0.4	1.15	1.79115777531005E-07
0.4	1.2	1.86232609118220E-07
0.5	0.0	-1.24407981613479E-17
0.5	0.05	1.49322377486814E-06
0.5	0.1	1.79403641627712E-06
0.5	0.15	1.90364291943068E-06
0.5	0.2	1.99367674220737E-06
0.5	0.25	2.08173941422802E-06
0.5	0.3	2.16972638230189E-06
0.5	0.35	2.25768409634188E-06
0.5	0.4	2.34783411936352E-06
0.5	0.45	2.43857066827591E-06
0.5	0.5	2.53068378603650E-06
0.5	0.55	2.62429846592304E-06
0.5	0.6	2.71953755868462E-06
0.5	0.65	2.81647599289069E-06
0.5	0.7	2.91518735446183E-06
0.5	0.75	3.01574214497700E-06
0.5	0.8	3.11819998996343E-06
0.5	0.85	3.22261578070318E-06
0.5	0.9	3.32904143802497E-06
0.5	0.95	3.43752205799241E-06
0.5	1.0	3.54810422360043E-06
0.5	1.05	3.66082850399701E-06
0.5	1.1	3.77573367020035E-06
0.5	1.15	3.89285913678615E-06
0.5	1.2	4.01223782674311E-06
0.6	0.0	4.30011861138194E-18
0.6	0.05	1.05936218060299E-05
0.6	0.1	1.49966795039729E-05
0.6	0.15	1.65070116572440E-05
0.6	0.2	1.72194553852748E-05
0.6	0.25	1.77776872640842E-05
0.6	0.3	1.82955290006963E-05
0.6	0.35	1.87980271818230E-05
0.6	0.4	1.92888362525283E-05
0.6	0.45	1.97735125381458E-05
0.6	0.5	2.02544285033735E-05
0.6	0.55	2.07329931789840E-05
0.6	0.6	2.12102282655084E-05
0.6	0.65	2.16868317139983E-05
0.6	0.7	2.21633953906836E-05
0.6	0.75	2.26403040219742E-05
0.6	0.8	2.31179689739698E-05
0.6	0.85	2.35966225445173E-05
0.6	0.9	2.40765600449685E-05
0.6	0.95	2.45579628905568E-05
0.6	1.0	2.50410013036012E-05
0.6	1.05	2.55258619480965E-05
0.6	1.1	2.60126377102159E-05
0.6	1.15	2.65014640782203E-05
0.6	1.2	2.69924374476970E-05
0.7	0.0	3.47780381834681E-18
0.7	0.05	2.49304833217264E-05
0.7	0.1	4.08402709161861E-05
0.7	0.15	4.96305206233622E-05
0.7	0.2	5.38770886669915E-05
0.7	0.25	5.60282360712693E-05
0.7	0.3	5.74911074454743E-05
0.7	0.35	5.87415249278124E-05
0.7	0.4	5.99006853918394E-05
0.7	0.45	6.10090304610769E-05
0.7	0.5	6.20852463816035E-05
0.7	0.55	6.31385817854440E-05
0.7	0.6	6.41742880484369E-05
0.7	0.65	6.51961247327997E-05
0.7	0.7	6.62064083443775E-05
0.7	0.75	6.72071686986666E-05
0.7	0.8	6.81997150186819E-05
0.7	0.85	6.91853104069071E-05
0.7	0.9	7.01648572337993E-05
0.7	0.95	7.11391479312249E-05
0.7	1.0	7.21089092654761E-05
0.7	1.05	7.30747329133275E-05
0.7	1.1	7.40370414949240E-05
0.7	1.15	7.49964227054622E-05
0.7	1.2	7.59531411639134E-05
0.8	0.0	-5.16225039565626E-18
0.8	0.05	3.92939545547438E-05
0.8	0.1	6.87433590839661E-05
0.8	0.15	8.93183008810610E-05
0.8	0.2	1.02503686410360E-04
0.8	0.25	1.10232474520639E-04
0.8	0.3	1.14634375020625E-04
0.8	0.35	1.17465609261871E-04
0.8	0.4	1.19678667527483E-04
0.8	0.45	1.21629622167422E-04
0.8	0.5	1.23446004150170E-04
0.8	0.55	1.25181326396993E-04
0.8	0.6	1.26861212110012E-04
0.8	0.65	1.28499019844786E-04
0.8	0.7	1.30103032424120E-04
0.8	0.75	1.31678803459780E-04
0.8	0.8	1.33230392742684E-04
0.8	0.85	1.34761021342868E-04
0.8	0.9	1.36272883000992E-04
0.8	0.95	1.37768280981170E-04
0.8	1.0	1.39248722660517E-04
0.8	1.05	1.40715680467002E-04
0.8	1.1	1.42170387987373E-04
0.8	1.15	1.43613923822951E-04
0.8	1.2	1.45047031015568E-04
0.9	0.0	1.93865283394640E-17
0.9	0.05	5.25056974898946E-05
0.9	0.1	9.49891554025967E-05
0.9	0.15	1.27992205657382E-04
0.9	0.2	1.52419928352307E-04
0.9	0.25	1.69474950019531E-04
0.9	0.3	1.80661496104325E-04
0.9	0.35	1.87717857263029E-04
0.9	0.4	1.92338212268749E-04
0.9	0.45	1.95758590616988E-04
0.9	0.5	1.98622630748115E-04
0.9	0.55	2.01208476741451E-04
0.9	0.6	2.03636072712332E-04
0.9	0.65	2.05960141199977E-04
0.9	0.7	2.08208554680242E-04
0.9	0.75	2.10397055637449E-04
0.9	0.8	2.12536156167670E-04
0.9	0.85	2.14633029503053E-04
0.9	0.9	2.16693217160484E-04
0.9	0.95	2.18720726437496E-04
0.9	1.0	2.20719190057725E-04
0.9	1.05	2.22691298870695E-04
0.9	1.1	2.24639348384346E-04
0.9	1.15	2.26565352631174E-04
0.9	1.2	2.28471225046611E-04
1.0	0.0	-5.86955483050450E-18
1.0	0.05	6.43469409193145E-05
1.0	0.1	1.18770796435228E-04
1.0	0.15	1.63573462411358E-04
1.0	0.2	1.99356764813488E-04
1.0	0.25	2.26919869491214E-04
1.0	0.3	2.47260018184399E-04
1.0	0.35	2.61592642435771E-04
1.0	0.4	2.71336243548174E-04
1.0	0.45	2.77985720982075E-04
1.0	0.5	2.82835581734570E-04
1.0	0.55	2.86742375539103E-04
1.0	0.6	2.90160782938785E-04
1.0	0.65	2.93309457183215E-04
1.0	0.7	2.96287609474419E-04
1.0	0.75	2.99145817020346E-04
1.0	0.8	3.01911949427960E-04
1.0	0.85	3.04603075331051E-04
1.0	0.9	3.07230945862713E-04
1.0	0.95	3.09804028009050E-04
1.0	1.0	3.12329162048513E-04
1.0	1.05	3.14810521997595E-04
1.0	1.1	3.17253273454961E-04
1.0	1.15	3.19660418320929E-04
1.0	1.2	3.22035140026052E-04
1.1	0.0	4.12994308540051E-18
1.1	0.05	7.48397862604815E-05
1.1	0.1	1.39989517036065E-04
1.1	0.15	1.95603597311298E-04
1.1	0.2	2.42105521040149E-04
1.1	0.25	2.80063883075379E-04
1.1	0.3	3.10176815652087E-04
1.1	0.35	3.33285406528314E-04
1.1	0.4	3.50394532007865E-04
1.1	0.45	3.62677631004125E-04
1.1	0.5	3.71419227446913E-04
1.1	0.55	3.77847775402063E-04
1.1	0.6	3.82920096898329E-04
1.1	0.65	3.87241164601725E-04
1.1	0.7	3.91142519394971E-04
1.1	0.75	3.94787319854171E-04
1.1	0.8	3.98255514498657E-04
1.1	0.85	4.01592337735147E-04
1.1	0.9	4.04823830685452E-04
1.1	0.95	4.07967682890326E-04
1.1	1.0	4.11036662332766E-04
1.1	1.05	4.14039784562504E-04
1.1	1.1	4.16984501545547E-04
1.1	1.15	4.19876839059041E-04
1.1	1.2	4.22721470670017E-04
1.2	0.0	-6.67914090479373E-18
1.2	0.05	8.40916992831735E-05
1.2	0.1	1.58785502746229E-04
1.2	0.15	2.24143278595747E-04
1.2	0.2	2.80478395826748E-04
1.2	0.25	3.28219217537834E-04
1.2	0.3	3.67883237222677E-04
1.2	0.35	4.00079677797227E-04
1.2	0.4	4.25524871314533E-04
1.2	0.45	4.45062591884304E-04
1.2	0.5	4.59675841373219E-04
1.2	0.55	4.70462572106952E-04
1.2	0.6	4.78537748834520E-04
1.2	0.65	4.84870647932085E-04
1.2	0.7	4.90164724565462E-04
1.2	0.75	4.94856529968410E-04
1.2	0.8	4.99183031343795E-04
1.2	0.85	5.03265909622174E-04
1.2	0.9	5.07169150535952E-04
1.2	0.95	5.10931861450930E-04
1.2	1.0	5.14579513892085E-04
1.2	1.05	5.18128846166937E-04
1.2	1.1	5.21594151651596E-04
1.2	1.15	5.24983827551073E-04
1.2	1.2	5.28307484345519E-04