vg	vd	ids
0.0	0.0	2.98191193887146E-17
0.0	0.05	8.62928340286555E-13
0.0	0.1	9.83981833397073E-13
0.0	0.15	1.07943696350983E-12
0.0	0.2	1.18305372963596E-12
0.0	0.25	1.29581841369322E-12
0.0	0.3	1.41811398479507E-12
0.0	0.35	1.55234292741667E-12
0.0	0.4	1.69888334100221E-12
0.0	0.45	1.85905526315237E-12
0.0	0.5	2.03546123099076E-12
0.0	0.55	2.22928977884235E-12
0.0	0.6	2.44293793884701E-12
0.0	0.65	2.67960466882794E-12
0.0	0.7	2.94103894633793E-12
0.0	0.75	3.23253610387578E-12
0.0	0.8	3.55643524899143E-12
0.0	0.85	3.91780275740688E-12
0.0	0.9	4.32325782757970E-12
0.0	0.95	4.78055657852341E-12
0.0	1.0	5.29588883294326E-12
0.0	1.05	5.88070573527436E-12
0.0	1.1	6.54526674615715E-12
0.0	1.15	7.30395614434477E-12
0.0	1.2	8.17627384641042E-12
0.1	0.0	-4.53639420350418E-17
0.1	0.05	2.52642507157524E-11
0.1	0.1	2.88574999522316E-11
0.1	0.15	3.15554049074015E-11
0.1	0.2	3.44436496082160E-11
0.1	0.25	3.75468667911238E-11
0.1	0.3	4.08857295724589E-11
0.1	0.35	4.44794577455830E-11
0.1	0.4	4.83556318184369E-11
0.1	0.45	5.25380964410847E-11
0.1	0.5	5.70557724414409E-11
0.1	0.55	6.19422238344348E-11
0.1	0.6	6.72329476588433E-11
0.1	0.65	7.29711680113989E-11
0.1	0.7	7.91991054310203E-11
0.1	0.75	8.59705456734722E-11
0.1	0.8	9.33431876626936E-11
0.1	0.85	1.01383932496326E-10
0.1	0.9	1.10164910735556E-10
0.1	0.95	1.19774733597893E-10
0.1	1.0	1.30308592067282E-10
0.1	1.05	1.41882484830629E-10
0.1	1.1	1.54623394862019E-10
0.1	1.15	1.68685439705538E-10
0.1	1.2	1.84227088825709E-10
0.2	0.0	-2.49038032559841E-17
0.2	0.05	7.49237197184529E-10
0.2	0.1	8.58612134724271E-10
0.2	0.15	9.37618628120637E-10
0.2	0.2	1.02117467681114E-09
0.2	0.25	1.11000037978158E-09
0.2	0.3	1.20454234885107E-09
0.2	0.35	1.30526493436860E-09
0.2	0.4	1.41266391811131E-09
0.2	0.45	1.52727034503448E-09
0.2	0.5	1.64965769380497E-09
0.2	0.55	1.78044466562244E-09
0.2	0.6	1.92030317896862E-09
0.2	0.65	2.06996655657601E-09
0.2	0.7	2.23020897297663E-09
0.2	0.75	2.40196526703704E-09
0.2	0.8	2.58617654836553E-09
0.2	0.85	2.78387333929217E-09
0.2	0.9	2.99617886840130E-09
0.2	0.95	3.22455027445988E-09
0.2	1.0	3.47016032294815E-09
0.2	1.05	3.73478825094439E-09
0.2	1.1	4.02002713874559E-09
0.2	1.15	4.32793095736643E-09
0.2	1.2	4.66063576320561E-09
0.3	0.0	1.76505023695181E-16
0.3	0.05	2.21774293161252E-08
0.3	0.1	2.55557672712061E-08
0.3	0.15	2.79044563783300E-08
0.3	0.2	3.03541405202421E-08
0.3	0.25	3.29294810898206E-08
0.3	0.3	3.56415171313010E-08
0.3	0.35	3.85011112557355E-08
0.3	0.4	4.15191867048903E-08
0.3	0.45	4.47069514038562E-08
0.3	0.5	4.80760612284374E-08
0.3	0.55	5.16387359029928E-08
0.3	0.6	5.54078812459676E-08
0.3	0.65	5.93970070195726E-08
0.3	0.7	6.36207671089074E-08
0.3	0.75	6.80953147511769E-08
0.3	0.8	7.28362801449491E-08
0.3	0.85	7.78619626852354E-08
0.3	0.9	8.31905754660384E-08
0.3	0.95	8.88441226302793E-08
0.3	1.0	9.48420685974796E-08
0.3	1.05	1.01210204681339E-07
0.3	1.1	1.07973223884497E-07
0.3	1.15	1.15158468558587E-07
0.3	1.2	1.22795681572652E-07
0.4	0.0	1.90747239212152E-16
0.4	0.05	6.17679885319046E-07
0.4	0.1	7.19448010177704E-07
0.4	0.15	7.84625465421940E-07
0.4	0.2	8.50746080556571E-07
0.4	0.25	9.18918101475525E-07
0.4	0.3	9.89447158709635E-07
0.4	0.35	1.06257017387714E-06
0.4	0.4	1.13849129537564E-06
0.4	0.45	1.21739554001544E-06
0.4	0.5	1.29945783787204E-06
0.4	0.55	1.38484649853174E-06
0.4	0.6	1.47372757747683E-06
0.4	0.65	1.56626652087922E-06
0.4	0.7	1.66262923935003E-06
0.4	0.75	1.76298690475541E-06
0.4	0.8	1.86750583052683E-06
0.4	0.85	1.97637069203788E-06
0.4	0.9	2.08974828965198E-06
0.4	0.95	2.20783403954413E-06
0.4	1.0	2.33081508445175E-06
0.4	1.05	2.45888561045480E-06
0.4	1.1	2.59224768331796E-06
0.4	1.15	2.73111017428996E-06
0.4	1.2	2.87568529139383E-06
0.5	0.0	1.71059651698610E-16
0.5	0.05	9.58734925274625E-06
0.5	0.1	1.18395380830696E-05
0.5	0.15	1.27637790498912E-05
0.5	0.2	1.35742192904707E-05
0.5	0.25	1.43634703322984E-05
0.5	0.3	1.51429422964360E-05
0.5	0.35	1.59176274023980E-05
0.5	0.4	1.66906044610997E-05
0.5	0.45	1.74641688460677E-05
0.5	0.5	1.82399048086258E-05
0.5	0.55	1.90192022549477E-05
0.5	0.6	1.98029668329534E-05
0.5	0.65	2.05921399412184E-05
0.5	0.7	2.13873480455013E-05
0.5	0.75	2.21891461836266E-05
0.5	0.8	2.29981445065387E-05
0.5	0.85	2.38146744545385E-05
0.5	0.9	2.46392442741988E-05
0.5	0.95	2.54721459021251E-05
0.5	1.0	2.63137267311654E-05
0.5	1.05	2.71643190070838E-05
0.5	1.1	2.80241839604394E-05
0.5	1.15	2.88936017109517E-05
0.5	1.2	2.97727861293975E-05
0.6	0.0	2.07673496419299E-16
0.6	0.05	3.73697354949564E-05
0.6	0.1	5.49168503904361E-05
0.6	0.15	6.15373771596672E-05
0.6	0.2	6.47520743596390E-05
0.6	0.25	6.73199830112139E-05
0.6	0.3	6.96892941892955E-05
0.6	0.35	7.19395556998560E-05
0.6	0.4	7.41023407332312E-05
0.6	0.45	7.61980653091697E-05
0.6	0.5	7.82408869632083E-05
0.6	0.55	8.02408629525234E-05
0.6	0.6	8.22058915654509E-05
0.6	0.65	8.41417684387592E-05
0.6	0.7	8.60532396551001E-05
0.6	0.75	8.79439693127532E-05
0.6	0.8	8.98173431929715E-05
0.6	0.85	9.16756403537281E-05
0.6	0.9	9.35214754086399E-05
0.6	0.95	9.53566492336270E-05
0.6	1.0	9.71828451611080E-05
0.6	1.05	9.90016144314525E-05
0.6	1.1	1.00814376643593E-04
0.6	1.15	1.02622210651451E-04
0.6	1.2	1.04426099350000E-04
0.7	0.0	3.96873312511631E-17
0.7	0.05	6.82365623124515E-05
0.7	0.1	1.12494741671894E-04
0.7	0.15	1.37456423090773E-04
0.7	0.2	1.49752176131645E-04
0.7	0.25	1.56207755432900E-04
0.7	0.3	1.60882841174735E-04
0.7	0.35	1.64970851839721E-04
0.7	0.4	1.68735382575383E-04
0.7	0.45	1.72270888670387E-04
0.7	0.5	1.75633901392144E-04
0.7	0.55	1.78862290413877E-04
0.7	0.6	1.81982885879813E-04
0.7	0.65	1.85014689330263E-04
0.7	0.7	1.87972016510518E-04
0.7	0.75	1.90865890698060E-04
0.7	0.8	1.93705042537192E-04
0.7	0.85	1.96496164627100E-04
0.7	0.9	1.99245540878463E-04
0.7	0.95	2.01957906163312E-04
0.7	1.0	2.04637511624054E-04
0.7	1.05	2.07287578458663E-04
0.7	1.1	2.09911974547586E-04
0.7	1.15	2.12513255082425E-04
0.7	1.2	2.15093105967262E-04
0.8	0.0	2.10314745416141E-16
0.8	0.05	9.50595700363308E-05
0.8	0.1	1.65667245146699E-04
0.8	0.15	2.14389068539974E-04
0.8	0.2	2.45123792547132E-04
0.8	0.25	2.62818325696094E-04
0.8	0.3	2.72993601182783E-04
0.8	0.35	2.80009868058782E-04
0.8	0.4	2.85833577168375E-04
0.8	0.45	2.91040729775311E-04
0.8	0.5	2.95833780346990E-04
0.8	0.55	3.00325407226807E-04
0.8	0.6	3.04588130202939E-04
0.8	0.65	3.08671093834682E-04
0.8	0.7	3.12609428020015E-04
0.8	0.75	3.16427393045150E-04
0.8	0.8	3.20143192502186E-04
0.8	0.85	3.23771755032222E-04
0.8	0.9	3.27324033838254E-04
0.8	0.95	3.30809335807677E-04
0.8	1.0	3.34235098647714E-04
0.8	1.05	3.37608365655045E-04
0.8	1.1	3.40934331777418E-04
0.8	1.15	3.44218066385546E-04
0.8	1.2	3.47463196232197E-04
0.9	0.0	-1.66235420366059E-17
0.9	0.05	1.17361788474488E-04
0.9	0.1	2.10905015369197E-04
0.9	0.15	2.82225206631227E-04
0.9	0.2	3.33852727751970E-04
0.9	0.25	3.68923583102574E-04
0.9	0.3	3.91249894999290E-04
0.9	0.35	4.05182958398843E-04
0.9	0.4	4.14732903071591E-04
0.9	0.45	4.22331997718638E-04
0.9	0.5	4.28944211747120E-04
0.9	0.55	4.34917961162035E-04
0.9	0.6	4.40436842854547E-04
0.9	0.65	4.45621412153923E-04
0.9	0.7	4.50550301669944E-04
0.9	0.75	4.55277286987457E-04
0.9	0.8	4.59839131303254E-04
0.9	0.85	4.64263468183031E-04
0.9	0.9	4.68568929914961E-04
0.9	0.95	4.72772848142703E-04
0.9	1.0	4.76887590177573E-04
0.9	1.05	4.80923343670182E-04
0.9	1.1	4.84888295209993E-04
0.9	1.15	4.88790577456204E-04
0.9	1.2	4.92637521899150E-04
1.0	0.0	-3.51444727920598E-17
1.0	0.05	1.35758032308086E-04
1.0	0.1	2.48652539297908E-04
1.0	0.15	3.39791791884269E-04
1.0	0.2	4.11024979938995E-04
1.0	0.25	4.64542639547698E-04
1.0	0.3	5.02894423482666E-04
1.0	0.35	5.29078048671689E-04
1.0	0.4	5.46536125156014E-04
1.0	0.45	5.58716895796812E-04
1.0	0.5	5.68167374538504E-04
1.0	0.55	5.76180193821905E-04
1.0	0.6	5.83300106940001E-04
1.0	0.65	5.89793465872599E-04
1.0	0.7	5.95829138936282E-04
1.0	0.75	6.01526737093976E-04
1.0	0.8	6.06961965092291E-04
1.0	0.85	6.12188338145197E-04
1.0	0.9	6.17241320359416E-04
1.0	0.95	6.22147420633390E-04
1.0	1.0	6.26928567013819E-04
1.0	1.05	6.31598897742557E-04
1.0	1.1	6.36172679076938E-04
1.0	1.15	6.40662019846830E-04
1.0	1.2	6.45072499686128E-04
1.1	0.0	1.93014365063833E-16
1.1	0.05	1.50976437622595E-04
1.1	0.1	2.80073380457227E-04
1.1	0.15	3.88149999922812E-04
1.1	0.2	4.76700867891386E-04
1.1	0.25	5.47421510058762E-04
1.1	0.3	6.02173770071198E-04
1.1	0.35	6.43040837619098E-04
1.1	0.4	6.72421366548791E-04
1.1	0.45	6.93069944282020E-04
1.1	0.5	7.07869917140360E-04
1.1	0.55	7.19245240883484E-04
1.1	0.6	7.28691116786538E-04
1.1	0.65	7.36949530086151E-04
1.1	0.7	7.44395025928777E-04
1.1	0.75	7.51251890793530E-04
1.1	0.8	7.57672048334171E-04
1.1	0.85	7.63766702789924E-04
1.1	0.9	7.69603157269826E-04
1.1	0.95	7.75232391681625E-04
1.1	1.0	7.80685903043055E-04
1.1	1.05	7.85990373256605E-04
1.1	1.1	7.91167735074761E-04
1.1	1.15	7.96229548374693E-04
1.1	1.2	8.01191351278146E-04
1.2	0.0	-2.41672069572398E-17
1.2	0.05	1.63659999471228E-04
1.2	0.1	3.06342658445162E-04
1.2	0.15	4.28782199793113E-04
1.2	0.2	5.32287818502420E-04
1.2	0.25	6.18291105150942E-04
1.2	0.3	6.88282504791082E-04
1.2	0.35	7.43830291510727E-04
1.2	0.4	7.86650436194124E-04
1.2	0.45	8.18694212599041E-04
1.2	0.5	8.42182021257871E-04
1.2	0.55	8.59504932799648E-04
1.2	0.6	8.72848836370870E-04
1.2	0.65	8.83780114656670E-04
1.2	0.7	8.93200467183595E-04
1.2	0.75	9.01595867894076E-04
1.2	0.8	9.09259749077154E-04
1.2	0.85	9.16387870370329E-04
1.2	0.9	9.23112385810151E-04
1.2	0.95	9.29531007586876E-04
1.2	1.0	9.35698908114493E-04
1.2	1.05	9.41667161560845E-04
1.2	1.1	9.47459212725982E-04
1.2	1.15	9.53103771353928E-04
1.2	1.2	9.58619474844507E-04