vg	vd	ids
0.0	0.0	5.86396796359449E-18
0.0	0.05	6.98228639182587E-13
0.0	0.1	8.03733751826823E-13
0.0	0.15	8.79894933293592E-13
0.0	0.2	9.62657555275766E-13
0.0	0.25	1.05291099121221E-12
0.0	0.3	1.15130720915957E-12
0.0	0.35	1.25973484886098E-12
0.0	0.4	1.37843264847467E-12
0.0	0.45	1.50815477033693E-12
0.0	0.5	1.65328753778924E-12
0.0	0.55	1.81210347594207E-12
0.0	0.6	1.98797667555420E-12
0.0	0.65	2.18355380843170E-12
0.0	0.7	2.40039858669591E-12
0.0	0.75	2.64211702347593E-12
0.0	0.8	2.91421219691814E-12
0.0	0.85	3.21969898385135E-12
0.0	0.9	3.56291506865428E-12
0.0	0.95	3.95203370525272E-12
0.0	1.0	4.39596101678085E-12
0.0	1.05	4.90068964805748E-12
0.0	1.1	5.47981580046639E-12
0.0	1.15	6.14655858921324E-12
0.0	1.2	6.91995153689212E-12
0.1	0.0	6.90896960696621E-17
0.1	0.05	2.10558244864659E-11
0.1	0.1	2.42479382939484E-11
0.1	0.15	2.64488353534680E-11
0.1	0.2	2.88035264547987E-11
0.1	0.25	3.13451614563587E-11
0.1	0.3	3.40909612703071E-11
0.1	0.35	3.70611879532259E-11
0.1	0.4	4.02770896746685E-11
0.1	0.45	4.37628895273804E-11
0.1	0.5	4.75209508065800E-11
0.1	0.55	5.16254439454064E-11
0.1	0.6	5.61181062420684E-11
0.1	0.65	6.09804246230207E-11
0.1	0.7	6.62544038938453E-11
0.1	0.75	7.20451379208645E-11
0.1	0.8	7.83862777758761E-11
0.1	0.85	8.53086757792461E-11
0.1	0.9	9.28993865216156E-11
0.1	0.95	1.01243152366642E-10
0.1	1.0	1.10430046699480E-10
0.1	1.05	1.20568741944457E-10
0.1	1.1	1.31784141926317E-10
0.1	1.15	1.44222695774813E-10
0.1	1.2	1.58055104807140E-10
0.2	0.0	-7.40504125333329E-17
0.2	0.05	6.44374142227815E-10
0.2	0.1	7.43677236134015E-10
0.2	0.15	8.09531376005133E-10
0.2	0.2	8.79073781429571E-10
0.2	0.25	9.53358886330396E-10
0.2	0.3	1.03281019351435E-09
0.2	0.35	1.11788188492461E-09
0.2	0.4	1.20904913654717E-09
0.2	0.45	1.30680796295820E-09
0.2	0.5	1.41170741804566E-09
0.2	0.55	1.52380606556026E-09
0.2	0.6	1.64503715546191E-09
0.2	0.65	1.77517486652941E-09
0.2	0.7	1.91527073293207E-09
0.2	0.75	2.06581692332489E-09
0.2	0.8	2.22792048221118E-09
0.2	0.85	2.40265623647839E-09
0.2	0.9	2.59109837603080E-09
0.2	0.95	2.79449075575671E-09
0.2	1.0	3.01422413505505E-09
0.2	1.05	3.25183482967603E-09
0.2	1.1	3.50904211329054E-09
0.2	1.15	3.78777794825653E-09
0.2	1.2	4.09020917872411E-09
0.3	0.0	-7.53785807336946E-17
0.3	0.05	1.97138677952541E-08
0.3	0.1	2.28524336100739E-08
0.3	0.15	2.48564178729489E-08
0.3	0.2	2.69389573619720E-08
0.3	0.25	2.91382509352580E-08
0.3	0.3	3.14661482496437E-08
0.3	0.35	3.39342703774518E-08
0.3	0.4	3.65532980183324E-08
0.3	0.45	3.93346335147067E-08
0.3	0.5	4.22900418264107E-08
0.3	0.55	4.54273291566594E-08
0.3	0.6	4.87726758178324E-08
0.3	0.65	5.23264246139826E-08
0.3	0.7	5.61072137591509E-08
0.3	0.75	6.01312341722078E-08
0.3	0.8	6.44144416931655E-08
0.3	0.85	6.89745726416426E-08
0.3	0.9	7.38306482725976E-08
0.3	0.95	7.90030787208601E-08
0.3	1.0	8.45138881235270E-08
0.3	1.05	9.03868396180276E-08
0.3	1.1	9.66476561685721E-08
0.3	1.15	1.03324178430785E-07
0.3	1.2	1.10446634779983E-07
0.4	0.0	-1.56296011361969E-17
0.4	0.05	5.64255014870590E-07
0.4	0.1	6.61341659277863E-07
0.4	0.15	7.18350838582660E-07
0.4	0.2	7.75527680468439E-07
0.4	0.25	8.34610006316313E-07
0.4	0.3	8.95997399233134E-07
0.4	0.35	9.59979406266720E-07
0.4	0.4	1.02678320036213E-06
0.4	0.45	1.09661428607109E-06
0.4	0.5	1.16965911017436E-06
0.4	0.55	1.24609577896405E-06
0.4	0.6	1.32609595448509E-06
0.4	0.65	1.40982923193775E-06
0.4	0.7	1.49746883458059E-06
0.4	0.75	1.58918311888840E-06
0.4	0.8	1.68514472728720E-06
0.4	0.85	1.78553118630276E-06
0.4	0.9	1.89052157652689E-06
0.4	0.95	2.00029964530843E-06
0.4	1.0	2.11505508990425E-06
0.4	1.05	2.23498078362193E-06
0.4	1.1	2.36027801253260E-06
0.4	1.15	2.49115278880800E-06
0.4	1.2	2.62781898175190E-06
0.5	0.0	-2.72535884152389E-19
0.5	0.05	8.69283532086131E-06
0.5	0.1	1.08917418762167E-05
0.5	0.15	1.17405527444296E-05
0.5	0.2	1.24460085374612E-05
0.5	0.25	1.31275743801892E-05
0.5	0.3	1.38013154846140E-05
0.5	0.35	1.44741830644500E-05
0.5	0.4	1.51501365129576E-05
0.5	0.45	1.58314878421602E-05
0.5	0.5	1.65198830595121E-05
0.5	0.55	1.72163899818709E-05
0.5	0.6	1.79217569870066E-05
0.5	0.65	1.86365309190269E-05
0.5	0.7	1.93612138505896E-05
0.5	0.75	2.00960762010598E-05
0.5	0.8	2.08414725868731E-05
0.5	0.85	2.15975472890961E-05
0.5	0.9	2.23645303999452E-05
0.5	0.95	2.31425455994498E-05
0.5	1.0	2.39317249768412E-05
0.5	1.05	2.47321786395538E-05
0.5	1.1	2.55440210576468E-05
0.5	1.15	2.63673132285381E-05
0.5	1.2	2.72021615243793E-05
0.6	0.0	-9.06908000127160E-17
0.6	0.05	3.32943943304114E-05
0.6	0.1	4.97430490446244E-05
0.6	0.15	5.63401629224579E-05
0.6	0.2	5.94184500033687E-05
0.6	0.25	6.17145533618108E-05
0.6	0.3	6.37868229041410E-05
0.6	0.35	6.57494620095234E-05
0.6	0.4	6.76481371452185E-05
0.6	0.45	6.95059918835132E-05
0.6	0.5	7.13354331041915E-05
0.6	0.55	7.31447195355025E-05
0.6	0.6	7.49387423673719E-05
0.6	0.65	7.67214420069113E-05
0.6	0.7	7.84955792307361E-05
0.6	0.75	8.02630670571861E-05
0.6	0.8	8.20258135626740E-05
0.6	0.85	8.37848529536896E-05
0.6	0.9	8.55413377772311E-05
0.6	0.95	8.72961851586513E-05
0.6	1.0	8.90500412738132E-05
0.6	1.05	9.08035153007773E-05
0.6	1.1	9.25572352565165E-05
0.6	1.15	9.43115920880495E-05
0.6	1.2	9.60669422170916E-05
0.7	0.0	-1.25190336727332E-16
0.7	0.05	6.10090288609695E-05
0.7	0.1	1.01556837675387E-04
0.7	0.15	1.25381105644752E-04
0.7	0.2	1.37733602486520E-04
0.7	0.25	1.44212608293249E-04
0.7	0.3	1.48593148372166E-04
0.7	0.35	1.52259634330541E-04
0.7	0.4	1.55597661672244E-04
0.7	0.45	1.58753324555643E-04
0.7	0.5	1.61792819039132E-04
0.7	0.55	1.64749316394990E-04
0.7	0.6	1.67641609059066E-04
0.7	0.65	1.70483022497656E-04
0.7	0.7	1.73281820935830E-04
0.7	0.75	1.76044260790260E-04
0.7	0.8	1.78775615474937E-04
0.7	0.85	1.81479434459537E-04
0.7	0.9	1.84158754128495E-04
0.7	0.95	1.86816256120561E-04
0.7	1.0	1.89454145977617E-04
0.7	1.05	1.92073640291101E-04
0.7	1.1	1.94677100308040E-04
0.7	1.15	1.97265534861364E-04
0.7	1.2	1.99839685498030E-04
0.8	0.0	2.27464680474489E-18
0.8	0.05	8.57468440848215E-05
0.8	0.1	1.50355846268689E-04
0.8	0.15	1.95910989097179E-04
0.8	0.2	2.25587718931430E-04
0.8	0.25	2.43381293950662E-04
0.8	0.3	2.53795838657178E-04
0.8	0.35	2.60654521876017E-04
0.8	0.4	2.66038008861358E-04
0.8	0.45	2.70746888711473E-04
0.8	0.5	2.75097933768233E-04
0.8	0.55	2.79232475536853E-04
0.8	0.6	2.83216607312106E-04
0.8	0.65	2.87086589003504E-04
0.8	0.7	2.90864543762701E-04
0.8	0.75	2.94565799226745E-04
0.8	0.8	2.98201398193253E-04
0.8	0.85	3.01779017064495E-04
0.8	0.9	3.05306190376214E-04
0.8	0.95	3.08787288144900E-04
0.8	1.0	3.12226823136655E-04
0.8	1.05	3.15628157537767E-04
0.8	1.1	3.18994329732983E-04
0.8	1.15	3.22328161223385E-04
0.8	1.2	3.25631685981680E-04
0.9	0.0	-6.22833433698609E-18
0.9	0.05	1.06759373663769E-04
0.9	0.1	1.92733806908120E-04
0.9	0.15	2.59183598354740E-04
0.9	0.2	3.08180020472632E-04
0.9	0.25	3.42315428273393E-04
0.9	0.3	3.64738409220053E-04
0.9	0.35	3.79031868018225E-04
0.9	0.4	3.88615119354798E-04
0.9	0.45	3.95860832355606E-04
0.9	0.5	4.01971496713234E-04
0.9	0.55	4.07490638586364E-04
0.9	0.6	4.12662121556495E-04
0.9	0.65	4.17601018150893E-04
0.9	0.7	4.22367083390176E-04
0.9	0.75	4.26996032538594E-04
0.9	0.8	4.31511737986988E-04
0.9	0.85	4.35930729475029E-04
0.9	0.9	4.40265774941660E-04
0.9	0.95	4.44525805060250E-04
0.9	1.0	4.48718103432574E-04
0.9	1.05	4.52850558756555E-04
0.9	1.1	4.56925373652898E-04
0.9	1.15	4.60949537831236E-04
0.9	1.2	4.64927086281073E-04
1.0	0.0	-3.79887069668434E-17
1.0	0.05	1.24346820819683E-04
1.0	0.1	2.28640151902628E-04
1.0	0.15	3.13698988645255E-04
1.0	0.2	3.81004106505160E-04
1.0	0.25	4.32361327322405E-04
1.0	0.3	4.69908916092153E-04
1.0	0.35	4.96165743514489E-04
1.0	0.4	5.14010684356288E-04
1.0	0.45	5.26368371460106E-04
1.0	0.5	5.35601203329322E-04
1.0	0.55	5.43177359893569E-04
1.0	0.6	5.49871537945278E-04
1.0	0.65	5.56057268251594E-04
1.0	0.7	5.61909062145232E-04
1.0	0.75	5.67519826170342E-04
1.0	0.8	5.72942243435398E-04
1.0	0.85	5.78210865623149E-04
1.0	0.9	5.83349598620170E-04
1.0	0.95	5.88375944335740E-04
1.0	1.0	5.93302807606762E-04
1.0	1.05	5.98141871979758E-04
1.0	1.1	6.02899402875974E-04
1.0	1.15	6.07585434189270E-04
1.0	1.2	6.12202576350085E-04
1.1	0.0	-7.84222356649006E-17
1.1	0.05	1.39034922335145E-04
1.1	0.1	2.58840672987497E-04
1.1	0.15	3.60001484586172E-04
1.1	0.2	4.43676629115086E-04
1.1	0.25	5.11236051224505E-04
1.1	0.3	5.64227913227810E-04
1.1	0.35	6.04416672975635E-04
1.1	0.4	6.33846009290550E-04
1.1	0.45	6.54851888717701E-04
1.1	0.5	6.69898952447498E-04
1.1	0.55	6.81185564586002E-04
1.1	0.6	6.90298207738332E-04
1.1	0.65	6.98197952855337E-04
1.1	0.7	7.05396299305513E-04
1.1	0.75	7.12144735457075E-04
1.1	0.8	7.18570704992960E-04
1.1	0.85	7.24749166317895E-04
1.1	0.9	7.30731306034990E-04
1.1	0.95	7.36544711296988E-04
1.1	1.0	7.42218288926656E-04
1.1	1.05	7.47764718843235E-04
1.1	1.1	7.53201694774120E-04
1.1	1.15	7.58539221055526E-04
1.1	1.2	7.63784910649959E-04
1.2	0.0	-8.91753192225781E-17
1.2	0.05	1.51350402346397E-04
1.2	0.1	2.84261785770832E-04
1.2	0.15	3.99197979228710E-04
1.2	0.2	4.97146842811890E-04
1.2	0.25	5.79238952902985E-04
1.2	0.3	6.46689748390595E-04
1.2	0.35	7.00814157616946E-04
1.2	0.4	7.43076148380773E-04
1.2	0.45	7.75148831906092E-04
1.2	0.5	7.98944004625993E-04
1.2	0.55	8.16529526994586E-04
1.2	0.6	8.29879590344824E-04
1.2	0.65	8.40585218704353E-04
1.2	0.7	8.49731448276885E-04
1.2	0.75	8.57957704932651E-04
1.2	0.8	8.65597558978204E-04
1.2	0.85	8.72825877715013E-04
1.2	0.9	8.79741078856746E-04
1.2	0.95	8.86408492186759E-04
1.2	1.0	8.92870393843430E-04
1.2	1.05	8.99156693861375E-04
1.2	1.1	9.05292657716293E-04
1.2	1.15	9.11291963627905E-04
1.2	1.2	9.17172420790147E-04