vg	vd	ids
0.0	0.0	2.81822114507139E-17
0.0	0.05	7.66913170129854E-12
0.0	0.1	1.00054228119107E-11
0.0	0.15	1.26267597603399E-11
0.0	0.2	1.61475643521679E-11
0.0	0.25	2.09499076667840E-11
0.0	0.3	2.75834909897057E-11
0.0	0.35	3.68484095079103E-11
0.0	0.4	4.99071670446200E-11
0.0	0.45	6.84339869958412E-11
0.0	0.5	9.48564343476175E-11
0.0	0.55	1.32758123025840E-10
0.0	0.6	1.87294679243957E-10
0.0	0.65	2.65936538047439E-10
0.0	0.7	3.79422584974446E-10
0.0	0.75	5.43136076927550E-10
0.0	0.8	7.79163763181669E-10
0.0	0.85	1.11864878325418E-09
0.0	0.9	1.60592418304677E-09
0.0	0.95	2.30317761370519E-09
0.0	1.0	3.29746235731343E-09
0.0	1.05	4.70992455612235E-09
0.0	1.1	6.70806992343763E-09
0.0	1.15	9.52199516201714E-09
0.0	1.2	1.34658517743600E-08
0.1	0.0	-3.27953997573148E-18
0.1	0.05	1.60665076440074E-10
0.1	0.1	1.99316622511434E-10
0.1	0.15	2.35502023026929E-10
0.1	0.2	2.79559566956156E-10
0.1	0.25	3.33996225179327E-10
0.1	0.3	4.02055743855773E-10
0.1	0.35	4.88155509688298E-10
0.1	0.4	5.98334914119644E-10
0.1	0.45	7.40891638074522E-10
0.1	0.5	9.27210089737375E-10
0.1	0.55	1.17302251014176E-09
0.1	0.6	1.50000534960421E-09
0.1	0.65	1.93793179297589E-09
0.1	0.7	2.52772444535009E-09
0.1	0.75	3.32526392955522E-09
0.1	0.8	4.40598212378616E-09
0.1	0.85	5.87602515287622E-09
0.1	0.9	7.87870278971955E-09
0.1	0.95	1.06084842338415E-08
0.1	1.0	1.43279868584280E-08
0.1	1.05	1.93900994805359E-08
0.1	1.1	2.62664707320642E-08
0.1	1.15	3.55835946591656E-08
0.1	1.2	4.81684773973187E-08
0.2	0.0	-1.37495584276247E-17
0.2	0.05	3.98089944671955E-09
0.2	0.1	4.83794700127505E-09
0.2	0.15	5.53958109753973E-09
0.2	0.2	6.33820531090743E-09
0.2	0.25	7.25925048590862E-09
0.2	0.3	8.32875018930514E-09
0.2	0.35	9.57925425705065E-09
0.2	0.4	1.10521965384862E-08
0.2	0.45	1.28003566630676E-08
0.2	0.5	1.48914756925969E-08
0.2	0.55	1.74124983045043E-08
0.2	0.6	2.04759701494908E-08
0.2	0.65	2.42272207014684E-08
0.2	0.7	2.88558171817297E-08
0.2	0.75	3.46050904446064E-08
0.2	0.8	4.17921056802960E-08
0.2	0.85	5.08284715121077E-08
0.2	0.9	6.22454848871483E-08
0.2	0.95	7.67274146375474E-08
0.2	1.0	9.51504146896806E-08
0.2	1.05	1.18640243797827E-07
0.2	1.1	1.48610408376649E-07
0.2	1.15	1.86817668190422E-07
0.2	1.2	2.35525922591073E-07
0.3	0.0	1.56032510337942E-17
0.3	0.05	1.04616789487352E-07
0.3	0.1	1.26413506709612E-07
0.3	0.15	1.42446280735448E-07
0.3	0.2	1.59800621056254E-07
0.3	0.25	1.78902983176896E-07
0.3	0.3	2.00023076839788E-07
0.3	0.35	2.23462708838568E-07
0.3	0.4	2.49567541803872E-07
0.3	0.45	2.78741995793053E-07
0.3	0.5	3.11459602877400E-07
0.3	0.55	3.48281392836731E-07
0.3	0.6	3.89882674132128E-07
0.3	0.65	4.37056673289355E-07
0.3	0.7	4.90764887369718E-07
0.3	0.75	5.52161001007974E-07
0.3	0.8	6.22629120692286E-07
0.3	0.85	7.03836032824644E-07
0.3	0.9	7.97779789359482E-07
0.3	0.95	9.06858862188869E-07
0.3	1.0	1.03392913118278E-06
0.3	1.05	1.18240060543971E-06
0.3	1.1	1.35629636286166E-06
0.3	1.15	1.56035113623166E-06
0.3	1.2	1.80007558462064E-06
0.4	0.0	-1.33700601728096E-17
0.4	0.05	2.36932396690373E-06
0.4	0.1	2.89942997658247E-06
0.4	0.15	3.21630799371788E-06
0.4	0.2	3.53118368068715E-06
0.4	0.25	3.85819243111701E-06
0.4	0.3	4.20063235304984E-06
0.4	0.35	4.56080188973780E-06
0.4	0.4	4.94059807955455E-06
0.4	0.45	5.34181621064099E-06
0.4	0.5	5.76626070121332E-06
0.4	0.55	6.21575729661649E-06
0.4	0.6	6.69232175014835E-06
0.4	0.65	7.19807824338555E-06
0.4	0.7	7.73538366311350E-06
0.4	0.75	8.30684433036641E-06
0.4	0.8	8.91533265868380E-06
0.4	0.85	9.56407799526295E-06
0.4	0.9	1.02566444786806E-05
0.4	0.95	1.09970328420154E-05
0.4	1.0	1.17896762110666E-05
0.4	1.05	1.26394905001474E-05
0.4	1.1	1.35519237946023E-05
0.4	1.15	1.45328422629579E-05
0.4	1.2	1.55887875133398E-05
0.5	0.0	-3.34235418859424E-17
0.5	0.05	1.99312615479082E-05
0.5	0.1	2.72035117580738E-05
0.5	0.15	3.00276816119382E-05
0.5	0.2	3.20137947646530E-05
0.5	0.25	3.38467311911300E-05
0.5	0.3	3.56300140317379E-05
0.5	0.35	3.73967765710511E-05
0.5	0.4	3.91622533262586E-05
0.5	0.45	4.09355155936166E-05
0.5	0.5	4.27227765915834E-05
0.5	0.55	4.45285628296660E-05
0.5	0.6	4.63564800959151E-05
0.5	0.65	4.82101215060625E-05
0.5	0.7	5.00922922921824E-05
0.5	0.75	5.20063458403710E-05
0.5	0.8	5.39551495548427E-05
0.5	0.85	5.59420200819840E-05
0.5	0.9	5.79705631489084E-05
0.5	0.95	6.00441204594914E-05
0.5	1.0	6.21671103409281E-05
0.5	1.05	6.43437325134326E-05
0.5	1.1	6.65786049883571E-05
0.5	1.15	6.88768758732261E-05
0.5	1.2	7.12439066658422E-05
0.6	0.0	-3.09486590402710E-17
0.6	0.05	5.19170527433903E-05
0.6	0.1	8.23315145538479E-05
0.6	0.15	9.75461357127848E-05
0.6	0.2	1.05000458738115E-04
0.6	0.25	1.09833688096907E-04
0.6	0.3	1.13895214649868E-04
0.6	0.35	1.17660253901507E-04
0.6	0.4	1.21274820247610E-04
0.6	0.45	1.24797339514692E-04
0.6	0.5	1.28258076545160E-04
0.6	0.55	1.31676800778461E-04
0.6	0.6	1.35065875141005E-04
0.6	0.65	1.38435134572408E-04
0.6	0.7	1.41792704923006E-04
0.6	0.75	1.45145046331509E-04
0.6	0.8	1.48498674720376E-04
0.6	0.85	1.51858473631123E-04
0.6	0.9	1.55230091378291E-04
0.6	0.95	1.58618580222570E-04
0.6	1.0	1.62029603482056E-04
0.6	1.05	1.65468323157635E-04
0.6	1.1	1.68939820899188E-04
0.6	1.15	1.72450730049268E-04
0.6	1.2	1.76006208697944E-04
0.7	0.0	-1.42227393768131E-17
0.7	0.05	8.36975004032883E-05
0.7	0.1	1.43484775780332E-04
0.7	0.15	1.82546546625112E-04
0.7	0.2	2.05734931815513E-04
0.7	0.25	2.18926941353665E-04
0.7	0.3	2.27337045336150E-04
0.7	0.35	2.33879358370053E-04
0.7	0.4	2.39666607329557E-04
0.7	0.45	2.45082064914947E-04
0.7	0.5	2.50270597963329E-04
0.7	0.55	2.55301424303411E-04
0.7	0.6	2.60215738448675E-04
0.7	0.65	2.65039801272084E-04
0.7	0.7	2.69791993101574E-04
0.7	0.75	2.74488936527165E-04
0.7	0.8	2.79140362355652E-04
0.7	0.85	2.83758588547817E-04
0.7	0.9	2.88351655151178E-04
0.7	0.95	2.92925831215386E-04
0.7	1.0	2.97492477063169E-04
0.7	1.05	3.02057269180863E-04
0.7	1.1	3.06625251884673E-04
0.7	1.15	3.11209556496962E-04
0.7	1.2	3.15810281335329E-04
0.8	0.0	-8.67572529995491E-19
0.8	0.05	1.11230192599791E-04
0.8	0.1	1.98608429895398E-04
0.8	0.15	2.63745768029274E-04
0.8	0.2	3.09440241962080E-04
0.8	0.25	3.39454722915597E-04
0.8	0.3	3.58369296642557E-04
0.8	0.35	3.70784099248599E-04
0.8	0.4	3.80058990176229E-04
0.8	0.45	3.87932876150615E-04
0.8	0.5	3.95116660045624E-04
0.8	0.55	4.01891017653039E-04
0.8	0.6	4.08385569698337E-04
0.8	0.65	4.14672566007206E-04
0.8	0.7	4.20801136140682E-04
0.8	0.75	4.26800099737104E-04
0.8	0.8	4.32697802728905E-04
0.8	0.85	4.38508055788994E-04
0.8	0.9	4.44249849764458E-04
0.8	0.95	4.49935753186311E-04
0.8	1.0	4.55575415344120E-04
0.8	1.05	4.61183830203830E-04
0.8	1.1	4.66766126665252E-04
0.8	1.15	4.72334656751334E-04
0.8	1.2	4.77899038696345E-04
0.9	0.0	1.86114616628607E-17
0.9	0.05	1.34134311396787E-04
0.9	0.1	2.45381947034034E-04
0.9	0.15	3.34557987472717E-04
0.9	0.2	4.03364495512725E-04
0.9	0.25	4.54111461466399E-04
0.9	0.3	4.89755723432698E-04
0.9	0.35	5.13896363275395E-04
0.9	0.4	5.30404948151585E-04
0.9	0.45	5.42610385526849E-04
0.9	0.5	5.52669744105376E-04
0.9	0.55	5.61642311172961E-04
0.9	0.6	5.69973976933091E-04
0.9	0.65	5.77876377390623E-04
0.9	0.7	5.85464841967252E-04
0.9	0.75	5.92811771712062E-04
0.9	0.8	5.99969896746764E-04
0.9	0.85	6.06969108117542E-04
0.9	0.9	6.13843291363386E-04
0.9	0.95	6.20611832150117E-04
0.9	1.0	6.27292768917265E-04
0.9	1.05	6.33902986465843E-04
0.9	1.1	6.40458659951495E-04
0.9	1.15	6.46968132104630E-04
0.9	1.2	6.53446212093401E-04
1.0	0.0	4.50341355992111E-18
1.0	0.05	1.52945514421716E-04
1.0	0.1	2.84220111491427E-04
1.0	0.15	3.94251309928021E-04
1.0	0.2	4.84179192763364E-04
1.0	0.25	5.55517570160027E-04
1.0	0.3	6.10154607860401E-04
1.0	0.35	6.50435845158418E-04
1.0	0.4	6.79214335399230E-04
1.0	0.45	6.99692826960234E-04
1.0	0.5	7.14934965698620E-04
1.0	0.55	7.27275657086572E-04
1.0	0.6	7.38074877948481E-04
1.0	0.65	7.47967813753102E-04
1.0	0.7	7.57255641412021E-04
1.0	0.75	7.66108445456961E-04
1.0	0.8	7.74628367481614E-04
1.0	0.85	7.82887751787601E-04
1.0	0.9	7.90936626407466E-04
1.0	0.95	7.98809918954417E-04
1.0	1.0	8.06542414141288E-04
1.0	1.05	8.14154016078477E-04
1.0	1.1	8.21671936698279E-04
1.0	1.15	8.29108518941915E-04
1.0	1.2	8.36482496638096E-04
1.1	0.0	-1.24193818182550E-17
1.1	0.05	1.68394623608136E-04
1.1	0.1	3.16299990298445E-04
1.1	0.15	4.43971813587217E-04
1.1	0.2	5.52278408712021E-04
1.1	0.25	6.42325022988817E-04
1.1	0.3	7.15411927391329E-04
1.1	0.35	7.73083122063873E-04
1.1	0.4	8.17213547788052E-04
1.1	0.45	8.50079926610745E-04
1.1	0.5	8.74309765256605E-04
1.1	0.55	8.92611778670289E-04
1.1	0.6	9.07313443546001E-04
1.1	0.65	9.19983227090149E-04
1.1	0.7	9.31452943453772E-04
1.1	0.75	9.42125015174283E-04
1.1	0.8	9.52226793151763E-04
1.1	0.85	9.61900688825097E-04
1.1	0.9	9.71232518628392E-04
1.1	0.95	9.80293308190434E-04
1.1	1.0	9.89132328055249E-04
1.1	1.05	9.97786201123960E-04
1.1	1.1	1.00628972424232E-03
1.1	1.15	1.01466890141745E-03
1.1	1.2	1.02294635783896E-03
1.2	0.0	-4.70942026419625E-19
1.2	0.05	1.81168177089797E-04
1.2	0.1	3.42887283172532E-04
1.2	0.15	4.85350458739467E-04
1.2	0.2	6.09308769534260E-04
1.2	0.25	7.15672855599559E-04
1.2	0.3	8.05443794012310E-04
1.2	0.35	8.79727010336041E-04
1.2	0.4	9.39790227842970E-04
1.2	0.45	9.87143950756077E-04
1.2	0.5	1.02361085342612E-03
1.2	0.55	1.05134072909460E-03
1.2	0.6	1.07266692425962E-03
1.2	0.65	1.08978605186544E-03
1.2	0.7	1.10437804553760E-03
1.2	0.75	1.11744632209713E-03
1.2	0.8	1.12951214582523E-03
1.2	0.85	1.14086612645524E-03
1.2	0.9	1.15168277900126E-03
1.2	0.95	1.16207766842417E-03
1.2	1.0	1.17213002976010E-03
1.2	1.05	1.18191154782689E-03
1.2	1.1	1.19146468741759E-03
1.2	1.15	1.20083336761313E-03
1.2	1.2	1.21004838417439E-03