vg	vd	ids
0.0	0.0	-7.06386624482454E-17
0.0	0.05	2.39834487654849E-12
0.0	0.1	2.82195631772915E-12
0.0	0.15	3.18820328544001E-12
0.0	0.2	3.60784184448088E-12
0.0	0.25	4.09243814143217E-12
0.0	0.3	4.65587577059452E-12
0.0	0.35	5.31560064738189E-12
0.0	0.4	6.09429161283999E-12
0.0	0.45	7.01962698120108E-12
0.0	0.5	8.12976525613105E-12
0.0	0.55	9.47228910508113E-12
0.0	0.6	1.11107252046652E-11
0.0	0.65	1.31248391427407E-11
0.0	0.7	1.56252237675736E-11
0.0	0.75	1.87525715697905E-11
0.0	0.8	2.27036489124698E-11
0.0	0.85	2.77181117148392E-11
0.0	0.9	3.41320079747575E-11
0.0	0.95	4.23858005555827E-11
0.0	1.0	5.30647279869566E-11
0.0	1.05	6.69417324568148E-11
0.0	1.1	8.50137538761178E-11
0.0	1.15	1.08660113463458E-10
0.0	1.2	1.39709218589968E-10
0.1	0.0	3.16601349871826E-17
0.1	0.05	6.71119068625311E-11
0.1	0.1	7.83286097267445E-11
0.1	0.15	8.71995161759064E-11
0.1	0.2	9.70156134225088E-11
0.1	0.25	1.07948277711902E-10
0.1	0.3	1.20170400867850E-10
0.1	0.35	1.33886313581086E-10
0.1	0.4	1.49341396665310E-10
0.1	0.45	1.66829098672146E-10
0.1	0.5	1.86708390798483E-10
0.1	0.55	2.09418002704572E-10
0.1	0.6	2.35467474786350E-10
0.1	0.65	2.65610290825332E-10
0.1	0.7	3.00588008450607E-10
0.1	0.75	3.41462812237091E-10
0.1	0.8	3.89530120440623E-10
0.1	0.85	4.46423300983330E-10
0.1	0.9	5.14189448278210E-10
0.1	0.95	5.95440657368956E-10
0.1	1.0	6.93480111042658E-10
0.1	1.05	8.12524734952754E-10
0.1	1.1	9.57945073756679E-10
0.1	1.15	1.13658947816983E-09
0.1	1.2	1.35716404906205E-09
0.2	0.0	1.55354471768921E-17
0.2	0.05	1.95748044513848E-09
0.2	0.1	2.28020386514098E-09
0.2	0.15	2.51846034926369E-09
0.2	0.2	2.77562727747543E-09
0.2	0.25	3.05534370121435E-09
0.2	0.3	3.36038020462382E-09
0.2	0.35	3.69382957854790E-09
0.2	0.4	4.05916529426526E-09
0.2	0.45	4.46033388394155E-09
0.2	0.5	4.90187132752665E-09
0.2	0.55	5.38900588442696E-09
0.2	0.6	5.92779465747077E-09
0.2	0.65	6.52531757977662E-09
0.2	0.7	7.18987268231083E-09
0.2	0.75	7.93123633038359E-09
0.2	0.8	8.76098001666753E-09
0.2	0.85	9.69286840703419E-09
0.2	0.9	1.07432719622044E-08
0.2	0.95	1.19319119823886E-08
0.2	1.0	1.32824459813926E-08
0.2	1.05	1.48233477019610E-08
0.2	1.1	1.65888188949414E-08
0.2	1.15	1.86207207596567E-08
0.2	1.2	2.09697789359905E-08
0.3	0.0	-2.63347625448139E-17
0.3	0.05	5.76090243914354E-08
0.3	0.1	6.72922248059341E-08
0.3	0.15	7.39979800399378E-08
0.3	0.2	8.10569190711140E-08
0.3	0.25	8.85767059727192E-08
0.3	0.3	9.66089320224064E-08
0.3	0.35	1.05223805462215E-07
0.3	0.4	1.14461868227856E-07
0.3	0.45	1.24389355452834E-07
0.3	0.5	1.35071399579729E-07
0.3	0.55	1.46579080928680E-07
0.3	0.6	1.58990028265493E-07
0.3	0.65	1.72390295989090E-07
0.3	0.7	1.86874787890011E-07
0.3	0.75	2.02549793239793E-07
0.3	0.8	2.19533597563214E-07
0.3	0.85	2.37959611803126E-07
0.3	0.9	2.57977774766333E-07
0.3	0.95	2.79757657822961E-07
0.3	1.0	3.03491461648813E-07
0.3	1.05	3.29397953114258E-07
0.3	1.1	3.57725654335886E-07
0.3	1.15	3.88759848305179E-07
0.3	1.2	4.22825980007985E-07
0.4	0.0	-1.16189190453794E-17
0.4	0.05	1.51478128862062E-06
0.4	0.1	1.79337885739234E-06
0.4	0.15	1.96014371187736E-06
0.4	0.2	2.12658121122555E-06
0.4	0.25	2.29773610490076E-06
0.4	0.3	2.47494148131314E-06
0.4	0.35	2.65915729112875E-06
0.4	0.4	2.85113304350365E-06
0.4	0.45	3.05150279945236E-06
0.4	0.5	3.26085725909326E-06
0.4	0.55	3.47973910070181E-06
0.4	0.6	3.70869630691644E-06
0.4	0.65	3.94825400221905E-06
0.4	0.7	4.19896267930337E-06
0.4	0.75	4.46136400500093E-06
0.4	0.8	4.73603639612174E-06
0.4	0.85	5.02356474384047E-06
0.4	0.9	5.32457440837339E-06
0.4	0.95	5.63971850922555E-06
0.4	1.0	5.96969360543288E-06
0.4	1.05	6.31523790065143E-06
0.4	1.1	6.67715432118564E-06
0.4	1.15	7.05628217439798E-06
0.4	1.2	7.45355750826813E-06
0.5	0.0	2.06492675371688E-18
0.5	0.05	1.67901971062145E-05
0.5	0.1	2.18408236284136E-05
0.5	0.15	2.36759462320950E-05
0.5	0.2	2.50789600096544E-05
0.5	0.25	2.63995315032476E-05
0.5	0.3	2.76841507310874E-05
0.5	0.35	2.89517439896992E-05
0.5	0.4	3.02127694000043E-05
0.5	0.45	3.14734710380397E-05
0.5	0.5	3.27378114138485E-05
0.5	0.55	3.40088366974361E-05
0.5	0.6	3.52884768595009E-05
0.5	0.65	3.65784878773791E-05
0.5	0.7	3.78801103669584E-05
0.5	0.75	3.91944256304827E-05
0.5	0.8	4.05223276583384E-05
0.5	0.85	4.18646747645518E-05
0.5	0.9	4.32220314745048E-05
0.5	0.95	4.45952767143938E-05
0.5	1.0	4.59848961358060E-05
0.5	1.05	4.73916040460046E-05
0.5	1.1	4.88160974895479E-05
0.5	1.15	5.02590983642399E-05
0.5	1.2	5.17211772433017E-05
0.6	0.0	5.04725790697742E-17
0.6	0.05	4.97201250261424E-05
0.6	0.1	7.66921598997536E-05
0.6	0.15	8.86674646855595E-05
0.6	0.2	9.41178328947630E-05
0.6	0.25	9.78367242960375E-05
0.6	0.3	1.01066167086030E-04
0.6	0.35	1.04068372134963E-04
0.6	0.4	1.06939368271534E-04
0.6	0.45	1.09725682354728E-04
0.6	0.5	1.12452402125676E-04
0.6	0.55	1.15134495402432E-04
0.6	0.6	1.17783123186562E-04
0.6	0.65	1.20404902914735E-04
0.6	0.7	1.23005983799556E-04
0.6	0.75	1.25590529177480E-04
0.6	0.8	1.28161447288198E-04
0.6	0.85	1.30722360983307E-04
0.6	0.9	1.33275081753833E-04
0.6	0.95	1.35821879083218E-04
0.6	1.0	1.38364471659352E-04
0.6	1.05	1.40904548126703E-04
0.6	1.1	1.43443288099543E-04
0.6	1.15	1.45982747143080E-04
0.6	1.2	1.48523607573221E-04
0.7	0.0	1.82839308520049E-17
0.7	0.05	8.28354014322582E-05
0.7	0.1	1.40045183555860E-04
0.7	0.15	1.75517224699937E-04
0.7	0.2	1.95046303446270E-04
0.7	0.25	2.05421098643547E-04
0.7	0.3	2.12051957328027E-04
0.7	0.35	2.17348439593318E-04
0.7	0.4	2.22057007298180E-04
0.7	0.45	2.26453126089111E-04
0.7	0.5	2.30653803014182E-04
0.7	0.55	2.34715832633624E-04
0.7	0.6	2.38672708502824E-04
0.7	0.65	2.42545203966949E-04
0.7	0.7	2.46348932551595E-04
0.7	0.75	2.50094474526710E-04
0.7	0.8	2.53789817498523E-04
0.7	0.85	2.57442441993598E-04
0.7	0.9	2.61057047625079E-04
0.7	0.95	2.64638966828923E-04
0.7	1.0	2.68190602155011E-04
0.7	1.05	2.71716555165960E-04
0.7	1.1	2.75219277206543E-04
0.7	1.15	2.78701302441759E-04
0.7	1.2	2.82164526279674E-04
0.8	0.0	1.70905686477443E-17
0.8	0.05	1.11144354040521E-04
0.8	0.1	1.96706972080339E-04
0.8	0.15	2.58751622537495E-04
0.8	0.2	3.00633294317060E-04
0.8	0.25	3.26766290214444E-04
0.8	0.3	3.42379276475029E-04
0.8	0.35	3.52408108074363E-04
0.8	0.4	3.59952438972251E-04
0.8	0.45	3.66366116882073E-04
0.8	0.5	3.72203060344961E-04
0.8	0.55	3.77699507774301E-04
0.8	0.6	3.82963357618609E-04
0.8	0.65	3.88053403027037E-04
0.8	0.7	3.93005067955678E-04
0.8	0.75	3.97844432392535E-04
0.8	0.8	4.02586224524490E-04
0.8	0.85	4.07246249990835E-04
0.8	0.9	4.11833518454609E-04
0.8	0.95	4.16355284253708E-04
0.8	1.0	4.20821820298032E-04
0.8	1.05	4.25235167590497E-04
0.8	1.1	4.29601147911913E-04
0.8	1.15	4.33925793791828E-04
0.8	1.2	4.38211351964833E-04
0.9	0.0	-2.40695325165394E-17
0.9	0.05	1.34439452918700E-04
0.9	0.1	2.44296610392031E-04
0.9	0.15	3.30754349740707E-04
0.9	0.2	3.95936537240234E-04
0.9	0.25	4.42595978344224E-04
0.9	0.3	4.74152728023731E-04
0.9	0.35	4.94675551545306E-04
0.9	0.4	5.08333026606742E-04
0.9	0.45	5.18343890266355E-04
0.9	0.5	5.26544666864846E-04
0.9	0.55	5.33816635317627E-04
0.9	0.6	5.40557510616675E-04
0.9	0.65	5.46948420447919E-04
0.9	0.7	5.53083484354793E-04
0.9	0.75	5.59020027106392E-04
0.9	0.8	5.64794873572255E-04
0.9	0.85	5.70433487030399E-04
0.9	0.9	5.75957300812379E-04
0.9	0.95	5.81375130772628E-04
0.9	1.0	5.86706219468673E-04
0.9	1.05	5.91955116171851E-04
0.9	1.1	5.97129520430104E-04
0.9	1.15	6.02240323877058E-04
0.9	1.2	6.07288930075791E-04
1.0	0.0	1.80949532210038E-17
1.0	0.05	1.53439274752072E-04
1.0	0.1	2.83533095617531E-04
1.0	0.15	3.91040454932101E-04
1.0	0.2	4.77468092425081E-04
1.0	0.25	5.44686733524509E-04
1.0	0.3	5.94933156635750E-04
1.0	0.35	6.30906171524652E-04
1.0	0.4	6.55805096100059E-04
1.0	0.45	6.73065032824846E-04
1.0	0.5	6.85707904030368E-04
1.0	0.55	6.95814861163086E-04
1.0	0.6	7.04569062240710E-04
1.0	0.65	7.12554077732319E-04
1.0	0.7	7.20044364537242E-04
1.0	0.75	7.27180526236534E-04
1.0	0.8	7.34047901624490E-04
1.0	0.85	7.40697696930700E-04
1.0	0.9	7.47168548453050E-04
1.0	0.95	7.53483862629844E-04
1.0	1.0	7.59668709398389E-04
1.0	1.05	7.65736174333425E-04
1.0	1.1	7.71698719443622E-04
1.0	1.15	7.77566263398597E-04
1.0	1.2	7.83351900073825E-04
1.1	0.0	-4.48061909454663E-17
1.1	0.05	1.68983785398555E-04
1.1	0.1	3.15809448529382E-04
1.1	0.15	4.41043873608437E-04
1.1	0.2	5.45894672384072E-04
1.1	0.25	6.31784236668093E-04
1.1	0.3	7.00305953744079E-04
1.1	0.35	7.53282851755261E-04
1.1	0.4	7.92869623364456E-04
1.1	0.45	8.21603274282568E-04
1.1	0.5	8.42295727597255E-04
1.1	0.55	8.57641496329154E-04
1.1	0.6	8.69768730206555E-04
1.1	0.65	8.80074380523930E-04
1.1	0.7	8.89331708846284E-04
1.1	0.75	8.97924321633705E-04
1.1	0.8	9.06045899879760E-04
1.1	0.85	9.13816599808621E-04
1.1	0.9	9.21306386589055E-04
1.1	0.95	9.28572407373469E-04
1.1	1.0	9.35639532925721E-04
1.1	1.05	9.42543735761918E-04
1.1	1.1	9.49301063238261E-04
1.1	1.15	9.55929482126666E-04
1.1	1.2	9.62444230955010E-04
1.2	0.0	-1.34376045614167E-17
1.2	0.05	1.81814137426577E-04
1.2	0.1	3.42507584833395E-04
1.2	0.15	4.82571384298450E-04
1.2	0.2	6.03078428101131E-04
1.2	0.25	7.05234354625237E-04
1.2	0.3	7.90302642950716E-04
1.2	0.35	8.59628361364867E-04
1.2	0.4	9.14709561723257E-04
1.2	0.45	9.57274472202229E-04
1.2	0.5	9.89356434217907E-04
1.2	0.55	1.01324888066101E-03
1.2	0.6	1.03129048547427E-03
1.2	0.65	1.04552270380136E-03
1.2	0.7	1.05745532719695E-03
1.2	0.75	1.06802733983480E-03
1.2	0.8	1.07773648082653E-03
1.2	0.85	1.08684774503787E-03
1.2	0.9	1.09551414547918E-03
1.2	0.95	1.10383059976354E-03
1.2	1.0	1.11186806153513E-03
1.2	1.05	1.11966468891873E-03
1.2	1.1	1.12725907507432E-03
1.2	1.15	1.13467658625123E-03
1.2	1.2	1.14193743015170E-03