vg	vd	ids
0.0	0.0	6.09235453356529E-17
0.0	0.05	3.73316438914057E-13
0.0	0.1	4.37577048476515E-13
0.0	0.15	4.71435220175571E-13
0.0	0.2	5.05487248212056E-13
0.0	0.25	5.41714894353340E-13
0.0	0.3	5.80484835913187E-13
0.0	0.35	6.21523247319309E-13
0.0	0.4	6.65252490130579E-13
0.0	0.45	7.12098551153055E-13
0.0	0.5	7.62607944026131E-13
0.0	0.55	8.16486732086933E-13
0.0	0.6	8.74359911737695E-13
0.0	0.65	9.36276804198530E-13
0.0	0.7	1.00342393221508E-12
0.0	0.75	1.07548821833728E-12
0.0	0.8	1.15351533017572E-12
0.0	0.85	1.23750653525770E-12
0.0	0.9	1.32878250641798E-12
0.0	0.95	1.42759774176425E-12
0.0	1.0	1.53518300417919E-12
0.0	1.05	1.65220231884312E-12
0.0	1.1	1.78015687842222E-12
0.0	1.15	1.91979144230014E-12
0.0	1.2	2.07362214691509E-12
0.1	0.0	-8.26237513520938E-18
0.1	0.05	1.19289106836250E-11
0.1	0.1	1.40066348415078E-11
0.1	0.15	1.50781370201521E-11
0.1	0.2	1.61410112312021E-11
0.1	0.25	1.72597026345574E-11
0.1	0.3	1.84399420584382E-11
0.1	0.35	1.96867421650895E-11
0.1	0.4	2.10053127426512E-11
0.1	0.45	2.24007746001314E-11
0.1	0.5	2.38795804908281E-11
0.1	0.55	2.54478653318349E-11
0.1	0.6	2.71130725124082E-11
0.1	0.65	2.88823528747587E-11
0.1	0.7	3.07638992524387E-11
0.1	0.75	3.27666870621918E-11
0.1	0.8	3.49004969093592E-11
0.1	0.85	3.71762779341818E-11
0.1	0.9	3.96053504399089E-11
0.1	0.95	4.22007810919592E-11
0.1	1.0	4.49769841778936E-11
0.1	1.05	4.79498726551312E-11
0.1	1.1	5.11368921840644E-11
0.1	1.15	5.45573837923341E-11
0.1	1.2	5.82324412214032E-11
0.2	0.0	5.43120846644077E-17
0.2	0.05	3.84350034386713E-10
0.2	0.1	4.52615706907150E-10
0.2	0.15	4.87330633895747E-10
0.2	0.2	5.21265591609970E-10
0.2	0.25	5.56656406987550E-10
0.2	0.3	5.93677471999233E-10
0.2	0.35	6.32454938097437E-10
0.2	0.4	6.73118586858569E-10
0.2	0.45	7.15812462413884E-10
0.2	0.5	7.60678543881296E-10
0.2	0.55	8.07875765316793E-10
0.2	0.6	8.57539165610203E-10
0.2	0.65	9.09847969106509E-10
0.2	0.7	9.64977999075452E-10
0.2	0.75	1.02312135170299E-09
0.2	0.8	1.08447460589986E-09
0.2	0.85	1.14926032343818E-09
0.2	0.9	1.21771103323313E-09
0.2	0.95	1.29007309609032E-09
0.2	1.0	1.36662011573191E-09
0.2	1.05	1.44763921294496E-09
0.2	1.1	1.53344151752566E-09
0.2	1.15	1.62436878202311E-09
0.2	1.2	1.72078958001501E-09
0.3	0.0	1.84745848858067E-17
0.3	0.05	1.23314673713857E-08
0.3	0.1	1.45896451415947E-08
0.3	0.15	1.57262735685809E-08
0.3	0.2	1.68183978600316E-08
0.3	0.25	1.79451178074832E-08
0.3	0.3	1.91125531886048E-08
0.3	0.35	2.03242259234549E-08
0.3	0.4	2.15843148715508E-08
0.3	0.45	2.28969510539390E-08
0.3	0.5	2.42648988106937E-08
0.3	0.55	2.56919566020154E-08
0.3	0.6	2.71815983247890E-08
0.3	0.65	2.87380174352368E-08
0.3	0.7	3.03648056918915E-08
0.3	0.75	3.20662039193367E-08
0.3	0.8	3.38464853683892E-08
0.3	0.85	3.57100718568194E-08
0.3	0.9	3.76617304227797E-08
0.3	0.95	3.97063832746062E-08
0.3	1.0	4.18492508857884E-08
0.3	1.05	4.40958827030850E-08
0.3	1.1	4.64520648637245E-08
0.3	1.15	4.89239378279850E-08
0.3	1.2	5.15180267464384E-08
0.4	0.0	-1.25935556124171E-16
0.4	0.05	3.69061341593999E-07
0.4	0.1	4.41647525473962E-07
0.4	0.15	4.76508573465729E-07
0.4	0.2	5.08715274754926E-07
0.4	0.25	5.41272425569558E-07
0.4	0.3	5.74422028509512E-07
0.4	0.35	6.08341966820956E-07
0.4	0.4	6.43142897743002E-07
0.4	0.45	6.78874382757725E-07
0.4	0.5	7.15627881659534E-07
0.4	0.55	7.53474038838930E-07
0.4	0.6	7.92477401492086E-07
0.4	0.65	8.32705115255917E-07
0.4	0.7	8.74218087585435E-07
0.4	0.75	9.17077949777847E-07
0.4	0.8	9.61346054158880E-07
0.4	0.85	1.00708195822639E-06
0.4	0.9	1.05434822769056E-06
0.4	0.95	1.10320637578294E-06
0.4	1.0	1.15371851929637E-06
0.4	1.05	1.20594958485239E-06
0.4	1.1	1.25996326010591E-06
0.4	1.15	1.31582528761846E-06
0.4	1.2	1.37360357954839E-06
0.5	0.0	2.16890210999077E-17
0.5	0.05	5.67360580137650E-06
0.5	0.1	7.35735755762155E-06
0.5	0.15	7.96192107591497E-06
0.5	0.2	8.39398482959564E-06
0.5	0.25	8.79843472406873E-06
0.5	0.3	9.19240812045529E-06
0.5	0.35	9.58056671464411E-06
0.5	0.4	9.96529897711113E-06
0.5	0.45	1.03482299529954E-05
0.5	0.5	1.07305937197184E-05
0.5	0.55	1.11133447018861E-05
0.5	0.6	1.14972120305717E-05
0.5	0.65	1.18827803246348E-05
0.5	0.7	1.22705649785552E-05
0.5	0.75	1.26609363220014E-05
0.5	0.8	1.30543023912423E-05
0.5	0.85	1.34509419087691E-05
0.5	0.9	1.38511325655001E-05
0.5	0.95	1.42551541307932E-05
0.5	1.0	1.46631901673153E-05
0.5	1.05	1.50754637596952E-05
0.5	1.1	1.54921735681811E-05
0.5	1.15	1.59134717675377E-05
0.5	1.2	1.63395312870790E-05
0.6	0.0	6.30985994018857E-17
0.6	0.05	2.11671806224295E-05
0.6	0.1	3.29110965575900E-05
0.6	0.15	3.83211704523323E-05
0.6	0.2	4.07957670757835E-05
0.6	0.25	4.23958856649143E-05
0.6	0.3	4.37693001328465E-05
0.6	0.35	4.50469404624807E-05
0.6	0.4	4.62635338856437E-05
0.6	0.45	4.74363167686505E-05
0.6	0.5	4.85763940904461E-05
0.6	0.55	4.96912162481550E-05
0.6	0.6	5.07861566352840E-05
0.6	0.65	5.18651650119554E-05
0.6	0.7	5.29313129025572E-05
0.6	0.75	5.39870588600780E-05
0.6	0.8	5.50344056900150E-05
0.6	0.85	5.60749685936839E-05
0.6	0.9	5.71101295970306E-05
0.6	0.95	5.81411736522752E-05
0.6	1.0	5.91689525070017E-05
0.6	1.05	6.01944342557250E-05
0.6	1.1	6.12184626526817E-05
0.6	1.15	6.22416065726088E-05
0.6	1.2	6.32644857163521E-05
0.7	0.0	5.14666370747822E-17
0.7	0.05	3.88700373597244E-05
0.7	0.1	6.67728676478556E-05
0.7	0.15	8.49965180875550E-05
0.7	0.2	9.56673030152976E-05
0.7	0.25	1.01523274486507E-04
0.7	0.3	1.05113867372030E-04
0.7	0.35	1.07881929404386E-04
0.7	0.4	1.10316437354252E-04
0.7	0.45	1.12559996008381E-04
0.7	0.5	1.14673756427647E-04
0.7	0.55	1.16692858096670E-04
0.7	0.6	1.18639926822730E-04
0.7	0.65	1.20530167366634E-04
0.7	0.7	1.22373994389713E-04
0.7	0.75	1.24179743619263E-04
0.7	0.8	1.25953187789200E-04
0.7	0.85	1.27699308635086E-04
0.7	0.9	1.29422106651201E-04
0.7	0.95	1.31124881495735E-04
0.7	1.0	1.32810094566895E-04
0.7	1.05	1.34480311657563E-04
0.7	1.1	1.36137498067705E-04
0.7	1.15	1.37783166662435E-04
0.7	1.2	1.39418853559538E-04
0.8	0.0	9.53840493386922E-17
0.8	0.05	5.52454882062593E-05
0.8	0.1	9.94098252436662E-05
0.8	0.15	1.33010691782154E-04
0.8	0.2	1.57077983239584E-04
0.8	0.25	1.73138166654314E-04
0.8	0.3	1.83233078044367E-04
0.8	0.35	1.89653799832781E-04
0.8	0.4	1.94275851761553E-04
0.8	0.45	1.98089826365772E-04
0.8	0.5	2.01475320150964E-04
0.8	0.55	2.04589060854686E-04
0.8	0.6	2.07514542161041E-04
0.8	0.65	2.10301605255923E-04
0.8	0.7	2.12982615991784E-04
0.8	0.75	2.15578419621297E-04
0.8	0.8	2.18104408566631E-04
0.8	0.85	2.20571929990032E-04
0.8	0.9	2.22989910070727E-04
0.8	0.95	2.25364847795361E-04
0.8	1.0	2.27702594345437E-04
0.8	1.05	2.30008050815375E-04
0.8	1.1	2.32284901200692E-04
0.8	1.15	2.34536491473416E-04
0.8	1.2	2.36765111018807E-04
0.9	0.0	-8.19187653646109E-17
0.9	0.05	6.96849865085276E-05
0.9	0.1	1.28639116513457E-04
0.9	0.15	1.77018347875729E-04
0.9	0.2	2.15344107526928E-04
0.9	0.25	2.44434876315426E-04
0.9	0.3	2.65450537921407E-04
0.9	0.35	2.79930525388437E-04
0.9	0.4	2.89730068068763E-04
0.9	0.45	2.96694352995667E-04
0.9	0.5	3.02161814840061E-04
0.9	0.55	3.06822871844153E-04
0.9	0.6	3.10993284849510E-04
0.9	0.65	3.14840538906171E-04
0.9	0.7	3.18460414502384E-04
0.9	0.75	3.21911650680007E-04
0.9	0.8	3.25231875554960E-04
0.9	0.85	3.28445929515035E-04
0.9	0.9	3.31571934812113E-04
0.9	0.95	3.34624319930144E-04
0.9	1.0	3.37613201042696E-04
0.9	1.05	3.40545664384443E-04
0.9	1.1	3.43430849420514E-04
0.9	1.15	3.46273926957786E-04
0.9	1.2	3.49078117111892E-04
1.0	0.0	-2.34249469833322E-17
1.0	0.05	8.21939892108261E-05
1.0	0.1	1.54175047970849E-04
1.0	0.15	2.15910122704167E-04
1.0	0.2	2.67660667909048E-04
1.0	0.25	3.09884130727123E-04
1.0	0.3	3.43245662133902E-04
1.0	0.35	3.68652736834330E-04
1.0	0.4	3.87296303027995E-04
1.0	0.45	4.00650824870735E-04
1.0	0.5	4.10329257950786E-04
1.0	0.55	4.17751737823359E-04
1.0	0.6	4.23867588990703E-04
1.0	0.65	4.29188594929934E-04
1.0	0.7	4.33993700584814E-04
1.0	0.75	4.38450616763883E-04
1.0	0.8	4.42658541989766E-04
1.0	0.85	4.46680587740903E-04
1.0	0.9	4.50553976129985E-04
1.0	0.95	4.54307175644813E-04
1.0	1.0	4.57960622101472E-04
1.0	1.05	4.61526857224806E-04
1.0	1.1	4.65019673372471E-04
1.0	1.15	4.68449378964349E-04
1.0	1.2	4.71820353106793E-04
1.1	0.0	-2.29329151335866E-17
1.1	0.05	9.29540201004808E-05
1.1	0.1	1.76252635566534E-04
1.1	0.15	2.49764133507863E-04
1.1	0.2	3.13612269891167E-04
1.1	0.25	3.68060934011999E-04
1.1	0.3	4.13506449865929E-04
1.1	0.35	4.50492464892245E-04
1.1	0.4	4.79742699870182E-04
1.1	0.45	5.02199557667950E-04
1.1	0.5	5.19039073191987E-04
1.1	0.55	5.31610822878737E-04
1.1	0.6	5.41248883103120E-04
1.1	0.65	5.49020415130953E-04
1.1	0.7	5.55619848912008E-04
1.1	0.75	5.61455354994705E-04
1.1	0.8	5.66779037591088E-04
1.1	0.85	5.71749636660238E-04
1.1	0.9	5.76461594179466E-04
1.1	0.95	5.80977130764435E-04
1.1	1.0	5.85334619535634E-04
1.1	1.05	5.89561443508474E-04
1.1	1.1	5.93679666553065E-04
1.1	1.15	5.97704230258585E-04
1.1	1.2	6.01645132843623E-04
1.2	0.0	1.81922510873156E-17
1.2	0.05	1.02196418829226E-04
1.2	0.1	1.95272850796234E-04
1.2	0.15	2.79050555819500E-04
1.2	0.2	3.53582778348142E-04
1.2	0.25	4.19030363106591E-04
1.2	0.3	4.75641828087034E-04
1.2	0.35	5.23756260147481E-04
1.2	0.4	5.63821585158440E-04
1.2	0.45	5.96424589702948E-04
1.2	0.5	6.22320833095696E-04
1.2	0.55	6.42453834660828E-04
1.2	0.6	6.57939347459588E-04
1.2	0.65	6.69956903731464E-04
1.2	0.7	6.79574515321672E-04
1.2	0.75	6.87595147838530E-04
1.2	0.8	6.94559016232851E-04
1.2	0.85	7.00808900124601E-04
1.2	0.9	7.06567494030239E-04
1.2	0.95	7.11979717039629E-04
1.2	1.0	7.17132168197343E-04
1.2	1.05	7.22081213990105E-04
1.2	1.1	7.26867702442952E-04
1.2	1.15	7.31515985377172E-04
1.2	1.2	7.36048122209986E-04