vg	vd	ids
0.0	0.0	-1.19995127644034E-17
0.0	0.05	1.58102217448461E-12
0.0	0.1	1.91640571265617E-12
0.0	0.15	2.21743732847710E-12
0.0	0.2	2.56665622501645E-12
0.0	0.25	2.97485536683135E-12
0.0	0.3	3.45436806319334E-12
0.0	0.35	4.02078879090692E-12
0.0	0.4	4.69383008857748E-12
0.0	0.45	5.49831978684948E-12
0.0	0.5	6.46612920279091E-12
0.0	0.55	7.63756859866430E-12
0.0	0.6	9.06499338442578E-12
0.0	0.65	1.08171570256872E-11
0.0	0.7	1.29786881064774E-11
0.0	0.75	1.56631458284812E-11
0.0	0.8	1.90174851964443E-11
0.0	0.85	2.32294770464752E-11
0.0	0.9	2.85533962459244E-11
0.0	0.95	3.52865067924708E-11
0.0	1.0	4.39160732437664E-11
0.0	1.05	5.49092824431774E-11
0.0	1.1	6.89844308020600E-11
0.0	1.15	8.71720005713608E-11
0.0	1.2	1.10562663806795E-10
0.1	0.0	-2.39542683169387E-17
0.1	0.05	3.90810151804361E-11
0.1	0.1	4.69980295909449E-11
0.1	0.15	5.35962186188239E-11
0.1	0.2	6.09989930565859E-11
0.1	0.25	6.93612636049486E-11
0.1	0.3	7.88327285584958E-11
0.1	0.35	8.95913142161189E-11
0.1	0.4	1.01849822177606E-10
0.1	0.45	1.15864002514893E-10
0.1	0.5	1.31942736446936E-10
0.1	0.55	1.50460360176305E-10
0.1	0.6	1.71863347825856E-10
0.1	0.65	1.96719589814832E-10
0.1	0.7	2.25666794373988E-10
0.1	0.75	2.59739071259209E-10
0.1	0.8	2.99700649846502E-10
0.1	0.85	3.46823905370858E-10
0.1	0.9	4.03394501905575E-10
0.1	0.95	4.70647482795970E-10
0.1	1.0	5.51123347058691E-10
0.1	1.05	6.48362205848127E-10
0.1	1.1	7.66740934652119E-10
0.1	1.15	9.09867050121400E-10
0.1	1.2	1.08476829035413E-09
0.2	0.0	-1.44429533570612E-17
0.2	0.05	1.00609503899897E-09
0.2	0.1	1.20803648445216E-09
0.2	0.15	1.36722965637277E-09
0.2	0.2	1.54161187603442E-09
0.2	0.25	1.73413492250002E-09
0.2	0.3	1.94698786103755E-09
0.2	0.35	2.18265280677483E-09
0.2	0.4	2.44395451670202E-09
0.2	0.45	2.73414154635012E-09
0.2	0.5	3.05692706110697E-09
0.2	0.55	3.41664046946535E-09
0.2	0.6	3.81824996990549E-09
0.2	0.65	4.26757932735503E-09
0.2	0.7	4.77064434492577E-09
0.2	0.75	5.33769231880666E-09
0.2	0.8	5.97537157014555E-09
0.2	0.85	6.69655853791022E-09
0.2	0.9	7.51099918473287E-09
0.2	0.95	8.44112519695958E-09
0.2	1.0	9.49864970294247E-09
0.2	1.05	1.07066407177107E-08
0.2	1.1	1.20941251469166E-08
0.2	1.15	1.36916925206901E-08
0.2	1.2	1.55349513091678E-08
0.3	0.0	6.95631320775349E-18
0.3	0.05	2.61483519526474E-08
0.3	0.1	3.14908546988204E-08
0.3	0.15	3.55013024300138E-08
0.3	0.2	3.97975822471419E-08
0.3	0.25	4.44502340758376E-08
0.3	0.3	4.94951287690631E-08
0.3	0.35	5.49703531117502E-08
0.3	0.4	6.09170851209478E-08
0.3	0.45	6.73802911746697E-08
0.3	0.5	7.44093442462135E-08
0.3	0.55	8.20565154973211E-08
0.3	0.6	9.03821373490522E-08
0.3	0.65	9.94677823401044E-08
0.3	0.7	1.09369003691014E-07
0.3	0.75	1.20145814912477E-07
0.3	0.8	1.31983803167688E-07
0.3	0.85	1.44872719161733E-07
0.3	0.9	1.59018619540101E-07
0.3	0.95	1.74293935693432E-07
0.3	1.0	1.91468862956493E-07
0.3	1.05	2.10185057984104E-07
0.3	1.1	2.30551153317488E-07
0.3	1.15	2.53332302702176E-07
0.3	1.2	2.78300646512789E-07
0.4	0.0	-7.84392018868158E-18
0.4	0.05	6.33473297760513E-07
0.4	0.1	7.70285599293411E-07
0.4	0.15	8.63911169860322E-07
0.4	0.2	9.60326036808365E-07
0.4	0.25	1.06173530210039E-06
0.4	0.3	1.16868310139442E-06
0.4	0.35	1.28161949993152E-06
0.4	0.4	1.40087126550382E-06
0.4	0.45	1.52709381210727E-06
0.4	0.5	1.66033252305058E-06
0.4	0.55	1.80141794131317E-06
0.4	0.6	1.95042406721598E-06
0.4	0.65	2.10790740191077E-06
0.4	0.7	2.27428037618842E-06
0.4	0.75	2.45015780277667E-06
0.4	0.8	2.63585766476713E-06
0.4	0.85	2.83042973395469E-06
0.4	0.9	3.03754333353430E-06
0.4	0.95	3.25538887878442E-06
0.4	1.0	3.48913372674534E-06
0.4	1.05	3.73294858265500E-06
0.4	1.1	3.99047307999088E-06
0.4	1.15	4.26247659597551E-06
0.4	1.2	4.54954156474093E-06
0.5	0.0	4.13587928504178E-17
0.5	0.05	8.30974420988952E-06
0.5	0.1	1.07091381798479E-05
0.5	0.15	1.18172574770455E-05
0.5	0.2	1.27797464655187E-05
0.5	0.25	1.37212968427417E-05
0.5	0.3	1.46576193116417E-05
0.5	0.35	1.55946419608284E-05
0.5	0.4	1.65360768597790E-05
0.5	0.45	1.74840769595165E-05
0.5	0.5	1.84407053781413E-05
0.5	0.55	1.93983117886826E-05
0.5	0.6	2.03728070748388E-05
0.5	0.65	2.13658474380689E-05
0.5	0.7	2.23763417925770E-05
0.5	0.75	2.33922193140385E-05
0.5	0.8	2.44214693159586E-05
0.5	0.85	2.54663084789385E-05
0.5	0.9	2.65268404877024E-05
0.5	0.95	2.76058569822397E-05
0.5	1.0	2.86998571743642E-05
0.5	1.05	2.98120965988775E-05
0.5	1.1	3.09424620425646E-05
0.5	1.15	3.20917322797301E-05
0.5	1.2	3.32607138708927E-05
0.6	0.0	1.45184374955889E-17
0.6	0.05	3.01318431537404E-05
0.6	0.1	4.54340826264847E-05
0.6	0.15	5.21171870057756E-05
0.6	0.2	5.56982917868674E-05
0.6	0.25	5.85477200988220E-05
0.6	0.3	6.11705534314248E-05
0.6	0.35	6.36669987883125E-05
0.6	0.4	6.60751917405549E-05
0.6	0.45	6.84173789525113E-05
0.6	0.5	7.07018752323175E-05
0.6	0.55	7.29540033500396E-05
0.6	0.6	7.51705814559102E-05
0.6	0.65	7.73625880621241E-05
0.6	0.7	7.95371148782010E-05
0.6	0.75	8.16990310137878E-05
0.6	0.8	8.38419399230384E-05
0.6	0.85	8.59753462324513E-05
0.6	0.9	8.81013063881112E-05
0.6	0.95	9.02236969295348E-05
0.6	1.0	9.23426515223840E-05
0.6	1.05	9.44608517005630E-05
0.6	1.1	9.65801784677807E-05
0.6	1.15	9.87023340879116E-05
0.6	1.2	1.00828756305435E-04
0.7	0.0	-2.41034163821397E-17
0.7	0.05	5.47862521491076E-05
0.7	0.1	9.14865962895194E-05
0.7	0.15	1.13461030776067E-04
0.7	0.2	1.25443779837071E-04
0.7	0.25	1.32379454582760E-04
0.7	0.3	1.37491176414542E-04
0.7	0.35	1.41968118533499E-04
0.7	0.4	1.46080454797305E-04
0.7	0.45	1.49952259860717E-04
0.7	0.5	1.53640217949421E-04
0.7	0.55	1.57197190112492E-04
0.7	0.6	1.60633943954802E-04
0.7	0.65	1.63986487262845E-04
0.7	0.7	1.67267508455423E-04
0.7	0.75	1.70479615605486E-04
0.7	0.8	1.73642074157873E-04
0.7	0.85	1.76756493264562E-04
0.7	0.9	1.79832919950193E-04
0.7	0.95	1.82875035126182E-04
0.7	1.0	1.85889826397875E-04
0.7	1.05	1.88879570945849E-04
0.7	1.1	1.91848656174688E-04
0.7	1.15	1.94800401005940E-04
0.7	1.2	1.97738125888914E-04
0.8	0.0	-6.40905069334481E-17
0.8	0.05	7.71263605777071E-05
0.8	0.1	1.35444714732552E-04
0.8	0.15	1.76843616058339E-04
0.8	0.2	2.04197518480420E-04
0.8	0.25	2.21169871142077E-04
0.8	0.3	2.31799501518611E-04
0.8	0.35	2.39414566586281E-04
0.8	0.4	2.45771019222634E-04
0.8	0.45	2.51448229118633E-04
0.8	0.5	2.56687875912928E-04
0.8	0.55	2.61608052252271E-04
0.8	0.6	2.66284822910161E-04
0.8	0.65	2.70770825061923E-04
0.8	0.7	2.75103737640506E-04
0.8	0.75	2.79311802825949E-04
0.8	0.8	2.83420237006628E-04
0.8	0.85	2.87432378167724E-04
0.8	0.9	2.91369961994628E-04
0.8	0.95	2.95240683851075E-04
0.8	1.0	2.99053422501880E-04
0.8	1.05	3.02815543538543E-04
0.8	1.1	3.06534350151288E-04
0.8	1.15	3.10213961623884E-04
0.8	1.2	3.13861113497503E-04
0.9	0.0	-4.82215070227264E-17
0.9	0.05	9.65172094978484E-05
0.9	0.1	1.74366290738875E-04
0.9	0.15	2.34706092912103E-04
0.9	0.2	2.79440987041943E-04
0.9	0.25	3.10982679006488E-04
0.9	0.3	3.32233389108314E-04
0.9	0.35	3.46461817315684E-04
0.9	0.4	3.56706446231088E-04
0.9	0.45	3.64977092867891E-04
0.9	0.5	3.72196649271451E-04
0.9	0.55	3.78734725694641E-04
0.9	0.6	3.84789709396970E-04
0.9	0.65	3.90486388120168E-04
0.9	0.7	3.95907773378165E-04
0.9	0.75	4.01110559612775E-04
0.9	0.8	4.06137777638601E-04
0.9	0.85	4.11020846815939E-04
0.9	0.9	4.15776824171924E-04
0.9	0.95	4.20429041005777E-04
0.9	1.0	4.24988862811241E-04
0.9	1.05	4.29469817019493E-04
0.9	1.1	4.33880826460875E-04
0.9	1.15	4.38229889628706E-04
0.9	1.2	4.42526166665592E-04
1.0	0.0	3.31449917828350E-17
1.0	0.05	1.13154228513382E-04
1.0	0.1	2.08121644799718E-04
1.0	0.15	2.85649485190620E-04
1.0	0.2	3.47114434060592E-04
1.0	0.25	3.94229741378075E-04
1.0	0.3	4.29018672361498E-04
1.0	0.35	4.53847408412459E-04
1.0	0.4	4.71376290519219E-04
1.0	0.45	4.84240677246200E-04
1.0	0.5	4.94467472762270E-04
1.0	0.55	5.03209398826330E-04
1.0	0.6	5.11009855226030E-04
1.0	0.65	5.18145833551800E-04
1.0	0.7	5.24792230818937E-04
1.0	0.75	5.31071692911163E-04
1.0	0.8	5.37064818422746E-04
1.0	0.85	5.42830780546096E-04
1.0	0.9	5.48412058395440E-04
1.0	0.95	5.53835729652114E-04
1.0	1.0	5.59126102560623E-04
1.0	1.05	5.64303268216019E-04
1.0	1.1	5.69380240340253E-04
1.0	1.15	5.74370201727190E-04
1.0	1.2	5.79284947000244E-04
1.1	0.0	-7.45484711422660E-17
1.1	0.05	1.27392146321259E-04
1.1	0.1	2.37203951830638E-04
1.1	0.15	3.29938753680202E-04
1.1	0.2	4.06663111440995E-04
1.1	0.25	4.68686815463220E-04
1.1	0.3	5.17509957078437E-04
1.1	0.35	5.54845637200258E-04
1.1	0.4	5.82652408095505E-04
1.1	0.45	6.03120706502368E-04
1.1	0.5	6.18496888370185E-04
1.1	0.55	6.30687211619180E-04
1.1	0.6	6.40957275260496E-04
1.1	0.65	6.49999462813658E-04
1.1	0.7	6.58187406117678E-04
1.1	0.75	6.65747456235273E-04
1.1	0.8	6.72836868786426E-04
1.1	0.85	6.79568854474448E-04
1.1	0.9	6.86020890214540E-04
1.1	0.95	6.92243936286469E-04
1.1	1.0	6.98279926377464E-04
1.1	1.05	7.04157983238113E-04
1.1	1.1	7.09897388201490E-04
1.1	1.15	7.15522751819733E-04
1.1	1.2	7.21043731296921E-04
1.2	0.0	1.02315641098517E-16
1.2	0.05	1.39596637417653E-04
1.2	0.1	2.62239827400497E-04
1.2	0.15	3.68287521661813E-04
1.2	0.2	4.58619029871928E-04
1.2	0.25	5.34300575746810E-04
1.2	0.3	5.96516079920343E-04
1.2	0.35	6.46574370136781E-04
1.2	0.4	6.85931440369086E-04
1.2	0.45	7.16226245651170E-04
1.2	0.5	7.39284652826077E-04
1.2	0.55	7.57013084400977E-04
1.2	0.6	7.71136482910925E-04
1.2	0.65	7.82940543078010E-04
1.2	0.7	7.93224092946553E-04
1.2	0.75	8.02446963960213E-04
1.2	0.8	8.10901636928476E-04
1.2	0.85	8.18778369456167E-04
1.2	0.9	8.26216855217646E-04
1.2	0.95	8.33318869221853E-04
1.2	1.0	8.40150609640807E-04
1.2	1.05	8.46761981710788E-04
1.2	1.1	8.53188797673245E-04
1.2	1.15	8.59458390366682E-04
1.2	1.2	8.65591351877393E-04