vg	vd	ids
0.0	0.0	-1.53578090356116E-17
0.0	0.05	3.31351156179550E-13
0.0	0.1	3.87851139651179E-13
0.0	0.15	4.16934975912325E-13
0.0	0.2	4.46085078554443E-13
0.0	0.25	4.77173365979296E-13
0.0	0.3	5.10369420527535E-13
0.0	0.35	5.45834394334651E-13
0.0	0.4	5.83742175300219E-13
0.0	0.45	6.24342955774013E-13
0.0	0.5	6.67903184691292E-13
0.0	0.55	7.14549193235287E-13
0.0	0.6	7.64817938803082E-13
0.0	0.65	8.18717872474852E-13
0.0	0.7	8.76823257912360E-13
0.0	0.75	9.39448309694850E-13
0.0	0.8	1.00690792074547E-12
0.0	0.85	1.07994870266687E-12
0.0	0.9	1.15911433512858E-12
0.0	0.95	1.24482482558846E-12
0.0	1.0	1.33799662474671E-12
0.0	1.05	1.43948970366598E-12
0.0	1.1	1.55018783208795E-12
0.0	1.15	1.67128118772689E-12
0.0	1.2	1.80399152186006E-12
0.1	0.0	-2.75473097461237E-17
0.1	0.05	1.08483974424106E-11
0.1	0.1	1.27134691051505E-11
0.1	0.15	1.36481031309683E-11
0.1	0.2	1.45730518550291E-11
0.1	0.25	1.55501485583412E-11
0.1	0.3	1.65844223385366E-11
0.1	0.35	1.76789030010503E-11
0.1	0.4	1.88394444913927E-11
0.1	0.45	2.00753319855895E-11
0.1	0.5	2.13844791143231E-11
0.1	0.55	2.27756426257996E-11
0.1	0.6	2.42577433153436E-11
0.1	0.65	2.58350755595232E-11
0.1	0.7	2.75117527496338E-11
0.1	0.75	2.92992416578868E-11
0.1	0.8	3.12064892911649E-11
0.1	0.85	3.32409899873564E-11
0.1	0.9	3.54130736291755E-11
0.1	0.95	3.77349282430734E-11
0.1	1.0	4.02184927376337E-11
0.1	1.05	4.28777635391330E-11
0.1	1.1	4.57281907277757E-11
0.1	1.15	4.87872528628957E-11
0.1	1.2	5.20738259567011E-11
0.2	0.0	1.01863732767017E-17
0.2	0.05	3.59051863337260E-10
0.2	0.1	4.21629287329548E-10
0.2	0.15	4.52428006092937E-10
0.2	0.2	4.82464740617973E-10
0.2	0.25	5.13928231518187E-10
0.2	0.3	5.46904058307849E-10
0.2	0.35	5.81599121897079E-10
0.2	0.4	6.18255880227978E-10
0.2	0.45	6.56862149072721E-10
0.2	0.5	6.97557360781389E-10
0.2	0.55	7.40430225484043E-10
0.2	0.6	7.85670540197928E-10
0.2	0.65	8.33463888096652E-10
0.2	0.7	8.83949441695416E-10
0.2	0.75	9.37278707540649E-10
0.2	0.8	9.93637984297771E-10
0.2	0.85	1.05323146419291E-09
0.2	0.9	1.11626670081115E-09
0.2	0.95	1.18297487497172E-09
0.2	1.0	1.25360074418337E-09
0.2	1.05	1.32840905954307E-09
0.2	1.1	1.40768641096055E-09
0.2	1.15	1.49174440931919E-09
0.2	1.2	1.58092114194353E-09
0.3	0.0	-1.01784824952729E-17
0.3	0.05	1.18684346160882E-08
0.3	0.1	1.39876191082715E-08
0.3	0.15	1.50150412029265E-08
0.3	0.2	1.59992770413756E-08
0.3	0.25	1.70197359363859E-08
0.3	0.3	1.80769355969660E-08
0.3	0.35	1.91875897337230E-08
0.3	0.4	2.03474470486151E-08
0.3	0.45	2.15606750001120E-08
0.3	0.5	2.28304068293142E-08
0.3	0.55	2.41598082541577E-08
0.3	0.6	2.55523565459019E-08
0.3	0.65	2.70116951429981E-08
0.3	0.7	2.85415911041910E-08
0.3	0.75	3.01459766271988E-08
0.3	0.8	3.18288419310338E-08
0.3	0.85	3.35943944626888E-08
0.3	0.9	3.54470744378723E-08
0.3	0.95	3.73914978897135E-08
0.3	1.0	3.94325903070869E-08
0.3	1.05	4.15755296774447E-08
0.3	1.1	4.38258006213379E-08
0.3	1.15	4.61892386141257E-08
0.3	1.2	4.86720280149509E-08
0.4	0.0	-2.83906934296087E-17
0.4	0.05	3.65932539459954E-07
0.4	0.1	4.36050650951783E-07
0.4	0.15	4.68299468756918E-07
0.4	0.2	4.97864453927919E-07
0.4	0.25	5.27823286658428E-07
0.4	0.3	5.58553795074795E-07
0.4	0.35	5.90220441642788E-07
0.4	0.4	6.22879635896217E-07
0.4	0.45	6.56597683858085E-07
0.4	0.5	6.91457100191311E-07
0.4	0.55	7.27529835845690E-07
0.4	0.6	7.64878372470818E-07
0.4	0.65	8.03562113781012E-07
0.4	0.7	8.43637479738850E-07
0.4	0.75	8.85160310355583E-07
0.4	0.8	9.28186515773521E-07
0.4	0.85	9.72770614687030E-07
0.4	0.9	1.01896949061234E-06
0.4	0.95	1.06683841038277E-06
0.4	1.0	1.11643498348615E-06
0.4	1.05	1.16781757655011E-06
0.4	1.1	1.22104477364283E-06
0.4	1.15	1.27617809833583E-06
0.4	1.2	1.33327920734428E-06
0.5	0.0	1.03928877836897E-17
0.5	0.05	5.70924632731853E-06
0.5	0.1	7.39669247508872E-06
0.5	0.15	7.98093470564208E-06
0.5	0.2	8.38486368995514E-06
0.5	0.25	8.76056605599399E-06
0.5	0.3	9.12861821584265E-06
0.5	0.35	9.49341648155497E-06
0.5	0.4	9.85776956255226E-06
0.5	0.45	1.02232385678870E-05
0.5	0.5	1.05908665923835E-05
0.5	0.55	1.09613273863601E-05
0.5	0.6	1.13351779264623E-05
0.5	0.65	1.17127645721328E-05
0.5	0.7	1.20944395853797E-05
0.5	0.75	1.24804007997692E-05
0.5	0.8	1.28708883540627E-05
0.5	0.85	1.32660430553017E-05
0.5	0.9	1.36660103177381E-05
0.5	0.95	1.40709293610847E-05
0.5	1.0	1.44808850996586E-05
0.5	1.05	1.48959866657737E-05
0.5	1.1	1.53163110034372E-05
0.5	1.15	1.57419434417286E-05
0.5	1.2	1.61729403106759E-05
0.6	0.0	-1.39918285814613E-17
0.6	0.05	2.13023241764186E-05
0.6	0.1	3.31478480869673E-05
0.6	0.15	3.86102630392220E-05
0.6	0.2	4.10644370401663E-05
0.6	0.25	4.25924478622683E-05
0.6	0.3	4.38777365034661E-05
0.6	0.35	4.50723897401860E-05
0.6	0.4	4.62193406820411E-05
0.6	0.45	4.73373295818315E-05
0.6	0.5	4.84356061561125E-05
0.6	0.55	4.95202342639108E-05
0.6	0.6	5.05946380652652E-05
0.6	0.65	5.16616567649787E-05
0.6	0.7	5.27230884608111E-05
0.6	0.75	5.37804146355597E-05
0.6	0.8	5.48347680951784E-05
0.6	0.85	5.58870852881511E-05
0.6	0.9	5.69380116297991E-05
0.6	0.95	5.79883200005565E-05
0.6	1.0	5.90383410771095E-05
0.6	1.05	6.00886027797224E-05
0.6	1.1	6.11395149714723E-05
0.6	1.15	6.21913069669501E-05
0.6	1.2	6.32442752858781E-05
0.7	0.0	-2.69709715286915E-17
0.7	0.05	3.92302047693802E-05
0.7	0.1	6.73670168423442E-05
0.7	0.15	8.57490092177018E-05
0.7	0.2	9.65209814679791E-05
0.7	0.25	1.02410365646582E-04
0.7	0.3	1.05936283615716E-04
0.7	0.35	1.08568250288280E-04
0.7	0.4	1.10853350985663E-04
0.7	0.45	1.12972981694085E-04
0.7	0.5	1.14997315882756E-04
0.7	0.55	1.16957898465250E-04
0.7	0.6	1.18871756472331E-04
0.7	0.65	1.20749647927668E-04
0.7	0.7	1.22598025556752E-04
0.7	0.75	1.24422236214158E-04
0.7	0.8	1.26225931292613E-04
0.7	0.85	1.28011889560342E-04
0.7	0.9	1.29782474410114E-04
0.7	0.95	1.31539706350277E-04
0.7	1.0	1.33284849450272E-04
0.7	1.05	1.35019326427639E-04
0.7	1.1	1.36744267227651E-04
0.7	1.15	1.38460727167102E-04
0.7	1.2	1.40169138777531E-04
0.8	0.0	-1.21403758403039E-17
0.8	0.05	5.59531712293273E-05
0.8	0.1	1.00607423419284E-04
0.8	0.15	1.34525603135096E-04
0.8	0.2	1.58784190878551E-04
0.8	0.25	1.74958867317240E-04
0.8	0.3	1.85107142501600E-04
0.8	0.35	1.91495677843974E-04
0.8	0.4	1.95977852979714E-04
0.8	0.45	1.99598933901742E-04
0.8	0.5	2.02814100088079E-04
0.8	0.55	2.05812818775663E-04
0.8	0.6	2.08676007870835E-04
0.8	0.65	2.11443451006776E-04
0.8	0.7	2.14137106181091E-04
0.8	0.75	2.16771987614505E-04
0.8	0.8	2.19357218648788E-04
0.8	0.85	2.21900884310585E-04
0.8	0.9	2.24407884783417E-04
0.8	0.95	2.26882586931445E-04
0.8	1.0	2.29328599583018E-04
0.8	1.05	2.31748658149946E-04
0.8	1.1	2.34145340938300E-04
0.8	1.15	2.36520311252916E-04
0.8	1.2	2.38875155724896E-04
0.9	0.0	-1.93257320864036E-18
0.9	0.05	7.07776466435230E-05
0.9	0.1	1.30556230155287E-04
0.9	0.15	1.79519183381442E-04
0.9	0.2	2.18221875968044E-04
0.9	0.25	2.47528221067639E-04
0.9	0.3	2.68644047219125E-04
0.9	0.35	2.83147572592472E-04
0.9	0.4	2.92902023572320E-04
0.9	0.45	2.99729131684229E-04
0.9	0.5	3.04986794679427E-04
0.9	0.55	3.09450838474110E-04
0.9	0.6	3.13496535802141E-04
0.9	0.65	3.17295101004899E-04
0.9	0.7	3.20926253401266E-04
0.9	0.75	3.24433780122163E-04
0.9	0.8	3.27842883423557E-04
0.9	0.85	3.31172046995252E-04
0.9	0.9	3.34433404747399E-04
0.9	0.95	3.37635454997785E-04
0.9	1.0	3.40786372071194E-04
0.9	1.05	3.43890269021133E-04
0.9	1.1	3.46952808560216E-04
0.9	1.15	3.49978158091338E-04
0.9	1.2	3.52968119495598E-04
1.0	0.0	-3.29406099108268E-17
1.0	0.05	8.36575361530383E-05
1.0	0.1	1.56811804967891E-04
1.0	0.15	2.19445651143453E-04
1.0	0.2	2.71842037183287E-04
1.0	0.25	3.14487437890342E-04
1.0	0.3	3.48080212200783E-04
1.0	0.35	3.73568501244784E-04
1.0	0.4	3.92187122235757E-04
1.0	0.45	4.05440474411185E-04
1.0	0.5	4.14946735839352E-04
1.0	0.55	4.22140678602301E-04
1.0	0.6	4.28039530698956E-04
1.0	0.65	4.33233002053134E-04
1.0	0.7	4.38016500876273E-04
1.0	0.75	4.42533222193730E-04
1.0	0.8	4.46858064844581E-04
1.0	0.85	4.51033779547255E-04
1.0	0.9	4.55091517854785E-04
1.0	0.95	4.59048735803834E-04
1.0	1.0	4.62921596450529E-04
1.0	1.05	4.66720302179076E-04
1.0	1.1	4.70452897242571E-04
1.0	1.15	4.74127809242153E-04
1.0	1.2	4.77747774293474E-04
1.1	0.0	-3.28038690508351E-17
1.1	0.05	9.47556983171946E-05
1.1	0.1	1.79557534625409E-04
1.1	0.15	2.54284097368397E-04
1.1	0.2	3.19074000666461E-04
1.1	0.25	3.74210145852510E-04
1.1	0.3	4.20108648024007E-04
1.1	0.35	4.57338744237045E-04
1.1	0.4	4.86657241958727E-04
1.1	0.45	5.09044592628534E-04
1.1	0.5	5.25715157335027E-04
1.1	0.55	5.38049428343947E-04
1.1	0.6	5.47413278297711E-04
1.1	0.65	5.54937782918393E-04
1.1	0.7	5.61397436076445E-04
1.1	0.75	5.67234247804208E-04
1.1	0.8	5.72671822181715E-04
1.1	0.85	5.77828439304849E-04
1.1	0.9	5.82774548446103E-04
1.1	0.95	5.87552136452078E-04
1.1	1.0	5.92193949504692E-04
1.1	1.05	5.96717691736377E-04
1.1	1.1	6.01142465551858E-04
1.1	1.15	6.05480957205996E-04
1.1	1.2	6.09738521762959E-04
1.2	0.0	-4.13139683052671E-17
1.2	0.05	1.04302016118378E-04
1.2	0.1	1.99182450088305E-04
1.2	0.15	2.84470985903523E-04
1.2	0.2	3.60233757505772E-04
1.2	0.25	4.26646192982102E-04
1.2	0.3	4.83969960299421E-04
1.2	0.35	5.32559632034517E-04
1.2	0.4	5.72882488860124E-04
1.2	0.45	6.05548317490443E-04
1.2	0.5	6.31343173414451E-04
1.2	0.55	6.51250553899192E-04
1.2	0.6	6.66427476281143E-04
1.2	0.65	6.78104858256068E-04
1.2	0.7	6.87421837048642E-04
1.2	0.75	6.95272390571332E-04
1.2	0.8	7.02239241324874E-04
1.2	0.85	7.08645239094655E-04
1.2	0.9	7.14660369228973E-04
1.2	0.95	7.20387231804162E-04
1.2	1.0	7.25888763151103E-04
1.2	1.05	7.31207704913147E-04
1.2	1.1	7.36375087066660E-04
1.2	1.15	7.41411255054821E-04
1.2	1.2	7.46334334752221E-04