vg	vd	ids
0.0	0.0	-2.27081817574659E-18
0.0	0.05	1.38249944703814E-13
0.0	0.1	1.55086674358018E-13
0.0	0.15	1.63526504813053E-13
0.0	0.2	1.72128984043362E-13
0.0	0.25	1.81050997681189E-13
0.0	0.3	1.90367978164010E-13
0.0	0.35	2.00184213166811E-13
0.0	0.4	2.10444700523463E-13
0.0	0.45	2.21117334966871E-13
0.0	0.5	2.32460606476904E-13
0.0	0.55	2.44223117654589E-13
0.0	0.6	2.56599057283270E-13
0.0	0.65	2.69719939027185E-13
0.0	0.7	2.83285323489923E-13
0.0	0.75	2.97872386762074E-13
0.0	0.8	3.12984444457584E-13
0.0	0.85	3.28979735372408E-13
0.0	0.9	3.45725284648865E-13
0.0	0.95	3.63474182645141E-13
0.0	1.0	3.82086229394683E-13
0.0	1.05	4.01851473977393E-13
0.0	1.1	4.22436095864079E-13
0.0	1.15	4.44396330461642E-13
0.0	1.2	4.67453527389924E-13
0.1	0.0	-2.25745212118026E-17
0.1	0.05	4.32431234507641E-12
0.1	0.1	4.87550761339994E-12
0.1	0.15	5.15054879052420E-12
0.1	0.2	5.42851484995925E-12
0.1	0.25	5.71749566027444E-12
0.1	0.3	6.01850877244525E-12
0.1	0.35	6.33233140033402E-12
0.1	0.4	6.65993855691478E-12
0.1	0.45	7.00217940630406E-12
0.1	0.5	7.35991943111027E-12
0.1	0.55	7.73076712178786E-12
0.1	0.6	8.12581723235543E-12
0.1	0.65	8.53603199607806E-12
0.1	0.7	8.96571094595934E-12
0.1	0.75	9.41311503539143E-12
0.1	0.8	9.88458158136714E-12
0.1	0.85	1.03813971457413E-11
0.1	0.9	1.08978749162899E-11
0.1	0.95	1.14445853338960E-11
0.1	1.0	1.20166850939709E-11
0.1	1.05	1.26182903347172E-11
0.1	1.1	1.32460186410316E-11
0.1	1.15	1.39090237809332E-11
0.1	1.2	1.46031358539821E-11
0.2	0.0	-2.00677003492859E-17
0.2	0.05	1.36781782496489E-10
0.2	0.1	1.54982956600674E-10
0.2	0.15	1.64069880999182E-10
0.2	0.2	1.73177571988091E-10
0.2	0.25	1.82602744472719E-10
0.2	0.3	1.92375695703986E-10
0.2	0.35	2.02524971691609E-10
0.2	0.4	2.13078035142095E-10
0.2	0.45	2.24062030354134E-10
0.2	0.5	2.35505087752746E-10
0.2	0.55	2.47433412134843E-10
0.2	0.6	2.59811004838187E-10
0.2	0.65	2.72861798834654E-10
0.2	0.7	2.86419099797609E-10
0.2	0.75	3.00528699221980E-10
0.2	0.8	3.15283289544387E-10
0.2	0.85	3.30829679472172E-10
0.2	0.9	3.46956855954348E-10
0.2	0.95	3.63878179016438E-10
0.2	1.0	3.81539160572518E-10
0.2	1.05	4.00007935198096E-10
0.2	1.1	4.19323341699815E-10
0.2	1.15	4.39527404624879E-10
0.2	1.2	4.60662034456090E-10
0.3	0.0	2.93721757579975E-17
0.3	0.05	4.33198011149810E-09
0.3	0.1	4.93716224552619E-09
0.3	0.15	5.23909149412742E-09
0.3	0.2	5.53839541556316E-09
0.3	0.25	5.84609241219160E-09
0.3	0.3	6.16334888486287E-09
0.3	0.35	6.49115608223685E-09
0.3	0.4	6.83045732738146E-09
0.3	0.45	7.18209761771983E-09
0.3	0.5	7.54692619738903E-09
0.3	0.55	7.92163628493157E-09
0.3	0.6	8.31714437472859E-09
0.3	0.65	8.72751920757980E-09
0.3	0.7	9.15293555761769E-09
0.3	0.75	9.59651270127355E-09
0.3	0.8	1.00584385227393E-08
0.3	0.85	1.05390282269902E-08
0.3	0.9	1.10395075623521E-08
0.3	0.95	1.15605772636336E-08
0.3	1.0	1.21034608588979E-08
0.3	1.05	1.26690943629793E-08
0.3	1.1	1.32585002233516E-08
0.3	1.15	1.38727179741395E-08
0.3	1.2	1.45128254124574E-08
0.4	0.0	2.10638184297506E-17
0.4	0.05	1.33593480226335E-07
0.4	0.1	1.53635785593879E-07
0.4	0.15	1.63454141235389E-07
0.4	0.2	1.72984290126078E-07
0.4	0.25	1.82667585755198E-07
0.4	0.3	1.92557017678097E-07
0.4	0.35	2.02691129420298E-07
0.4	0.4	2.13101266398632E-07
0.4	0.45	2.23820066864581E-07
0.4	0.5	2.34801720762290E-07
0.4	0.55	2.46220706023923E-07
0.4	0.6	2.58044444405470E-07
0.4	0.65	2.70217655680334E-07
0.4	0.7	2.82802585914422E-07
0.4	0.75	2.95834110786733E-07
0.4	0.8	3.09321746278822E-07
0.4	0.85	3.23284389190204E-07
0.4	0.9	3.37744265771274E-07
0.4	0.95	3.52721004525427E-07
0.4	1.0	3.68234803538277E-07
0.4	1.05	3.84305874915608E-07
0.4	1.1	4.00954764463296E-07
0.4	1.15	4.18202309527274E-07
0.4	1.2	4.36069589002899E-07
0.5	0.0	3.09542085719058E-17
0.5	0.05	2.98187514230080E-06
0.5	0.1	3.56617797996970E-06
0.5	0.15	3.79089711351134E-06
0.5	0.2	3.98613064605218E-06
0.5	0.25	4.17722478039792E-06
0.5	0.3	4.36694124612995E-06
0.5	0.35	4.55659143830686E-06
0.5	0.4	4.74706585151165E-06
0.5	0.45	4.93854983208877E-06
0.5	0.5	5.13276707823347E-06
0.5	0.55	5.32905050595394E-06
0.5	0.6	5.52793333507701E-06
0.5	0.65	5.72971509423974E-06
0.5	0.7	5.93461343835171E-06
0.5	0.75	6.14281650487832E-06
0.5	0.8	6.35447251087418E-06
0.5	0.85	6.56973443852004E-06
0.5	0.9	6.78872330513762E-06
0.5	0.95	7.01154428111458E-06
0.5	1.0	7.23830310572911E-06
0.5	1.05	7.46907981129910E-06
0.5	1.1	7.70395409168130E-06
0.5	1.15	7.94300425722479E-06
0.5	1.2	8.18628595015346E-06
0.6	0.0	4.61077446112592E-19
0.6	0.05	1.80338831575558E-05
0.6	0.1	2.55654030410535E-05
0.6	0.15	2.80975634719006E-05
0.6	0.2	2.93150063077897E-05
0.6	0.25	3.03034043351679E-05
0.6	0.3	3.12245884901344E-05
0.6	0.35	3.21071208307660E-05
0.6	0.4	3.29612031866784E-05
0.6	0.45	3.37992517121753E-05
0.6	0.5	3.46232571476589E-05
0.6	0.55	3.54363467126491E-05
0.6	0.6	3.62423034627915E-05
0.6	0.65	3.70430094657509E-05
0.6	0.7	3.78399434902502E-05
0.6	0.75	3.86344209544456E-05
0.6	0.8	3.94274725201298E-05
0.6	0.85	4.02198383408539E-05
0.6	0.9	4.10122848264747E-05
0.6	0.95	4.18052821188369E-05
0.6	1.0	4.25993062315109E-05
0.6	1.05	4.33947707611140E-05
0.6	1.1	4.41919594466173E-05
0.6	1.15	4.49911550632567E-05
0.6	1.2	4.57925616742169E-05
0.7	0.0	1.34382353297921E-17
0.7	0.05	3.90624180067287E-05
0.7	0.1	6.37585653903743E-05
0.7	0.15	7.71285759088412E-05
0.7	0.2	8.33834169891045E-05
0.7	0.25	8.65352858024420E-05
0.7	0.3	8.87769603503664E-05
0.7	0.35	9.07361127180686E-05
0.7	0.4	9.25489104476230E-05
0.7	0.45	9.42658028873841E-05
0.7	0.5	9.59139278901704E-05
0.7	0.55	9.75094357265558E-05
0.7	0.6	9.90657840666676E-05
0.7	0.65	1.00590734958964E-04
0.7	0.7	1.02090300025534E-04
0.7	0.75	1.03569075597791E-04
0.7	0.8	1.05030457490520E-04
0.7	0.85	1.06477111130849E-04
0.7	0.9	1.07911416118343E-04
0.7	0.95	1.09334893564269E-04
0.7	1.0	1.10749211418543E-04
0.7	1.05	1.12155567651046E-04
0.7	1.1	1.13554885040208E-04
0.7	1.15	1.14948107482064E-04
0.7	1.2	1.16335911775945E-04
0.8	0.0	3.01497354967816E-17
0.8	0.05	5.87861689024506E-05
0.8	0.1	1.02352917652276E-04
0.8	0.15	1.32261697614921E-04
0.8	0.2	1.50924817558397E-04
0.8	0.25	1.61480468522274E-04
0.8	0.3	1.67356113359828E-04
0.8	0.35	1.71239651026745E-04
0.8	0.4	1.74400142732758E-04
0.8	0.45	1.77218483771792E-04
0.8	0.5	1.79822079400559E-04
0.8	0.55	1.82280192059705E-04
0.8	0.6	1.84633016869535E-04
0.8	0.65	1.86906479093667E-04
0.8	0.7	1.89118061366116E-04
0.8	0.75	1.91279002095482E-04
0.8	0.8	1.93398258586649E-04
0.8	0.85	1.95481997798951E-04
0.8	0.9	1.97535305450267E-04
0.8	0.95	1.99561953711530E-04
0.8	1.0	2.01565242161836E-04
0.8	1.05	2.03547715752274E-04
0.8	1.1	2.05511556096268E-04
0.8	1.15	2.07458552043994E-04
0.8	1.2	2.09390305983942E-04
0.9	0.0	-2.33751414953270E-18
0.9	0.05	7.60142574835905E-05
0.9	0.1	1.36875680119254E-04
0.9	0.15	1.83480002734618E-04
0.9	0.2	2.17316920469089E-04
0.9	0.25	2.40330173007233E-04
0.9	0.3	2.54927577252352E-04
0.9	0.35	2.63873123384913E-04
0.9	0.4	2.69762106204360E-04
0.9	0.45	2.74283739259081E-04
0.9	0.5	2.78162561860835E-04
0.9	0.55	2.81662127059009E-04
0.9	0.6	2.84910122109419E-04
0.9	0.65	2.87984233953283E-04
0.9	0.7	2.90932067305061E-04
0.9	0.75	2.93782465772630E-04
0.9	0.8	2.96554995825847E-04
0.9	0.85	2.99262992564012E-04
0.9	0.9	3.01916556476936E-04
0.9	0.95	3.04523122917380E-04
0.9	1.0	3.07088126391861E-04
0.9	1.05	3.09616934767741E-04
0.9	1.1	3.12113452649364E-04
0.9	1.15	3.14579991845860E-04
0.9	1.2	3.17019925889225E-04
1.0	0.0	2.34882881541376E-17
1.0	0.05	9.07901065247026E-05
1.0	0.1	1.66832403508632E-04
1.0	0.15	2.28671382122643E-04
1.0	0.2	2.77332148680703E-04
1.0	0.25	3.14121488090128E-04
1.0	0.3	3.40628097631586E-04
1.0	0.35	3.58765646185148E-04
1.0	0.4	3.70752427011532E-04
1.0	0.45	3.78865728725396E-04
1.0	0.5	3.84919786191853E-04
1.0	0.55	3.89930320487429E-04
1.0	0.6	3.94345213861018E-04
1.0	0.65	3.98375701074552E-04
1.0	0.7	4.02145442453107E-04
1.0	0.75	4.05731962680313E-04
1.0	0.8	4.09181109681132E-04
1.0	0.85	4.12522912316742E-04
1.0	0.9	4.15775919013446E-04
1.0	0.95	4.18955108823798E-04
1.0	1.0	4.22069953190833E-04
1.0	1.05	4.25129022486808E-04
1.0	1.1	4.28138513472576E-04
1.0	1.15	4.31103780577354E-04
1.0	1.2	4.34028776236414E-04
1.1	0.0	1.32273872417317E-17
1.1	0.05	1.03401165092262E-04
1.1	0.1	1.92577560818557E-04
1.1	0.15	2.67876371632487E-04
1.1	0.2	3.30066571130593E-04
1.1	0.25	3.80109258215282E-04
1.1	0.3	4.19130393564983E-04
1.1	0.35	4.48448115462455E-04
1.1	0.4	4.69615538160754E-04
1.1	0.45	4.84432320164430E-04
1.1	0.5	4.94832606671346E-04
1.1	0.55	5.02554453996918E-04
1.1	0.6	5.08783262203858E-04
1.1	0.65	5.14148729646782E-04
1.1	0.7	5.18969232938737E-04
1.1	0.75	5.23425609955073E-04
1.1	0.8	5.27628923351910E-04
1.1	0.85	5.31649320992221E-04
1.1	0.9	5.35528266758536E-04
1.1	0.95	5.39293541093922E-04
1.1	1.0	5.42963074158660E-04
1.1	1.05	5.46551736229609E-04
1.1	1.1	5.50069123322270E-04
1.1	1.15	5.53523904319617E-04
1.1	1.2	5.56922697522051E-04
1.2	0.0	-5.97616056333904E-17
1.2	0.05	1.14174298486286E-04
1.2	0.1	2.14663339832402E-04
1.2	0.15	3.01702998287863E-04
1.2	0.2	3.75916898155938E-04
1.2	0.25	4.38069916307981E-04
1.2	0.3	4.89024350138746E-04
1.2	0.35	5.29747898540970E-04
1.2	0.4	5.61344200297360E-04
1.2	0.45	5.85092572518413E-04
1.2	0.5	6.02471334108372E-04
1.2	0.55	6.15106372106104E-04
1.2	0.6	6.24572871784577E-04
1.2	0.65	6.32104854209778E-04
1.2	0.7	6.38471945349562E-04
1.2	0.75	6.44103706831663E-04
1.2	0.8	6.49249106162923E-04
1.2	0.85	6.54062272624765E-04
1.2	0.9	6.58637536134023E-04
1.2	0.95	6.63033340617383E-04
1.2	1.0	6.67286621840228E-04
1.2	1.05	6.71422210958475E-04
1.2	1.1	6.75456934302821E-04
1.2	1.15	6.79405462074751E-04
1.2	1.2	6.83277930891075E-04