vg	vd	ids
0.0	0.0	-7.63327935523421E-18
0.0	0.05	2.78001409401996E-13
0.0	0.1	3.07631327465148E-13
0.0	0.15	3.17893703522697E-13
0.0	0.2	3.27798519184504E-13
0.0	0.25	3.37894725380968E-13
0.0	0.3	3.48152277988525E-13
0.0	0.35	3.58615823504673E-13
0.0	0.4	3.69191978375773E-13
0.0	0.45	3.80073362574811E-13
0.0	0.5	3.91272149123677E-13
0.0	0.55	4.02669418046768E-13
0.0	0.6	4.14286155027575E-13
0.0	0.65	4.26224468828507E-13
0.0	0.7	4.38565217241478E-13
0.0	0.75	4.51159430746865E-13
0.0	0.8	4.64099399519481E-13
0.0	0.85	4.77434888397659E-13
0.0	0.9	4.91112526195839E-13
0.0	0.95	5.05296738162166E-13
0.0	1.0	5.19671433914381E-13
0.0	1.05	5.34561578858574E-13
0.0	1.1	5.49994232583219E-13
0.0	1.15	5.65847933603535E-13
0.0	1.2	5.82235597671843E-13
0.1	0.0	-3.91839591755434E-17
0.1	0.05	9.73805170568157E-12
0.1	0.1	1.08224647670380E-11
0.1	0.15	1.12047765927232E-11
0.1	0.2	1.15713288333232E-11
0.1	0.25	1.19423707607954E-11
0.1	0.3	1.23186955658747E-11
0.1	0.35	1.27008601611639E-11
0.1	0.4	1.30894964737846E-11
0.1	0.45	1.34856753217749E-11
0.1	0.5	1.38894434035134E-11
0.1	0.55	1.43016606555410E-11
0.1	0.6	1.47234288414003E-11
0.1	0.65	1.51543787150960E-11
0.1	0.7	1.55955364644165E-11
0.1	0.75	1.60475347292788E-11
0.1	0.8	1.65106212880202E-11
0.1	0.85	1.69856287475434E-11
0.1	0.9	1.74727496483658E-11
0.1	0.95	1.79728075363956E-11
0.1	1.0	1.84862971265128E-11
0.1	1.05	1.90136972099403E-11
0.1	1.1	1.95556414081001E-11
0.1	1.15	2.01126777618136E-11
0.1	1.2	2.06854038601771E-11
0.2	0.0	4.09126656869566E-17
0.2	0.05	3.45018740718698E-10
0.2	0.1	3.85176488480856E-10
0.2	0.15	3.99572385123173E-10
0.2	0.2	4.13252351192915E-10
0.2	0.25	4.27031308915309E-10
0.2	0.3	4.40945948619480E-10
0.2	0.35	4.55027844106881E-10
0.2	0.4	4.69304557104276E-10
0.2	0.45	4.83801068267286E-10
0.2	0.5	4.98530762542953E-10
0.2	0.55	5.13538155479698E-10
0.2	0.6	5.28832709074104E-10
0.2	0.65	5.44428229728655E-10
0.2	0.7	5.60349387005627E-10
0.2	0.75	5.76615179403897E-10
0.2	0.8	5.93241952125932E-10
0.2	0.85	6.10248261279890E-10
0.2	0.9	6.27653149607157E-10
0.2	0.95	6.45473082712302E-10
0.2	1.0	6.63726390673739E-10
0.2	1.05	6.82430663260118E-10
0.2	1.1	7.01603500142962E-10
0.2	1.15	7.21262771704103E-10
0.2	1.2	7.41426017190048E-10
0.3	0.0	5.31360902546265E-17
0.3	0.05	1.22516869936235E-08
0.3	0.1	1.37509221377760E-08
0.3	0.15	1.42965916040035E-08
0.3	0.2	1.48088242303452E-08
0.3	0.25	1.53212862723025E-08
0.3	0.3	1.58358928270722E-08
0.3	0.35	1.63541335647296E-08
0.3	0.4	1.68772414335128E-08
0.3	0.45	1.74058287970753E-08
0.3	0.5	1.79420195352866E-08
0.3	0.55	1.84857455285344E-08
0.3	0.6	1.90380297768662E-08
0.3	0.65	1.95995425684735E-08
0.3	0.7	2.01709927512508E-08
0.3	0.75	2.07530459360724E-08
0.3	0.8	2.13463580898134E-08
0.3	0.85	2.19515317244290E-08
0.3	0.9	2.25691742304701E-08
0.3	0.95	2.31998659552490E-08
0.3	1.0	2.38441864472655E-08
0.3	1.05	2.45026954978082E-08
0.3	1.1	2.51759581291325E-08
0.3	1.15	2.58645216132845E-08
0.3	1.2	2.65689387696976E-08
0.4	0.0	2.52568972471203E-18
0.4	0.05	4.16549451478563E-07
0.4	0.1	4.72355246552140E-07
0.4	0.15	4.92239200376036E-07
0.4	0.2	5.10360879241029E-07
0.4	0.25	5.28261719892816E-07
0.4	0.3	5.46060482408908E-07
0.4	0.35	5.63834882583932E-07
0.4	0.4	5.81643633672255E-07
0.4	0.45	5.99529933890405E-07
0.4	0.5	6.17543359091583E-07
0.4	0.55	6.35709408001324E-07
0.4	0.6	6.54058273826957E-07
0.4	0.65	6.72615939758347E-07
0.4	0.7	6.91405662936688E-07
0.4	0.75	7.10449494593846E-07
0.4	0.8	7.29766772120216E-07
0.4	0.85	7.49376455479659E-07
0.4	0.9	7.69295961893398E-07
0.4	0.95	7.89541961830997E-07
0.4	1.0	8.10130249409874E-07
0.4	1.05	8.31076097872277E-07
0.4	1.1	8.52393980685209E-07
0.4	1.15	8.74097877164348E-07
0.4	1.2	8.96201430799576E-07
0.5	0.0	-2.37298459027398E-17
0.5	0.05	7.85621077776990E-06
0.5	0.1	9.60846291373830E-06
0.5	0.15	1.00746364011802E-05
0.5	0.2	1.03732117275071E-05
0.5	0.25	1.06704243304928E-05
0.5	0.3	1.09574534448809E-05
0.5	0.35	1.12372763157161E-05
0.5	0.4	1.15117450681627E-05
0.5	0.45	1.17822596684471E-05
0.5	0.5	1.20497768431513E-05
0.5	0.55	1.23150908202800E-05
0.5	0.6	1.25788413667468E-05
0.5	0.65	1.28415480467495E-05
0.5	0.7	1.31036277044483E-05
0.5	0.75	1.33654653691599E-05
0.5	0.8	1.36273623746314E-05
0.5	0.85	1.38895873532805E-05
0.5	0.9	1.41523969117595E-05
0.5	0.95	1.44159835949406E-05
0.5	1.0	1.46805353206822E-05
0.5	1.05	1.49462331795057E-05
0.5	1.1	1.52132092553890E-05
0.5	1.15	1.54815956397133E-05
0.5	1.2	1.57515181411362E-05
0.6	0.0	-1.86716065730705E-17
0.6	0.05	3.22781054720425E-05
0.6	0.1	4.85095816523066E-05
0.6	0.15	5.45673812203398E-05
0.6	0.2	5.65799918241314E-05
0.6	0.25	5.79926223118625E-05
0.6	0.3	5.91428687475296E-05
0.6	0.35	6.02154237793838E-05
0.6	0.4	6.12334013114731E-05
0.6	0.45	6.22106348742967E-05
0.6	0.5	6.31557457839119E-05
0.6	0.55	6.40753441601383E-05
0.6	0.6	6.49738950576701E-05
0.6	0.65	6.58550444452965E-05
0.6	0.7	6.67215677422029E-05
0.6	0.75	6.75757012184207E-05
0.6	0.8	6.84192943219184E-05
0.6	0.85	6.92538834259113E-05
0.6	0.9	7.00808076152759E-05
0.6	0.95	7.09010805640892E-05
0.6	1.0	7.17157395953957E-05
0.6	1.05	7.25256405841374E-05
0.6	1.1	7.33314007972346E-05
0.6	1.15	7.41336840948300E-05
0.6	1.2	7.49331118068596E-05
0.7	0.0	-4.61752316071000E-18
0.7	0.05	5.90589002300660E-05
0.7	0.1	9.99375203086856E-05
0.7	0.15	1.24769671611565E-04
0.7	0.2	1.37421279901971E-04
0.7	0.25	1.43011181609275E-04
0.7	0.3	1.46056843647382E-04
0.7	0.35	1.48431334509461E-04
0.7	0.4	1.50545247801217E-04
0.7	0.45	1.52491416674960E-04
0.7	0.5	1.54323031161371E-04
0.7	0.55	1.56068893683312E-04
0.7	0.6	1.57747565693400E-04
0.7	0.65	1.59372191693527E-04
0.7	0.7	1.60951992930317E-04
0.7	0.75	1.62493813928942E-04
0.7	0.8	1.64003511011801E-04
0.7	0.85	1.65485319074088E-04
0.7	0.9	1.66942857139679E-04
0.7	0.95	1.68378989584511E-04
0.7	1.0	1.69796578699916E-04
0.7	1.05	1.71197447692197E-04
0.7	1.1	1.72583497033285E-04
0.7	1.15	1.73956449609005E-04
0.7	1.2	1.75317613769955E-04
0.8	0.0	-5.23379443360081E-17
0.8	0.05	8.17489532559971E-05
0.8	0.1	1.45975812634694E-04
0.8	0.15	1.93345033968881E-04
0.8	0.2	2.25457630532576E-04
0.8	0.25	2.44907075859758E-04
0.8	0.3	2.55383623067283E-04
0.8	0.35	2.61082635101324E-04
0.8	0.4	2.65017719099796E-04
0.8	0.45	2.68252327682088E-04
0.8	0.5	2.71235610874844E-04
0.8	0.55	2.73944052380152E-04
0.8	0.6	2.76489492723228E-04
0.8	0.65	2.78912957567358E-04
0.8	0.7	2.81240662954577E-04
0.8	0.75	2.83490812655325E-04
0.8	0.8	2.85676172628163E-04
0.8	0.85	2.87806299219622E-04
0.8	0.9	2.89888998067185E-04
0.8	0.95	2.91930634157798E-04
0.8	1.0	2.93936081454659E-04
0.8	1.05	2.95909280889130E-04
0.8	1.1	2.97854043134920E-04
0.8	1.15	2.99773197612353E-04
0.8	1.2	3.01669458849331E-04
0.9	0.0	-2.85077413317029E-17
0.9	0.05	1.00043597150476E-04
0.9	0.1	1.83817322523543E-04
0.9	0.15	2.51456849069313E-04
0.9	0.2	3.03670670083047E-04
0.9	0.25	3.41657639788856E-04
0.9	0.3	3.67220020122958E-04
0.9	0.35	3.82964239224030E-04
0.9	0.4	3.92221131027914E-04
0.9	0.45	3.98207337543027E-04
0.9	0.5	4.02852219835758E-04
0.9	0.55	4.06860678481217E-04
0.9	0.6	4.10456214237230E-04
0.9	0.65	4.13780948576908E-04
0.9	0.7	4.16914664206633E-04
0.9	0.75	4.19904434819998E-04
0.9	0.8	4.22779450663294E-04
0.9	0.85	4.25560964274880E-04
0.9	0.9	4.28263749219668E-04
0.9	0.95	4.30898632730201E-04
0.9	1.0	4.33475871806435E-04
0.9	1.05	4.36001951498685E-04
0.9	1.1	4.38482491233708E-04
0.9	1.15	4.40922603439670E-04
0.9	1.2	4.43327360058519E-04
1.0	0.0	-5.38460787601966E-17
1.0	0.05	1.14682577550633E-04
1.0	0.1	2.14335920113032E-04
1.0	0.15	2.98920886343171E-04
1.0	0.2	3.68816742907267E-04
1.0	0.25	4.24651627815503E-04
1.0	0.3	4.67321505005823E-04
1.0	0.35	4.98129996749313E-04
1.0	0.4	5.18935447852586E-04
1.0	0.45	5.32240376986040E-04
1.0	0.5	5.40894338872387E-04
1.0	0.55	5.47208225114833E-04
1.0	0.6	5.52385270356350E-04
1.0	0.65	5.56908942074801E-04
1.0	0.7	5.61013344220459E-04
1.0	0.75	5.64835398746688E-04
1.0	0.8	5.68453054229047E-04
1.0	0.85	5.71914776086794E-04
1.0	0.9	5.75250732902215E-04
1.0	0.95	5.78482462785581E-04
1.0	1.0	5.81627575993771E-04
1.0	1.05	5.84696809477931E-04
1.0	1.1	5.87699956491453E-04
1.0	1.15	5.90645533619983E-04
1.0	1.2	5.93540004902290E-04
1.1	0.0	4.25365214140570E-17
1.1	0.05	1.26472686623314E-04
1.1	0.1	2.38979008334566E-04
1.1	0.15	3.37444808651940E-04
1.1	0.2	4.22148058572949E-04
1.1	0.25	4.93499721062059E-04
1.1	0.3	5.52027818927553E-04
1.1	0.35	5.98428514314087E-04
1.1	0.4	6.33659354475937E-04
1.1	0.45	6.59069284799114E-04
1.1	0.5	6.76509152593129E-04
1.1	0.55	6.88276961126976E-04
1.1	0.6	6.96648513806870E-04
1.1	0.65	7.03209946243289E-04
1.1	0.7	7.08761893555325E-04
1.1	0.75	7.13686653385544E-04
1.1	0.8	7.18200542679391E-04
1.1	0.85	7.22432497993342E-04
1.1	0.9	7.26455782568751E-04
1.1	0.95	7.30316726969522E-04
1.1	1.0	7.34047746558665E-04
1.1	1.05	7.37666538185770E-04
1.1	1.1	7.41193018818078E-04
1.1	1.15	7.44639068731446E-04
1.1	1.2	7.48013307952430E-04
1.2	0.0	-4.05482111996861E-17
1.2	0.05	1.36085534313193E-04
1.2	0.1	2.59067124814463E-04
1.2	0.15	3.68887826733844E-04
1.2	0.2	4.65813744603369E-04
1.2	0.25	5.50195312053817E-04
1.2	0.3	6.22425223648639E-04
1.2	0.35	6.82950635499492E-04
1.2	0.4	7.32317828417603E-04
1.2	0.45	7.71248184313456E-04
1.2	0.5	8.00733370814982E-04
1.2	0.55	8.22141606590688E-04
1.2	0.6	8.37251212655275E-04
1.2	0.65	8.48057045795606E-04
1.2	0.7	8.56279362143113E-04
1.2	0.75	8.63010405383702E-04
1.2	0.8	8.68835917414358E-04
1.2	0.85	8.74080246970311E-04
1.2	0.9	8.78934062323682E-04
1.2	0.95	8.83513639095071E-04
1.2	1.0	8.87885571319763E-04
1.2	1.05	8.92092059155558E-04
1.2	1.1	8.96164589015353E-04
1.2	1.15	9.00122212535868E-04
1.2	1.2	9.03982170032451E-04