vg	vd	ids
0.0	0.0	-4.16860842116313E-18
0.0	0.05	7.03319394452010E-14
0.0	0.1	8.10408306417222E-14
0.0	0.15	8.52215862491222E-14
0.0	0.2	8.90388750907290E-14
0.0	0.25	9.29791295695848E-14
0.0	0.3	9.70083385992771E-14
0.0	0.35	1.01190631298478E-13
0.0	0.4	1.05544720488119E-13
0.0	0.45	1.10022014925030E-13
0.0	0.5	1.14645207208457E-13
0.0	0.55	1.19439220821029E-13
0.0	0.6	1.24424248015596E-13
0.0	0.65	1.29617478982591E-13
0.0	0.7	1.35000113636181E-13
0.0	0.75	1.40591972574225E-13
0.0	0.8	1.46429734180501E-13
0.0	0.85	1.52502491900180E-13
0.0	0.9	1.58786776034974E-13
0.0	0.95	1.65377715479126E-13
0.0	1.0	1.72229951290750E-13
0.0	1.05	1.79375134743369E-13
0.0	1.1	1.86810440899651E-13
0.0	1.15	1.94593169986059E-13
0.0	1.2	2.02693499627174E-13
0.1	0.0	1.14688079949627E-17
0.1	0.05	2.24297516809789E-12
0.1	0.1	2.59515949576025E-12
0.1	0.15	2.73536586428468E-12
0.1	0.2	2.86313458014078E-12
0.1	0.25	2.99392654849893E-12
0.1	0.3	3.12850230082101E-12
0.1	0.35	3.26713802185066E-12
0.1	0.4	3.41014966347387E-12
0.1	0.45	3.55780989573159E-12
0.1	0.5	3.71038460070013E-12
0.1	0.55	3.86814527028549E-12
0.1	0.6	4.03144616851893E-12
0.1	0.65	4.20053355608168E-12
0.1	0.7	4.37574063652472E-12
0.1	0.75	4.55739424179334E-12
0.1	0.8	4.74589194137521E-12
0.1	0.85	4.94133655973118E-12
0.1	0.9	5.14441613931678E-12
0.1	0.95	5.35515164264175E-12
0.1	1.0	5.57419739691100E-12
0.1	1.05	5.80172959043677E-12
0.1	1.1	6.03828883664799E-12
0.1	1.15	6.28429239542778E-12
0.1	1.2	6.54017656576030E-12
0.2	0.0	1.58360957462123E-18
0.2	0.05	7.24248265265584E-11
0.2	0.1	8.41421049463900E-11
0.2	0.15	8.89047971216454E-11
0.2	0.2	9.32248262081782E-11
0.2	0.25	9.76265988484014E-11
0.2	0.3	1.02139593240385E-10
0.2	0.35	1.06773767233503E-10
0.2	0.4	1.11538396878853E-10
0.2	0.45	1.16442703031104E-10
0.2	0.5	1.21494471172935E-10
0.2	0.55	1.26705225275377E-10
0.2	0.6	1.32078986062759E-10
0.2	0.65	1.37626588826860E-10
0.2	0.7	1.43367580986668E-10
0.2	0.75	1.49294456869251E-10
0.2	0.8	1.55428196244143E-10
0.2	0.85	1.61771021296693E-10
0.2	0.9	1.68340297968381E-10
0.2	0.95	1.75138856026116E-10
0.2	1.0	1.82185249941860E-10
0.2	1.05	1.89481912371247E-10
0.2	1.1	1.97049118001342E-10
0.2	1.15	2.04890513313796E-10
0.2	1.2	2.13023271935409E-10
0.3	0.0	-2.20538893941001E-19
0.3	0.05	2.34638408843571E-09
0.3	0.1	2.73892835837441E-09
0.3	0.15	2.90163482406223E-09
0.3	0.2	3.04815830688277E-09
0.3	0.25	3.19657061507436E-09
0.3	0.3	3.34800359635484E-09
0.3	0.35	3.50284195258338E-09
0.3	0.4	3.66141644265235E-09
0.3	0.45	3.82394235490421E-09
0.3	0.5	3.99076390403542E-09
0.3	0.55	4.16229491052265E-09
0.3	0.6	4.33880808172631E-09
0.3	0.65	4.52047836270122E-09
0.3	0.7	4.70753517248362E-09
0.3	0.75	4.90022901250191E-09
0.3	0.8	5.09903241532495E-09
0.3	0.85	5.30394390300779E-09
0.3	0.9	5.51554561175692E-09
0.3	0.95	5.73388457927172E-09
0.3	1.0	5.95938252002643E-09
0.3	1.05	6.19232563334142E-09
0.3	1.1	6.43298943288959E-09
0.3	1.15	6.68171151728861E-09
0.3	1.2	6.93881806655090E-09
0.4	0.0	-6.25955106604258E-18
0.4	0.05	7.42879027076832E-08
0.4	0.1	8.73727083246269E-08
0.4	0.15	9.28294165328739E-08
0.4	0.2	9.76564614572718E-08
0.4	0.25	1.02494578373396E-07
0.4	0.3	1.07391827775768E-07
0.4	0.35	1.12365257795924E-07
0.4	0.4	1.17424730196276E-07
0.4	0.45	1.22573665066607E-07
0.4	0.5	1.27839386762604E-07
0.4	0.55	1.33233774423567E-07
0.4	0.6	1.38743287731662E-07
0.4	0.65	1.44386811066009E-07
0.4	0.7	1.50173445435570E-07
0.4	0.75	1.56104293781921E-07
0.4	0.8	1.62191709609450E-07
0.4	0.85	1.68440986709751E-07
0.4	0.9	1.74858341841335E-07
0.4	0.95	1.81451910332683E-07
0.4	1.0	1.88228341878632E-07
0.4	1.05	1.95194807032554E-07
0.4	1.1	2.02358267383549E-07
0.4	1.15	2.09726046454042E-07
0.4	1.2	2.17305462037848E-07
0.5	0.0	-8.97281163976627E-19
0.5	0.05	1.69237018596943E-06
0.5	0.1	2.07598071378860E-06
0.5	0.15	2.21184311515299E-06
0.5	0.2	2.31631228743213E-06
0.5	0.25	2.41669831208461E-06
0.5	0.3	2.51583618994270E-06
0.5	0.35	2.61426886726149E-06
0.5	0.4	2.71260551312554E-06
0.5	0.45	2.81138062403189E-06
0.5	0.5	2.91021925986188E-06
0.5	0.55	3.00977391560039E-06
0.5	0.6	3.10998938035425E-06
0.5	0.65	3.21105921643562E-06
0.5	0.7	3.31305233301656E-06
0.5	0.75	3.41608814136971E-06
0.5	0.8	3.52026311548095E-06
0.5	0.85	3.62565252842108E-06
0.5	0.9	3.73232583149759E-06
0.5	0.95	3.84034783464769E-06
0.5	1.0	3.94978143280304E-06
0.5	1.05	4.06068602140917E-06
0.5	1.1	4.17311252070173E-06
0.5	1.15	4.28711378432123E-06
0.5	1.2	4.40273927068808E-06
0.6	0.0	-6.93816408142363E-19
0.6	0.05	1.02724073940175E-05
0.6	0.1	1.50323607070174E-05
0.6	0.15	1.68353362389839E-05
0.6	0.2	1.76464220339931E-05
0.6	0.25	1.82351805486446E-05
0.6	0.3	1.87700784696490E-05
0.6	0.35	1.92794952846626E-05
0.6	0.4	1.97735648377696E-05
0.6	0.45	2.02540138822188E-05
0.6	0.5	2.07252209827602E-05
0.6	0.55	2.11887029484897E-05
0.6	0.6	2.16460288616506E-05
0.6	0.65	2.20984265312775E-05
0.6	0.7	2.25468501833497E-05
0.6	0.75	2.29921541153278E-05
0.6	0.8	2.34350240929283E-05
0.6	0.85	2.38759596514978E-05
0.6	0.9	2.43155030150712E-05
0.6	0.95	2.47540599851277E-05
0.6	1.0	2.51919732101337E-05
0.6	1.05	2.56296187538201E-05
0.6	1.1	2.60672492544941E-05
0.6	1.15	2.65051238360349E-05
0.6	1.2	2.69434955102573E-05
0.7	0.0	9.13891359467186E-18
0.7	0.05	2.26814532712380E-05
0.7	0.1	3.79406743899196E-05
0.7	0.15	4.70187331216564E-05
0.7	0.2	5.17634362001545E-05
0.7	0.25	5.41998515389213E-05
0.7	0.3	5.57611154551764E-05
0.7	0.35	5.70480003470158E-05
0.7	0.4	5.82222990523882E-05
0.7	0.45	5.93296879186630E-05
0.7	0.5	6.03879785332728E-05
0.7	0.55	6.14066363533804E-05
0.7	0.6	6.23949277202805E-05
0.7	0.65	6.33580253338710E-05
0.7	0.7	6.43004735972885E-05
0.7	0.75	6.52253755479833E-05
0.7	0.8	6.61354128404839E-05
0.7	0.85	6.70326521243605E-05
0.7	0.9	6.79188713512367E-05
0.7	0.95	6.87954967857610E-05
0.7	1.0	6.96638253178194E-05
0.7	1.05	7.05249482358891E-05
0.7	1.1	7.13796770363295E-05
0.7	1.15	7.22289657041549E-05
0.7	1.2	7.30735450322806E-05
0.8	0.0	1.48361525238926E-18
0.8	0.05	3.49701284548085E-05
0.8	0.1	6.20835037132371E-05
0.8	0.15	8.18884365902025E-05
0.8	0.2	9.53175360604348E-05
0.8	0.25	1.03693134668775E-04
0.8	0.3	1.08646384790510E-04
0.8	0.35	1.11764474907912E-04
0.8	0.4	1.14108376804514E-04
0.8	0.45	1.16130799878532E-04
0.8	0.5	1.17981903089829E-04
0.8	0.55	1.19714325840868E-04
0.8	0.6	1.21358836780986E-04
0.8	0.65	1.22934642738952E-04
0.8	0.7	1.24455630693920E-04
0.8	0.75	1.25931425510300E-04
0.8	0.8	1.27369684846737E-04
0.8	0.85	1.28775731045398E-04
0.8	0.9	1.30154213605135E-04
0.8	0.95	1.31508722232362E-04
0.8	1.0	1.32842119129331E-04
0.8	1.05	1.34156983151984E-04
0.8	1.1	1.35455411144864E-04
0.8	1.15	1.36739274279561E-04
0.8	1.2	1.38009977832482E-04
0.9	0.0	-1.70152223592524E-17
0.9	0.05	4.62885788229572E-05
0.9	0.1	8.47351049105687E-05
0.9	0.15	1.15583642360393E-04
0.9	0.2	1.39335734204560E-04
0.9	0.25	1.56724143386274E-04
0.9	0.3	1.68742103775282E-04
0.9	0.35	1.76650160148441E-04
0.9	0.4	1.81856928100876E-04
0.9	0.45	1.85604309615784E-04
0.9	0.5	1.88662711908453E-04
0.9	0.55	1.91365028438649E-04
0.9	0.6	1.93842411920884E-04
0.9	0.65	1.96157637567960E-04
0.9	0.7	1.98350649723481E-04
0.9	0.75	2.00448074451488E-04
0.9	0.8	2.02468552410661E-04
0.9	0.85	2.04425717634651E-04
0.9	0.9	2.06329698742064E-04
0.9	0.95	2.08187967172732E-04
0.9	1.0	2.10006901817537E-04
0.9	1.05	2.11791208706481E-04
0.9	1.1	2.13545073394604E-04
0.9	1.15	2.15271867359104E-04
0.9	1.2	2.16974619006016E-04
1.0	0.0	-4.60300285104823E-18
1.0	0.05	5.64786366702637E-05
1.0	0.1	1.05307969836560E-04
1.0	0.15	1.46568640832090E-04
1.0	0.2	1.80547381860504E-04
1.0	0.25	2.07680222474714E-04
1.0	0.3	2.28561360582545E-04
1.0	0.35	2.43970638479636E-04
1.0	0.4	2.54895413809534E-04
1.0	0.45	2.62501984371172E-04
1.0	0.5	2.67982416778322E-04
1.0	0.55	2.72285021757471E-04
1.0	0.6	2.75957331573036E-04
1.0	0.65	2.79246023542536E-04
1.0	0.7	2.82270471936616E-04
1.0	0.75	2.85100896807079E-04
1.0	0.8	2.87783005886563E-04
1.0	0.85	2.90348276270001E-04
1.0	0.9	2.92819668179461E-04
1.0	0.95	2.95212954956485E-04
1.0	1.0	2.97540104785782E-04
1.0	1.05	2.99810718321656E-04
1.0	1.1	3.02032003419396E-04
1.0	1.15	3.04209929962070E-04
1.0	1.2	3.06349235361370E-04
1.1	0.0	-1.15345654128062E-17
1.1	0.05	6.55601873131280E-05
1.1	0.1	1.23740721084613E-04
1.1	0.15	1.74525806724858E-04
1.1	0.2	2.18080864239787E-04
1.1	0.25	2.54680167505164E-04
1.1	0.3	2.84700716489248E-04
1.1	0.35	3.08634966949068E-04
1.1	0.4	3.27113437328551E-04
1.1	0.45	3.40927155446510E-04
1.1	0.5	3.51029215547418E-04
1.1	0.55	3.58470990546633E-04
1.1	0.6	3.64228588032425E-04
1.1	0.65	3.69000999075364E-04
1.1	0.7	3.73179878152347E-04
1.1	0.75	3.76958296787537E-04
1.1	0.8	3.80448404431521E-04
1.1	0.85	3.83723556891922E-04
1.1	0.9	3.86833243698849E-04
1.1	0.95	3.89812011721402E-04
1.1	1.0	3.92683957341040E-04
1.1	1.05	3.95467312255752E-04
1.1	1.1	3.98174869041177E-04
1.1	1.15	4.00817565835597E-04
1.1	1.2	4.03402929970029E-04
1.2	0.0	6.41933169863026E-18
1.2	0.05	7.36166574379194E-05
1.2	0.1	1.40150004357618E-04
1.2	0.15	1.99526206683510E-04
1.2	0.2	2.51838769136934E-04
1.2	0.25	2.97267325673116E-04
1.2	0.3	3.36063388530026E-04
1.2	0.35	3.68553538508059E-04
1.2	0.4	3.95151778317657E-04
1.2	0.45	4.16377800444431E-04
1.2	0.5	4.32877603256400E-04
1.2	0.55	4.45435218717405E-04
1.2	0.6	4.54947780721405E-04
1.2	0.65	4.62326681559189E-04
1.2	0.7	4.68337548389725E-04
1.2	0.75	4.73492537558481E-04
1.2	0.8	4.78080528686750E-04
1.2	0.85	4.82263234018789E-04
1.2	0.9	4.86146157889332E-04
1.2	0.95	4.89803394123085E-04
1.2	1.0	4.93285496124708E-04
1.2	1.05	4.96627799624944E-04
1.2	1.1	4.99855456301636E-04
1.2	1.15	5.02987303784180E-04
1.2	1.2	5.06036192390863E-04