vg	vd	ids
0.0	0.0	-1.38538929904981E-17
0.0	0.05	1.09244442590087E-12
0.0	0.1	1.30094755353294E-12
0.0	0.15	1.43416689675934E-12
0.0	0.2	1.57658206765229E-12
0.0	0.25	1.73336655033009E-12
0.0	0.3	1.90672084051098E-12
0.0	0.35	2.09906170418479E-12
0.0	0.4	2.31331568125235E-12
0.0	0.45	2.55290682775417E-12
0.0	0.5	2.82209453992112E-12
0.0	0.55	3.12578315073763E-12
0.0	0.6	3.47018846198828E-12
0.0	0.65	3.86293606013030E-12
0.0	0.7	4.31282384203299E-12
0.0	0.75	4.83143015735795E-12
0.0	0.8	5.43233391166340E-12
0.0	0.85	6.13290495056594E-12
0.0	0.9	6.95454763342369E-12
0.0	0.95	7.92343245363893E-12
0.0	1.0	9.07314856404226E-12
0.0	1.05	1.04451419421970E-11
0.0	1.1	1.20917943111670E-11
0.0	1.15	1.40788855804239E-11
0.0	1.2	1.64895173798262E-11
0.1	0.0	1.04681993232154E-17
0.1	0.05	3.30719117423532E-11
0.1	0.1	3.92731128077402E-11
0.1	0.15	4.29975481969682E-11
0.1	0.2	4.68663085618819E-11
0.1	0.25	5.10350851505354E-11
0.1	0.3	5.55381553589211E-11
0.1	0.35	6.04130557008894E-11
0.1	0.4	6.57022394667456E-11
0.1	0.45	7.14546015197400E-11
0.1	0.5	7.77259643640474E-11
0.1	0.55	8.45799856349793E-11
0.1	0.6	9.20917300356877E-11
0.1	0.65	1.00346622663378E-10
0.1	0.7	1.09446184444187E-10
0.1	0.75	1.19507788430316E-10
0.1	0.8	1.30674152174548E-10
0.1	0.85	1.43100743441446E-10
0.1	0.9	1.56993537303269E-10
0.1	0.95	1.72572074763951E-10
0.1	1.0	1.90126932752734E-10
0.1	1.05	2.09967468340792E-10
0.1	1.1	2.32511182652282E-10
0.1	1.15	2.58237916695708E-10
0.1	1.2	2.87710795405955E-10
0.2	0.0	-1.88516129217299E-17
0.2	0.05	1.02473105986998E-09
0.2	0.1	1.21743300593501E-09
0.2	0.15	1.32822642442895E-09
0.2	0.2	1.44069407472242E-09
0.2	0.25	1.55989212211922E-09
0.2	0.3	1.68650902844165E-09
0.2	0.35	1.82125421286168E-09
0.2	0.4	1.96486875071133E-09
0.2	0.45	2.11818210961685E-09
0.2	0.5	2.28207799274301E-09
0.2	0.55	2.45757792490130E-09
0.2	0.6	2.64578237106685E-09
0.2	0.65	2.84780589941255E-09
0.2	0.7	3.06522282332944E-09
0.2	0.75	3.29937406487255E-09
0.2	0.8	3.55222726150638E-09
0.2	0.85	3.82543619474303E-09
0.2	0.9	4.12170023757030E-09
0.2	0.95	4.44288881729764E-09
0.2	1.0	4.79254711196325E-09
0.2	1.05	5.17338027988374E-09
0.2	1.1	5.58967257803202E-09
0.2	1.15	6.04559517128907E-09
0.2	1.2	6.54621786278999E-09
0.3	0.0	3.62778123912426E-18
0.3	0.05	3.17924071432208E-08
0.3	0.1	3.79059276672941E-08
0.3	0.15	4.12986120060773E-08
0.3	0.2	4.46594226787883E-08
0.3	0.25	4.81632944817001E-08
0.3	0.3	5.18283344758659E-08
0.3	0.35	5.56696951255696E-08
0.3	0.4	5.97033989522240E-08
0.3	0.45	6.39437851580480E-08
0.3	0.5	6.84073121579611E-08
0.3	0.55	7.31104715172975E-08
0.3	0.6	7.80694816900141E-08
0.3	0.65	8.33054598390894E-08
0.3	0.7	8.88381973740244E-08
0.3	0.75	9.46878454482782E-08
0.3	0.8	1.00882073651557E-07
0.3	0.85	1.07442344509380E-07
0.3	0.9	1.14398342930306E-07
0.3	0.95	1.21782608011684E-07
0.3	1.0	1.29627412614554E-07
0.3	1.05	1.37967920074043E-07
0.3	1.1	1.46847486367703E-07
0.3	1.15	1.56309481664581E-07
0.3	1.2	1.66402751895751E-07
0.4	0.0	-2.72767031976638E-18
0.4	0.05	8.86614510518645E-07
0.4	0.1	1.07177301883189E-06
0.4	0.15	1.16501488256566E-06
0.4	0.2	1.25236866339092E-06
0.4	0.25	1.34081174265236E-06
0.4	0.3	1.43100904538311E-06
0.4	0.35	1.52336231103144E-06
0.4	0.4	1.61815536351818E-06
0.4	0.45	1.71560383538901E-06
0.4	0.5	1.81590789727267E-06
0.4	0.55	1.91928801283209E-06
0.4	0.6	2.02591012912153E-06
0.4	0.65	2.13597051377080E-06
0.4	0.7	2.24962677634848E-06
0.4	0.75	2.36707611561086E-06
0.4	0.8	2.48849593474607E-06
0.4	0.85	2.61405503170275E-06
0.4	0.9	2.74395918921490E-06
0.4	0.95	2.87840797675488E-06
0.4	1.0	3.01759677575941E-06
0.4	1.05	3.16173849436013E-06
0.4	1.1	3.31105812700704E-06
0.4	1.15	3.46578376951903E-06
0.4	1.2	3.62615565166167E-06
0.5	0.0	-2.05738725334403E-17
0.5	0.05	1.03953739331074E-05
0.5	0.1	1.39321233715552E-05
0.5	0.15	1.52127205584637E-05
0.5	0.2	1.60786651478239E-05
0.5	0.25	1.68746273051043E-05
0.5	0.3	1.76434753340979E-05
0.5	0.35	1.83955547057465E-05
0.5	0.4	1.91364694230287E-05
0.5	0.45	1.98700738863016E-05
0.5	0.5	2.05989578862042E-05
0.5	0.55	2.13253229688657E-05
0.5	0.6	2.20506055667591E-05
0.5	0.65	2.27762217441300E-05
0.5	0.7	2.35031110433797E-05
0.5	0.75	2.42323020453732E-05
0.5	0.8	2.49645159025441E-05
0.5	0.85	2.57004775694230E-05
0.5	0.9	2.64408171508360E-05
0.5	0.95	2.71861482886896E-05
0.5	1.0	2.79370181346465E-05
0.5	1.05	2.86938537684837E-05
0.5	1.1	2.94572648804655E-05
0.5	1.15	3.02276394796698E-05
0.5	1.2	3.10053735271202E-05
0.6	0.0	-2.14116138423995E-17
0.6	0.05	3.16996024091948E-05
0.6	0.1	5.04454692770254E-05
0.6	0.15	5.97678768655046E-05
0.6	0.2	6.41413155467096E-05
0.6	0.25	6.68466751499028E-05
0.6	0.3	6.91065153614212E-05
0.6	0.35	7.11833233671484E-05
0.6	0.4	7.31444498925146E-05
0.6	0.45	7.50227716237037E-05
0.6	0.5	7.68385272400112E-05
0.6	0.55	7.86053287880394E-05
0.6	0.6	8.03327926117643E-05
0.6	0.65	8.20283330589518E-05
0.6	0.7	8.36974368750982E-05
0.6	0.75	8.53443607095239E-05
0.6	0.8	8.69731817778147E-05
0.6	0.85	8.85864910067775E-05
0.6	0.9	9.01870530897863E-05
0.6	0.95	9.17771279649840E-05
0.6	1.0	9.33587382723119E-05
0.6	1.05	9.49333361297050E-05
0.6	1.1	9.65026472407386E-05
0.6	1.15	9.80681969159603E-05
0.6	1.2	9.96309008600522E-05
0.7	0.0	2.45085561077434E-17
0.7	0.05	5.39779063847178E-05
0.7	0.1	9.37047780003500E-05
0.7	0.15	1.20533776462055E-04
0.7	0.2	1.36876835098267E-04
0.7	0.25	1.46108273861430E-04
0.7	0.3	1.51711307158358E-04
0.7	0.35	1.55928826276925E-04
0.7	0.4	1.59587600010534E-04
0.7	0.45	1.62929964965315E-04
0.7	0.5	1.66056964076979E-04
0.7	0.55	1.69026956549257E-04
0.7	0.6	1.71876626810368E-04
0.7	0.65	1.74630617956315E-04
0.7	0.7	1.77306550494533E-04
0.7	0.75	1.79917141401233E-04
0.7	0.8	1.82472794052775E-04
0.7	0.85	1.84981426865643E-04
0.7	0.9	1.87449462046404E-04
0.7	0.95	1.89882064297265E-04
0.7	1.0	1.92284353769307E-04
0.7	1.05	1.94660092249266E-04
0.7	1.1	1.97012176235353E-04
0.7	1.15	1.99344091388673E-04
0.7	1.2	2.01658851856261E-04
0.8	0.0	-2.93777616448379E-18
0.8	0.05	7.37708553409147E-05
0.8	0.1	1.33559707941814E-04
0.8	0.15	1.79812890187961E-04
0.8	0.2	2.13622386341448E-04
0.8	0.25	2.36725213716902E-04
0.8	0.3	2.51550057538230E-04
0.8	0.35	2.61027958719557E-04
0.8	0.4	2.67765547392615E-04
0.8	0.45	2.73247815810907E-04
0.8	0.5	2.78069088764101E-04
0.8	0.55	2.82472063516662E-04
0.8	0.6	2.86584689927446E-04
0.8	0.65	2.90482574595435E-04
0.8	0.7	2.94215177902193E-04
0.8	0.75	2.97815656663601E-04
0.8	0.8	3.01306742572065E-04
0.8	0.85	3.04705005766710E-04
0.8	0.9	3.08025705706893E-04
0.8	0.95	3.11279062836260E-04
0.8	1.0	3.14472347634437E-04
0.8	1.05	3.17614763368388E-04
0.8	1.1	3.20712439323310E-04
0.8	1.15	3.23769465879054E-04
0.8	1.2	3.26791290010687E-04
0.9	0.0	-2.45655775758050E-17
0.9	0.05	9.06381225911970E-05
0.9	0.1	1.68045632537679E-04
0.9	0.15	2.32256540168220E-04
0.9	0.2	2.83761846708694E-04
0.9	0.25	3.23426617307268E-04
0.9	0.3	3.52541149733307E-04
0.9	0.35	3.72907012573952E-04
0.9	0.4	3.86808261509480E-04
0.9	0.45	3.96651943958837E-04
0.9	0.5	4.04296141136666E-04
0.9	0.55	4.10745867482843E-04
0.9	0.6	4.16472601950368E-04
0.9	0.65	4.21721835978083E-04
0.9	0.7	4.26635892428441E-04
0.9	0.75	4.31298400155400E-04
0.9	0.8	4.35767506881119E-04
0.9	0.85	4.40078419385999E-04
0.9	0.9	4.44257623158977E-04
0.9	0.95	4.48327951111094E-04
0.9	1.0	4.52300926972857E-04
0.9	1.05	4.56192697029918E-04
0.9	1.1	4.60012350669265E-04
0.9	1.15	4.63768354372012E-04
0.9	1.2	4.67466399840302E-04
1.0	0.0	4.92871469769433E-18
1.0	0.05	1.04804224476250E-04
1.0	0.1	1.97244934923346E-04
1.0	0.15	2.77165691282586E-04
1.0	0.2	3.44771062536600E-04
1.0	0.25	4.00499689681938E-04
1.0	0.3	4.45036755811246E-04
1.0	0.35	4.79372764089665E-04
1.0	0.4	5.04869615726049E-04
1.0	0.45	5.23290556213375E-04
1.0	0.5	5.36657020540525E-04
1.0	0.55	5.46839280287463E-04
1.0	0.6	5.55149119351271E-04
1.0	0.65	5.62315389811317E-04
1.0	0.7	5.68740461226540E-04
1.0	0.75	5.74664576476830E-04
1.0	0.8	5.80232463223438E-04
1.0	0.85	5.85529806680098E-04
1.0	0.9	5.90616194921656E-04
1.0	0.95	5.95529578126102E-04
1.0	1.0	6.00295663518124E-04
1.0	1.05	6.04940370902866E-04
1.0	1.1	6.09480284789854E-04
1.0	1.15	6.13924738355834E-04
1.0	1.2	6.18288591076859E-04
1.1	0.0	-7.66450336065621E-18
1.1	0.05	1.16661429648036E-04
1.1	0.1	2.21790718314671E-04
1.1	0.15	3.15153754540466E-04
1.1	0.2	3.96824420767092E-04
1.1	0.25	4.67034518428117E-04
1.1	0.3	5.26161276402666E-04
1.1	0.35	5.74755676484325E-04
1.1	0.4	6.13586674768321E-04
1.1	0.45	6.43702742290408E-04
1.1	0.5	6.66469188071765E-04
1.1	0.55	6.83526247935779E-04
1.1	0.6	6.96564579655042E-04
1.1	0.65	7.06996728938748E-04
1.1	0.7	7.15774850144573E-04
1.1	0.75	7.23474881171845E-04
1.1	0.8	7.30450849066288E-04
1.1	0.85	7.36926193067540E-04
1.1	0.9	7.43040155780235E-04
1.1	0.95	7.48876114244318E-04
1.1	1.0	7.54488696949142E-04
1.1	1.05	7.59920667370464E-04
1.1	1.1	7.65198760624919E-04
1.1	1.15	7.70344461070437E-04
1.1	1.2	7.75378878698153E-04
1.2	0.0	-2.00260668484443E-18
1.2	0.05	1.26614997452586E-04
1.2	0.1	2.42433985069159E-04
1.2	0.15	3.47202211140883E-04
1.2	0.2	4.40944197241650E-04
1.2	0.25	5.23800276665416E-04
1.2	0.3	5.95998156112997E-04
1.2	0.35	6.57862405096336E-04
1.2	0.4	7.09836838582066E-04
1.2	0.45	7.52527003497319E-04
1.2	0.5	7.86747529882773E-04
1.2	0.55	8.13562582803563E-04
1.2	0.6	8.34286245710769E-04
1.2	0.65	8.50366849288178E-04
1.2	0.7	8.63166610959446E-04
1.2	0.75	8.73757100656106E-04
1.2	0.8	8.82866952084265E-04
1.2	0.85	8.90979138204710E-04
1.2	0.9	8.98406675070466E-04
1.2	0.95	9.05348765458642E-04
1.2	1.0	9.11930612052165E-04
1.2	1.05	9.18234658339041E-04
1.2	1.1	9.24307635488379E-04
1.2	1.15	9.30195587340068E-04
1.2	1.2	9.35923523517034E-04