vg	vd	ids
0.0	0.0	8.38740233629201E-18
0.0	0.05	3.18512175053728E-13
0.0	0.1	3.52697639922031E-13
0.0	0.15	3.66223089068241E-13
0.0	0.2	3.79731932924632E-13
0.0	0.25	3.93417479390449E-13
0.0	0.3	4.07548914555065E-13
0.0	0.35	4.22041506720158E-13
0.0	0.4	4.36916395776513E-13
0.0	0.45	4.52280471129736E-13
0.0	0.5	4.67971921760433E-13
0.0	0.55	4.84200610204564E-13
0.0	0.6	5.00922502869845E-13
0.0	0.65	5.17791800194965E-13
0.0	0.7	5.36492849829689E-13
0.0	0.75	5.54874983097927E-13
0.0	0.8	5.73665412667481E-13
0.0	0.85	5.94072622290398E-13
0.0	0.9	6.14754784466236E-13
0.0	0.95	6.36012374135134E-13
0.0	1.0	6.58098023125900E-13
0.0	1.05	6.80913949026402E-13
0.0	1.1	7.04788160115416E-13
0.0	1.15	7.29148432174360E-13
0.0	1.2	7.55160847417864E-13
0.1	0.0	-4.43514318069942E-17
0.1	0.05	1.10435954038270E-11
0.1	0.1	1.22815567392279E-11
0.1	0.15	1.27761113477310E-11
0.1	0.2	1.32616676742126E-11
0.1	0.25	1.37569049688930E-11
0.1	0.3	1.42629676415340E-11
0.1	0.35	1.47807138342102E-11
0.1	0.4	1.53112471269093E-11
0.1	0.45	1.58552121192949E-11
0.1	0.5	1.64142018383680E-11
0.1	0.55	1.69888622954249E-11
0.1	0.6	1.75793612200768E-11
0.1	0.65	1.81864099521586E-11
0.1	0.7	1.88150195805391E-11
0.1	0.75	1.94565618846524E-11
0.1	0.8	2.01278316904118E-11
0.1	0.85	2.08055004063796E-11
0.1	0.9	2.15257100745950E-11
0.1	0.95	2.22323180064429E-11
0.1	1.0	2.30159119121223E-11
0.1	1.05	2.37966379023532E-11
0.1	1.1	2.45927463445025E-11
0.1	1.15	2.54422996614015E-11
0.1	1.2	2.63063226310950E-11
0.2	0.0	3.47001388692218E-17
0.2	0.05	3.86805477937204E-10
0.2	0.1	4.32155586645547E-10
0.2	0.15	4.50366241595848E-10
0.2	0.2	4.68079190857228E-10
0.2	0.25	4.86052564558718E-10
0.2	0.3	5.04333118213422E-10
0.2	0.35	5.22962073309865E-10
0.2	0.4	5.41950893748554E-10
0.2	0.45	5.61387747667764E-10
0.2	0.5	5.81281683730602E-10
0.2	0.55	6.01680713550886E-10
0.2	0.6	6.22551555914285E-10
0.2	0.65	6.43629656869725E-10
0.2	0.7	6.65982616524520E-10
0.2	0.75	6.87987132654177E-10
0.2	0.8	7.11905567412653E-10
0.2	0.85	7.35791859285573E-10
0.2	0.9	7.60080363733168E-10
0.2	0.95	7.85783135247565E-10
0.2	1.0	8.11863602768910E-10
0.2	1.05	8.38745444332381E-10
0.2	1.1	8.66449075347145E-10
0.2	1.15	8.94831120242269E-10
0.2	1.2	9.24166188681218E-10
0.3	0.0	6.03975737158161E-17
0.3	0.05	1.35597413573072E-08
0.3	0.1	1.52330152981061E-08
0.3	0.15	1.59077547148213E-08
0.3	0.2	1.65557154576593E-08
0.3	0.25	1.72085789290051E-08
0.3	0.3	1.78686539998890E-08
0.3	0.35	1.85363377787693E-08
0.3	0.4	1.92161373861621E-08
0.3	0.45	1.99057878157232E-08
0.3	0.5	2.06137393563986E-08
0.3	0.55	2.13334977388933E-08
0.3	0.6	2.20674680999609E-08
0.3	0.65	2.27896618812339E-08
0.3	0.7	2.35891332137491E-08
0.3	0.75	2.43760224020213E-08
0.3	0.8	2.51831387626102E-08
0.3	0.85	2.60046280103943E-08
0.3	0.9	2.68589345228440E-08
0.3	0.95	2.77294843148899E-08
0.3	1.0	2.86231053184837E-08
0.3	1.05	2.95325226325292E-08
0.3	1.1	3.04787592599382E-08
0.3	1.15	3.14465151809916E-08
0.3	1.2	3.24458909673509E-08
0.4	0.0	-2.68452018440538E-17
0.4	0.05	4.53651461676937E-07
0.4	0.1	5.15059774353251E-07
0.4	0.15	5.38976206222710E-07
0.4	0.2	5.61271124562165E-07
0.4	0.25	5.83435277674748E-07
0.4	0.3	6.05574398210521E-07
0.4	0.35	6.27852427503696E-07
0.4	0.4	6.50170367037201E-07
0.4	0.45	6.72976526274254E-07
0.4	0.5	6.95933654739515E-07
0.4	0.55	7.18292173723934E-07
0.4	0.6	7.42488638159967E-07
0.4	0.65	7.66821205671085E-07
0.4	0.7	7.91234174678606E-07
0.4	0.75	8.16089888743251E-07
0.4	0.8	8.41411003190677E-07
0.4	0.85	8.67222772953342E-07
0.4	0.9	8.93499185499106E-07
0.4	0.95	9.20385018055583E-07
0.4	1.0	9.47799153100370E-07
0.4	1.05	9.75833133647827E-07
0.4	1.1	1.00443198823448E-06
0.4	1.15	1.03365171240607E-06
0.4	1.2	1.06351093290271E-06
0.5	0.0	1.22879074101486E-17
0.5	0.05	8.35526736137219E-06
0.5	0.1	1.02254552673389E-05
0.5	0.15	1.07310438331885E-05
0.5	0.2	1.11010833271074E-05
0.5	0.25	1.14512974622255E-05
0.5	0.3	1.17907909412486E-05
0.5	0.35	1.21227743965531E-05
0.5	0.4	1.24502689859568E-05
0.5	0.45	1.27646275703268E-05
0.5	0.5	1.30886419405704E-05
0.5	0.55	1.34111513236201E-05
0.5	0.6	1.37322876153174E-05
0.5	0.65	1.40514727818868E-05
0.5	0.7	1.43699713601279E-05
0.5	0.75	1.46892829903497E-05
0.5	0.8	1.50090595388255E-05
0.5	0.85	1.53301084288609E-05
0.5	0.9	1.56524839957169E-05
0.5	0.95	1.59764653598744E-05
0.5	1.0	1.63023401394129E-05
0.5	1.05	1.66301177132560E-05
0.5	1.1	1.69600329736579E-05
0.5	1.15	1.72922014284411E-05
0.5	1.2	1.76267414148617E-05
0.6	0.0	4.10079039524720E-17
0.6	0.05	3.38714533503236E-05
0.6	0.1	5.07994744526332E-05
0.6	0.15	5.71109593960168E-05
0.6	0.2	5.93898123308629E-05
0.6	0.25	6.08561770498725E-05
0.6	0.3	6.21544238664213E-05
0.6	0.35	6.33684030686235E-05
0.6	0.4	6.45244495152833E-05
0.6	0.45	6.56304206429155E-05
0.6	0.5	6.67124707541924E-05
0.6	0.55	6.77674244290325E-05
0.6	0.6	6.88011103664382E-05
0.6	0.65	6.98172232080766E-05
0.6	0.7	7.08180255890494E-05
0.6	0.75	7.18060072022171E-05
0.6	0.8	7.27832895575825E-05
0.6	0.85	7.37518540181580E-05
0.6	0.9	7.47129348470913E-05
0.6	0.95	7.56677205562777E-05
0.6	1.0	7.66171868414742E-05
0.6	1.05	7.75621139490285E-05
0.6	1.1	7.85033138117866E-05
0.6	1.15	7.94413175079928E-05
0.6	1.2	8.03766780774259E-05
0.7	0.0	7.17628711976843E-19
0.7	0.05	6.17270338065293E-05
0.7	0.1	1.04154672905272E-04
0.7	0.15	1.29720439210674E-04
0.7	0.2	1.42670500824221E-04
0.7	0.25	1.48491393424586E-04
0.7	0.3	1.51759320879638E-04
0.7	0.35	1.54350613969471E-04
0.7	0.4	1.56669307894167E-04
0.7	0.45	1.58816104386128E-04
0.7	0.5	1.60847800619797E-04
0.7	0.55	1.62790506883397E-04
0.7	0.6	1.64664230905666E-04
0.7	0.65	1.66482138641402E-04
0.7	0.7	1.68254115870869E-04
0.7	0.75	1.69988399905726E-04
0.7	0.8	1.71688727670466E-04
0.7	0.85	1.73360454670006E-04
0.7	0.9	1.75007568761892E-04
0.7	0.95	1.76632800139705E-04
0.7	1.0	1.78238780562736E-04
0.7	1.05	1.79827807699082E-04
0.7	1.1	1.81401664722469E-04
0.7	1.15	1.82961963174194E-04
0.7	1.2	1.84509852989411E-04
0.8	0.0	1.94561664017650E-17
0.8	0.05	8.53288317598902E-05
0.8	0.1	1.51932398142349E-04
0.8	0.15	2.00681027670627E-04
0.8	0.2	2.33451552219510E-04
0.8	0.25	2.53151858114423E-04
0.8	0.3	2.63784651968835E-04
0.8	0.35	2.69711807298964E-04
0.8	0.4	2.73920622997858E-04
0.8	0.45	2.77461801387097E-04
0.8	0.5	2.80645051410252E-04
0.8	0.55	2.83595117817459E-04
0.8	0.6	2.86380044957872E-04
0.8	0.65	2.89041692129558E-04
0.8	0.7	2.91606446551554E-04
0.8	0.75	2.94091809278314E-04
0.8	0.8	2.96511247347007E-04
0.8	0.85	2.98873791717771E-04
0.8	0.9	3.01188222483878E-04
0.8	0.95	3.03460169235976E-04
0.8	1.0	3.05694555418913E-04
0.8	1.05	3.07896019372293E-04
0.8	1.1	3.10067890379331E-04
0.8	1.15	3.12212880724765E-04
0.8	1.2	3.14333681092759E-04
0.9	0.0	-3.74551580784439E-17
0.9	0.05	1.04387342779528E-04
0.9	0.1	1.91277978241446E-04
0.9	0.15	2.60956446608048E-04
0.9	0.2	3.14328658628183E-04
0.9	0.25	3.52852428783047E-04
0.9	0.3	3.78568190960538E-04
0.9	0.35	3.94361771775418E-04
0.9	0.4	4.03769493990546E-04
0.9	0.45	4.10032699802013E-04
0.9	0.5	4.14968437811989E-04
0.9	0.55	4.19237835201110E-04
0.9	0.6	4.23102130976224E-04
0.9	0.65	4.26699084256636E-04
0.9	0.7	4.30105476041501E-04
0.9	0.75	4.33366629669671E-04
0.9	0.8	4.36512619138563E-04
0.9	0.85	4.39562736494455E-04
0.9	0.9	4.42532436315625E-04
0.9	0.95	4.45433344009234E-04
0.9	1.0	4.48274028079338E-04
0.9	1.05	4.51061205298644E-04
0.9	1.1	4.53802503544433E-04
0.9	1.15	4.56501183333992E-04
0.9	1.2	4.59161925846966E-04
1.0	0.0	-3.57357826993931E-17
1.0	0.05	1.19667557802291E-04
1.0	0.1	2.23083513873651E-04
1.0	0.15	3.10324835732326E-04
1.0	0.2	3.81933349257250E-04
1.0	0.25	4.38716988688597E-04
1.0	0.3	4.81770814919002E-04
1.0	0.35	5.12616102223276E-04
1.0	0.4	5.33345467398252E-04
1.0	0.45	5.46669107554803E-04
1.0	0.5	5.55513106125858E-04
1.0	0.55	5.62105182127463E-04
1.0	0.6	5.67571631871837E-04
1.0	0.65	5.72386829288139E-04
1.0	0.7	5.76789108656552E-04
1.0	0.75	5.80912947569076E-04
1.0	0.8	5.84834094510144E-04
1.0	0.85	5.88598284650436E-04
1.0	0.9	5.92235190360410E-04
1.0	0.95	5.95767468360784E-04
1.0	1.0	5.99207972319784E-04
1.0	1.05	6.02571320450037E-04
1.0	1.1	6.05866612190453E-04
1.0	1.15	6.09100395070395E-04
1.0	1.2	6.12280026095371E-04
1.1	0.0	-1.41118214710291E-17
1.1	0.05	1.31999096231419E-04
1.1	0.1	2.48826111537243E-04
1.1	0.15	3.50503973424919E-04
1.1	0.2	4.37447189011232E-04
1.1	0.25	5.10215057533741E-04
1.1	0.3	5.69489421277897E-04
1.1	0.35	6.16132155575127E-04
1.1	0.4	6.51283493421462E-04
1.1	0.45	6.76490967940386E-04
1.1	0.5	6.93800029432100E-04
1.1	0.55	7.05628549893266E-04
1.1	0.6	7.14220450802483E-04
1.1	0.65	7.21063080643485E-04
1.1	0.7	7.26914981719699E-04
1.1	0.75	7.32154570024412E-04
1.1	0.8	7.36995704999111E-04
1.1	0.85	7.41559843257093E-04
1.1	0.9	7.45917313128399E-04
1.1	0.95	7.50111860418979E-04
1.1	1.0	7.54170866840723E-04
1.1	1.05	7.58118811848504E-04
1.1	1.1	7.61969553400086E-04
1.1	1.15	7.65734487012698E-04
1.1	1.2	7.69425137960804E-04
1.2	0.0	3.58676821956577E-18
1.2	0.05	1.42072569918125E-04
1.2	0.1	2.69855543298210E-04
1.2	0.15	3.83378518903124E-04
1.2	0.2	4.83030119901217E-04
1.2	0.25	5.69288675307408E-04
1.2	0.3	6.42673971967104E-04
1.2	0.35	7.03764381041417E-04
1.2	0.4	7.53245335018725E-04
1.2	0.45	7.91989203727601E-04
1.2	0.5	8.21155900617075E-04
1.2	0.55	8.42287963527521E-04
1.2	0.6	8.57303472839441E-04
1.2	0.65	8.68220593259888E-04
1.2	0.7	8.76680609052082E-04
1.2	0.75	8.83702713352394E-04
1.2	0.8	8.89849651867398E-04
1.2	0.85	8.95437772163543E-04
1.2	0.9	9.00651191532380E-04
1.2	0.95	9.05593257114427E-04
1.2	1.0	9.10328170196028E-04
1.2	1.05	9.14896914069951E-04
1.2	1.1	9.19325307525588E-04
1.2	1.15	9.23636489673252E-04
1.2	1.2	9.27846258732328E-04