vg	vd	ids
0.0	0.0	-2.99589896018442E-17
0.0	0.05	1.38440761735994E-13
0.0	0.1	1.59228470300162E-13
0.0	0.15	1.66201923691565E-13
0.0	0.2	1.72142359340603E-13
0.0	0.25	1.78137732430716E-13
0.0	0.3	1.84299775427407E-13
0.0	0.35	1.90613761414435E-13
0.0	0.4	1.97090252760946E-13
0.0	0.45	2.03670937370171E-13
0.0	0.5	2.10474015571079E-13
0.0	0.55	2.17463183635090E-13
0.0	0.6	2.24613889029604E-13
0.0	0.65	2.32048680083344E-13
0.0	0.7	2.39625225926617E-13
0.0	0.75	2.47547429669235E-13
0.0	0.8	2.55670897379120E-13
0.0	0.85	2.64029638798437E-13
0.0	0.9	2.72688584992493E-13
0.0	0.95	2.81562779649305E-13
0.0	1.0	2.90766076428487E-13
0.0	1.05	3.00318843520036E-13
0.0	1.1	3.10210622770209E-13
0.0	1.15	3.20398165490445E-13
0.0	1.2	3.30962218639216E-13
0.1	0.0	-2.69111087562652E-17
0.1	0.05	4.82524954897681E-12
0.1	0.1	5.56752237783237E-12
0.1	0.15	5.82090572204123E-12
0.1	0.2	6.03690192589933E-12
0.1	0.25	6.25482094500935E-12
0.1	0.3	6.47681819234144E-12
0.1	0.35	6.70323280380197E-12
0.1	0.4	6.93447688458739E-12
0.1	0.45	7.17097617572927E-12
0.1	0.5	7.41314301806734E-12
0.1	0.55	7.66131945807866E-12
0.1	0.6	7.91580965130420E-12
0.1	0.65	8.17696215485589E-12
0.1	0.7	8.44535187859185E-12
0.1	0.75	8.72114072352300E-12
0.1	0.8	9.00478394409939E-12
0.1	0.85	9.29661151293680E-12
0.1	0.9	9.59698949718056E-12
0.1	0.95	9.90635454658615E-12
0.1	1.0	1.02250633515471E-11
0.1	1.05	1.05536172552756E-11
0.1	1.1	1.08922958689063E-11
0.1	1.15	1.12415767162305E-11
0.1	1.2	1.16019454139878E-11
0.2	0.0	-4.61719632260519E-18
0.2	0.05	1.69905106951628E-10
0.2	0.1	1.96705242962112E-10
0.2	0.15	2.06060724857252E-10
0.2	0.2	2.13996902242334E-10
0.2	0.25	2.21961131043897E-10
0.2	0.3	2.30036197793591E-10
0.2	0.35	2.38239771739476E-10
0.2	0.4	2.46587464045391E-10
0.2	0.45	2.55092864098863E-10
0.2	0.5	2.63772335366496E-10
0.2	0.55	2.72636998814776E-10
0.2	0.6	2.81700898278847E-10
0.2	0.65	2.90978305749790E-10
0.2	0.7	3.00474512682054E-10
0.2	0.75	3.10207107156822E-10
0.2	0.8	3.20184694030945E-10
0.2	0.85	3.30421328610054E-10
0.2	0.9	3.40927626467594E-10
0.2	0.95	3.51715215991600E-10
0.2	1.0	3.62797791288088E-10
0.2	1.05	3.74185006292845E-10
0.2	1.1	3.85891232777725E-10
0.2	1.15	3.97928592912314E-10
0.2	1.2	4.10309334866449E-10
0.3	0.0	5.57076557943543E-17
0.3	0.05	5.98916711122827E-09
0.3	0.1	6.96289190503679E-09
0.3	0.15	7.31057345416233E-09
0.3	0.2	7.60321117192864E-09
0.3	0.25	7.89465763207769E-09
0.3	0.3	8.18839708233188E-09
0.3	0.35	8.48523729164384E-09
0.3	0.4	8.78575228280184E-09
0.3	0.45	9.09079681570899E-09
0.3	0.5	9.40073757040207E-09
0.3	0.55	9.71646614701696E-09
0.3	0.6	1.00377495022673E-08
0.3	0.65	1.03655037250669E-08
0.3	0.7	1.06998998134890E-08
0.3	0.75	1.10414373804394E-08
0.3	0.8	1.13905167930501E-08
0.3	0.85	1.17474263269701E-08
0.3	0.9	1.21126266460324E-08
0.3	0.95	1.24864378353461E-08
0.3	1.0	1.28692394193629E-08
0.3	1.05	1.32613880410445E-08
0.3	1.1	1.36632679433189E-08
0.3	1.15	1.40752250071411E-08
0.3	1.2	1.44976409994257E-08
0.4	0.0	-1.04433401123626E-18
0.4	0.05	2.01534412959182E-07
0.4	0.1	2.36514647293047E-07
0.4	0.15	2.48987967556089E-07
0.4	0.2	2.59187143406869E-07
0.4	0.25	2.69191072608443E-07
0.4	0.3	2.79165534093326E-07
0.4	0.35	2.89144670290235E-07
0.4	0.4	2.99180308114865E-07
0.4	0.45	3.09296745914380E-07
0.4	0.5	3.19509864021078E-07
0.4	0.55	3.29836132022866E-07
0.4	0.6	3.40287545171182E-07
0.4	0.65	3.50884380495213E-07
0.4	0.7	3.61638501819367E-07
0.4	0.75	3.72559927039459E-07
0.4	0.8	3.83661586244963E-07
0.4	0.85	3.94953339122831E-07
0.4	0.9	4.06445417715638E-07
0.4	0.95	4.18147667050242E-07
0.4	1.0	4.30068997373310E-07
0.4	1.05	4.42218706435242E-07
0.4	1.1	4.54605613605042E-07
0.4	1.15	4.67238109632051E-07
0.4	1.2	4.80124658570513E-07
0.5	0.0	2.86319428301071E-17
0.5	0.05	3.74412657785412E-06
0.5	0.1	4.75143246395714E-06
0.5	0.15	5.05003867809368E-06
0.5	0.2	5.23462334322814E-06
0.5	0.25	5.40200327230242E-06
0.5	0.3	5.56321773206542E-06
0.5	0.35	5.72076777147909E-06
0.5	0.4	5.87569877941258E-06
0.5	0.45	6.02869748986521E-06
0.5	0.5	6.18032621228032E-06
0.5	0.55	6.33099923116108E-06
0.5	0.6	6.48106481781913E-06
0.5	0.65	6.63082303813113E-06
0.5	0.7	6.78049938289410E-06
0.5	0.75	6.93028190281758E-06
0.5	0.8	7.08035073465963E-06
0.5	0.85	7.23084071989873E-06
0.5	0.9	7.38188787725862E-06
0.5	0.95	7.53361052587102E-06
0.5	1.0	7.68610032529771E-06
0.5	1.05	7.83945575020725E-06
0.5	1.1	7.99376335791963E-06
0.5	1.15	8.14908872970681E-06
0.5	1.2	8.30550256038431E-06
0.6	0.0	-1.60908679350555E-18
0.6	0.05	1.57012100742284E-05
0.6	0.1	2.42588108317212E-05
0.6	0.15	2.80078911344922E-05
0.6	0.2	2.95282158848214E-05
0.6	0.25	3.03919885152942E-05
0.6	0.3	3.11023900549982E-05
0.6	0.35	3.17573597749219E-05
0.6	0.4	3.23784432087197E-05
0.6	0.45	3.29749839421514E-05
0.6	0.5	3.35526792884139E-05
0.6	0.55	3.41154183677495E-05
0.6	0.6	3.46662073763507E-05
0.6	0.65	3.52070715427452E-05
0.6	0.7	3.57398352991477E-05
0.6	0.75	3.62657185126302E-05
0.6	0.8	3.67858648405200E-05
0.6	0.85	3.73011972473600E-05
0.6	0.9	3.78124575254221E-05
0.6	0.95	3.83203262685664E-05
0.6	1.0	3.88253534860318E-05
0.6	1.05	3.93280583203256E-05
0.6	1.1	3.98288603633801E-05
0.6	1.15	4.03281139414264E-05
0.6	1.2	4.08262058322202E-05
0.7	0.0	2.40435888385304E-17
0.7	0.05	3.00338155957559E-05
0.7	0.1	5.16968648197186E-05
0.7	0.15	6.58535221515858E-05
0.7	0.2	7.40143462706493E-05
0.7	0.25	7.82444473397553E-05
0.7	0.3	8.05715875654923E-05
0.7	0.35	8.22318540704213E-05
0.7	0.4	8.36599238052270E-05
0.7	0.45	8.49678262321832E-05
0.7	0.5	8.61948648674442E-05
0.7	0.55	8.73630422105875E-05
0.7	0.6	8.84857409139578E-05
0.7	0.65	8.95722908206028E-05
0.7	0.7	9.06293190109542E-05
0.7	0.75	9.16614602741176E-05
0.7	0.8	9.26728007468285E-05
0.7	0.85	9.36661771098470E-05
0.7	0.9	9.46439305577158E-05
0.7	0.95	9.56083092786725E-05
0.7	1.0	9.65608650354363E-05
0.7	1.05	9.75030100935622E-05
0.7	1.1	9.84360864615973E-05
0.7	1.15	9.93610925266000E-05
0.7	1.2	1.00279008195065E-04
0.8	0.0	2.70690132501400E-17
0.8	0.05	4.35112799323831E-05
0.8	0.1	7.86426255337899E-05
0.8	0.15	1.05651352518503E-04
0.8	0.2	1.25155567138047E-04
0.8	0.25	1.38174061449867E-04
0.8	0.3	1.46169718739222E-04
0.8	0.35	1.50926753881901E-04
0.8	0.4	1.54066579599534E-04
0.8	0.45	1.56537443195856E-04
0.8	0.5	1.58698388976461E-04
0.8	0.55	1.60672476166247E-04
0.8	0.6	1.62517880434459E-04
0.8	0.65	1.64268725921283E-04
0.8	0.7	1.65946599189097E-04
0.8	0.75	1.67566145870276E-04
0.8	0.8	1.69137580049082E-04
0.8	0.85	1.70668464676149E-04
0.8	0.9	1.72165050327475E-04
0.8	0.95	1.73631877925778E-04
0.8	1.0	1.75072500850589E-04
0.8	1.05	1.76490501681042E-04
0.8	1.1	1.77888242228519E-04
0.8	1.15	1.79268046080944E-04
0.8	1.2	1.80631953744866E-04
0.9	0.0	7.46168231914649E-18
0.9	0.05	5.54809960287638E-05
0.9	0.1	1.02954054270944E-04
0.9	0.15	1.42409080576582E-04
0.9	0.2	1.74073245992443E-04
0.9	0.25	1.98396400734950E-04
0.9	0.3	2.16095741019365E-04
0.9	0.35	2.28215694609890E-04
0.9	0.4	2.36134779093187E-04
0.9	0.45	2.41391481917100E-04
0.9	0.5	2.45263536148763E-04
0.9	0.55	2.48462460151728E-04
0.9	0.6	2.51288316297481E-04
0.9	0.65	2.53874169653262E-04
0.9	0.7	2.56292046052817E-04
0.9	0.75	2.58585707850355E-04
0.9	0.8	2.60783419929049E-04
0.9	0.85	2.62903527713690E-04
0.9	0.9	2.64959579906151E-04
0.9	0.95	2.66961309857410E-04
0.9	1.0	2.68916666639562E-04
0.9	1.05	2.70831769790214E-04
0.9	1.1	2.72710878172698E-04
0.9	1.15	2.74559129590118E-04
0.9	1.2	2.76379629806960E-04
1.0	0.0	1.98745605732984E-17
1.0	0.05	6.58804644883070E-05
1.0	0.1	1.24248991450988E-04
1.0	0.15	1.74967477822863E-04
1.0	0.2	2.18077761464932E-04
1.0	0.25	2.53757943194784E-04
1.0	0.3	2.82338794292945E-04
1.0	0.35	3.04342137967907E-04
1.0	0.4	3.20529743152360E-04
1.0	0.45	3.31940154233012E-04
1.0	0.5	3.39849879182942E-04
1.0	0.55	3.45558008342031E-04
1.0	0.6	3.50049957753200E-04
1.0	0.65	3.53864867431159E-04
1.0	0.7	3.57263898610274E-04
1.0	0.75	3.60387090754514E-04
1.0	0.8	3.63315130027867E-04
1.0	0.85	3.66097473230919E-04
1.0	0.9	3.68766372763422E-04
1.0	0.95	3.71342162863753E-04
1.0	1.0	3.73842139842252E-04
1.0	1.05	3.76276518572569E-04
1.0	1.1	3.78654290997018E-04
1.0	1.15	3.80982974105761E-04
1.0	1.2	3.83269017521458E-04
1.1	0.0	-1.59174333778315E-17
1.1	0.05	7.48317171259705E-05
1.1	0.1	1.42663260450371E-04
1.1	0.15	2.03298898727742E-04
1.1	0.2	2.56692220359142E-04
1.1	0.25	3.02887798548278E-04
1.1	0.3	3.42021359752361E-04
1.1	0.35	3.74338217405091E-04
1.1	0.4	4.00224007283050E-04
1.1	0.45	4.20244314060754E-04
1.1	0.5	4.35183130823914E-04
1.1	0.55	4.46050792242171E-04
1.1	0.6	4.53998389909017E-04
1.1	0.65	4.60093015234923E-04
1.1	0.7	4.65089126946918E-04
1.1	0.75	4.69411646221908E-04
1.1	0.8	4.73297334947677E-04
1.1	0.85	4.76886212756269E-04
1.1	0.9	4.80264128067788E-04
1.1	0.95	4.83481448883320E-04
1.1	1.0	4.86573629906967E-04
1.1	1.05	4.89562098777318E-04
1.1	1.1	4.92463954795933E-04
1.1	1.15	4.95292246702787E-04
1.1	1.2	4.98056896988278E-04
1.2	0.0	2.28999471207413E-17
1.2	0.05	8.25186830263267E-05
1.2	0.1	1.58514260127036E-04
1.2	0.15	2.27771333217368E-04
1.2	0.2	2.90207123748421E-04
1.2	0.25	3.45804363375980E-04
1.2	0.3	3.94601877970410E-04
1.2	0.35	4.36702027874661E-04
1.2	0.4	4.72287260928084E-04
1.2	0.45	5.01645175312166E-04
1.2	0.5	5.25199862221032E-04
1.2	0.55	5.43545460047524E-04
1.2	0.6	5.57471083856563E-04
1.2	0.65	5.67933894725642E-04
1.2	0.7	5.75941114271080E-04
1.2	0.75	5.82348925175638E-04
1.2	0.8	5.87746840037480E-04
1.2	0.85	5.92487426593693E-04
1.2	0.9	5.96787304596140E-04
1.2	0.95	6.00782006651493E-04
1.2	1.0	6.04557495112671E-04
1.2	1.05	6.08162926468118E-04
1.2	1.1	6.11635180483254E-04
1.2	1.15	6.14997282096218E-04
1.2	1.2	6.18263723460638E-04