vg	vd	ids
0.0	0.0	-1.53134242886542E-17
0.0	0.05	7.93795886043684E-13
0.0	0.1	9.02920755468350E-13
0.0	0.15	9.66223358619814E-13
0.0	0.2	1.03298927699784E-12
0.0	0.25	1.10417370330657E-12
0.0	0.3	1.18005333552225E-12
0.0	0.35	1.26102300312666E-12
0.0	0.4	1.34809711533894E-12
0.0	0.45	1.44165754449887E-12
0.0	0.5	1.54173265491718E-12
0.0	0.55	1.64979726492032E-12
0.0	0.6	1.76593140733492E-12
0.0	0.65	1.89119179509698E-12
0.0	0.7	2.02663803505396E-12
0.0	0.75	2.17322410854133E-12
0.0	0.8	2.33214132167253E-12
0.0	0.85	2.50514740669967E-12
0.0	0.9	2.69348488538341E-12
0.0	0.95	2.89943491123653E-12
0.0	1.0	3.12485790403644E-12
0.0	1.05	3.37257031832607E-12
0.0	1.1	3.64549105469558E-12
0.0	1.15	3.94736556757703E-12
0.0	1.2	4.28253011480461E-12
0.1	0.0	-8.02916735790421E-17
0.1	0.05	2.65240204451003E-11
0.1	0.1	3.02136371813469E-11
0.1	0.15	3.22646482197540E-11
0.1	0.2	3.43891623672362E-11
0.1	0.25	3.66343692079758E-11
0.1	0.3	3.90096149692493E-11
0.1	0.35	4.15255260325777E-11
0.1	0.4	4.41927081999475E-11
0.1	0.45	4.70186441037309E-11
0.1	0.5	5.00258651800947E-11
0.1	0.55	5.32211614072653E-11
0.1	0.6	5.66192900163092E-11
0.1	0.65	6.02383645093247E-11
0.1	0.7	6.40955022273363E-11
0.1	0.75	6.82104926387415E-11
0.1	0.8	7.26048692152770E-11
0.1	0.85	7.73020048452707E-11
0.1	0.9	8.23293070625716E-11
0.1	0.95	8.77168787246762E-11
0.1	1.0	9.34975139319295E-11
0.1	1.05	9.97093373299847E-11
0.1	1.1	1.06394262304488E-10
0.1	1.15	1.13600171409143E-10
0.1	1.2	1.21380921481381E-10
0.2	0.0	-4.62399558664441E-18
0.2	0.05	8.97144966027759E-10
0.2	0.1	1.02445192295913E-09
0.2	0.15	1.09269320298309E-09
0.2	0.2	1.16242838088077E-09
0.2	0.25	1.23547151629303E-09
0.2	0.3	1.31209800074971E-09
0.2	0.35	1.39257941551293E-09
0.2	0.4	1.47719251011324E-09
0.2	0.45	1.56614864804650E-09
0.2	0.5	1.65992365755120E-09
0.2	0.55	1.75871071508167E-09
0.2	0.6	1.86285293028737E-09
0.2	0.65	1.97270352959483E-09
0.2	0.7	2.08864457267619E-09
0.2	0.75	2.21108377745381E-09
0.2	0.8	2.34045429230881E-09
0.2	0.85	2.47723164820611E-09
0.2	0.9	2.62192397610141E-09
0.2	0.95	2.77508849688484E-09
0.2	1.0	2.93732131639530E-09
0.2	1.05	3.10927536606926E-09
0.2	1.1	3.29166558468656E-09
0.2	1.15	3.48527347351385E-09
0.2	1.2	3.69095366993921E-09
0.3	0.0	2.76235465475714E-17
0.3	0.05	3.03211028767962E-08
0.3	0.1	3.47724485982371E-08
0.3	0.15	3.70777047832045E-08
0.3	0.2	3.93919863289940E-08
0.3	0.25	4.17906824030025E-08
0.3	0.3	4.42837682698935E-08
0.3	0.35	4.68797981052836E-08
0.3	0.4	4.95871044667613E-08
0.3	0.45	5.24121231223599E-08
0.3	0.5	5.53631038401073E-08
0.3	0.55	5.84474908339072E-08
0.3	0.6	6.16729664367589E-08
0.3	0.65	6.50474404349215E-08
0.3	0.7	6.85792057478684E-08
0.3	0.75	7.22769130008835E-08
0.3	0.8	7.61495877347123E-08
0.3	0.85	8.02068243210837E-08
0.3	0.9	8.44586304263295E-08
0.3	0.95	8.89156521919398E-08
0.3	1.0	9.35891253044611E-08
0.3	1.05	9.84909342979119E-08
0.3	1.1	1.03633795233464E-07
0.3	1.15	1.09031167779652E-07
0.3	1.2	1.14697448140614E-07
0.4	0.0	2.92567440607026E-17
0.4	0.05	9.39241760490181E-07
0.4	0.1	1.09147671650861E-06
0.4	0.15	1.16281556919935E-06
0.4	0.2	1.23120060814811E-06
0.4	0.25	1.30052260011532E-06
0.4	0.3	1.37130074784560E-06
0.4	0.35	1.44385141847593E-06
0.4	0.4	1.51840761714920E-06
0.4	0.45	1.59512635827604E-06
0.4	0.5	1.67417138382900E-06
0.4	0.55	1.75567227298724E-06
0.4	0.6	1.83974866570759E-06
0.4	0.65	1.92651499692275E-06
0.4	0.7	2.01607918990215E-06
0.4	0.75	2.10855061113444E-06
0.4	0.8	2.20403304392797E-06
0.4	0.85	2.30263481755690E-06
0.4	0.9	2.40446050037075E-06
0.4	0.95	2.50961744940603E-06
0.4	1.0	2.61821465198566E-06
0.4	1.05	2.73035999746356E-06
0.4	1.1	2.84616574758722E-06
0.4	1.15	2.96574466609310E-06
0.4	1.2	3.08921206803176E-06
0.5	0.0	7.15037873849353E-17
0.5	0.05	1.29584022137023E-05
0.5	0.1	1.66134173541879E-05
0.5	0.15	1.77388986970591E-05
0.5	0.2	1.85238279693229E-05
0.5	0.25	1.92574032356791E-05
0.5	0.3	1.99713715380631E-05
0.5	0.35	2.06762759658267E-05
0.5	0.4	2.13772556990192E-05
0.5	0.45	2.20773314773828E-05
0.5	0.5	2.27784072400747E-05
0.5	0.55	2.34818444920138E-05
0.5	0.6	2.41885524389883E-05
0.5	0.65	2.48992698692101E-05
0.5	0.7	2.56145672685642E-05
0.5	0.75	2.63348536404324E-05
0.5	0.8	2.70605515822817E-05
0.5	0.85	2.77919296367687E-05
0.5	0.9	2.85292622947623E-05
0.5	0.95	2.92727783176813E-05
0.5	1.0	3.00226854259193E-05
0.5	1.05	3.07791079774224E-05
0.5	1.1	3.15422792967913E-05
0.5	1.15	3.23122516754885E-05
0.5	1.2	3.30891690365024E-05
0.6	0.0	-2.80191309187026E-17
0.6	0.05	4.23752847809226E-05
0.6	0.1	6.55074970684226E-05
0.6	0.15	7.55785770797038E-05
0.6	0.2	7.97032814428511E-05
0.6	0.25	8.22199837788605E-05
0.6	0.3	8.43497054316063E-05
0.6	0.35	8.63309251725953E-05
0.6	0.4	8.82333400389677E-05
0.6	0.45	9.00848840971861E-05
0.6	0.5	9.18999107363515E-05
0.6	0.55	9.36874734732146E-05
0.6	0.6	9.54532911884893E-05
0.6	0.65	9.72012874889844E-05
0.6	0.7	9.89350192142515E-05
0.6	0.75	1.00656378550675E-04
0.6	0.8	1.02367624268259E-04
0.6	0.85	1.04070130330645E-04
0.6	0.9	1.05765129256541E-04
0.6	0.95	1.07453745148460E-04
0.6	1.0	1.09137101237941E-04
0.6	1.05	1.10815648914383E-04
0.6	1.1	1.12490352107853E-04
0.6	1.15	1.14161821847720E-04
0.6	1.2	1.15830543174934E-04
0.7	0.0	-3.48676785346600E-17
0.7	0.05	7.26455312503219E-05
0.7	0.1	1.23855953654309E-04
0.7	0.15	1.56223371983416E-04
0.7	0.2	1.74108889606452E-04
0.7	0.25	1.83124716569961E-04
0.7	0.3	1.88290999175151E-04
0.7	0.35	1.92173494185903E-04
0.7	0.4	1.95584220932093E-04
0.7	0.45	1.98772266142604E-04
0.7	0.5	2.01825375409623E-04
0.7	0.55	2.04782662029318E-04
0.7	0.6	2.07666566942838E-04
0.7	0.65	2.10490836925403E-04
0.7	0.7	2.13265559774423E-04
0.7	0.75	2.15997397878633E-04
0.7	0.8	2.18692318492218E-04
0.7	0.85	2.21354021818790E-04
0.7	0.9	2.23986135875297E-04
0.7	0.95	2.26591512799004E-04
0.7	1.0	2.29172966702878E-04
0.7	1.05	2.31732383854389E-04
0.7	1.1	2.34271432283246E-04
0.7	1.15	2.36791812870329E-04
0.7	1.2	2.39295523154869E-04
0.8	0.0	1.02776277157351E-16
0.8	0.05	9.83128896046059E-05
0.8	0.1	1.75739348006997E-04
0.8	0.15	2.33276479525389E-04
0.8	0.2	2.73045251177502E-04
0.8	0.25	2.98167192464521E-04
0.8	0.3	3.12829756593666E-04
0.8	0.35	3.21528584262486E-04
0.8	0.4	3.27572686243700E-04
0.8	0.45	3.32552166174463E-04
0.8	0.5	3.37052868969613E-04
0.8	0.55	3.41285285317050E-04
0.8	0.6	3.45337050616532E-04
0.8	0.65	3.49253573333187E-04
0.8	0.7	3.53063681631895E-04
0.8	0.75	3.56784868394966E-04
0.8	0.8	3.60430677036302E-04
0.8	0.85	3.64011001726053E-04
0.8	0.9	3.67532048477660E-04
0.8	0.95	3.71001999709681E-04
0.8	1.0	3.74424841651837E-04
0.8	1.05	3.77804210739120E-04
0.8	1.1	3.81145315536210E-04
0.8	1.15	3.84449736897023E-04
0.8	1.2	3.87720392744908E-04
0.9	0.0	2.87413930864855E-17
0.9	0.05	1.19080535947820E-04
0.9	0.1	2.18577826933945E-04
0.9	0.15	2.98831389046154E-04
0.9	0.2	3.60920471269962E-04
0.9	0.25	4.06466324101705E-04
0.9	0.3	4.37785343591623E-04
0.9	0.35	4.57985701298721E-04
0.9	0.4	4.70738669650408E-04
0.9	0.45	4.79402137508594E-04
0.9	0.5	4.86161304749405E-04
0.9	0.55	4.92053850697594E-04
0.9	0.6	4.97477920058793E-04
0.9	0.65	5.02600792189461E-04
0.9	0.7	5.07508066036901E-04
0.9	0.75	5.12247589441806E-04
0.9	0.8	5.16850469565266E-04
0.9	0.85	5.21339908660116E-04
0.9	0.9	5.25731428452901E-04
0.9	0.95	5.30038124555674E-04
0.9	1.0	5.34269677657063E-04
0.9	1.05	5.38431743836113E-04
0.9	1.1	5.42532519554587E-04
0.9	1.15	5.46577942086369E-04
0.9	1.2	5.50567279018410E-04
1.0	0.0	6.61996321496632E-17
1.0	0.05	1.35713720370863E-04
1.0	0.1	2.53211968392258E-04
1.0	0.15	3.52588613145613E-04
1.0	0.2	4.34488726341092E-04
1.0	0.25	4.99841249068376E-04
1.0	0.3	5.49915516100269E-04
1.0	0.35	5.86438422000662E-04
1.0	0.4	6.11732314793972E-04
1.0	0.45	6.28690373205005E-04
1.0	0.5	6.40343267577662E-04
1.0	0.55	6.49137889720409E-04
1.0	0.6	6.56539824897742E-04
1.0	0.65	6.63206253015519E-04
1.0	0.7	6.69412515897417E-04
1.0	0.75	6.75295540729975E-04
1.0	0.8	6.80935778615899E-04
1.0	0.85	6.86383376433070E-04
1.0	0.9	6.91671347666540E-04
1.0	0.95	6.96824070187165E-04
1.0	1.0	7.01862455995702E-04
1.0	1.05	7.06796047507554E-04
1.0	1.1	7.11640617843294E-04
1.0	1.15	7.16401992457380E-04
1.0	1.2	7.21087425698254E-04
1.1	0.0	5.93135946153629E-17
1.1	0.05	1.49098767922729E-04
1.1	0.1	2.81184725107288E-04
1.1	0.15	3.96285648542606E-04
1.1	0.2	4.94891796835762E-04
1.1	0.25	5.77648661692215E-04
1.1	0.3	6.45348436301172E-04
1.1	0.35	6.98983917362212E-04
1.1	0.4	7.39858708798936E-04
1.1	0.45	7.69715869519840E-04
1.1	0.5	7.90797486745841E-04
1.1	0.55	8.05670117398860E-04
1.1	0.6	8.16753251090421E-04
1.1	0.65	8.25812578835855E-04
1.1	0.7	8.33790687565270E-04
1.1	0.75	8.41113845417456E-04
1.1	0.8	8.47985054513919E-04
1.1	0.85	8.54521947968719E-04
1.1	0.9	8.60795678024645E-04
1.1	0.95	8.66855882908069E-04
1.1	1.0	8.72737956561958E-04
1.1	1.05	8.78469069638059E-04
1.1	1.1	8.84067666420706E-04
1.1	1.15	8.89548631524555E-04
1.1	1.2	8.94927633705933E-04
1.2	0.0	1.27200336797301E-18
1.2	0.05	1.59994039991236E-04
1.2	0.1	3.03963833376857E-04
1.2	0.15	4.31943221781462E-04
1.2	0.2	5.44388069149544E-04
1.2	0.25	6.41850973137722E-04
1.2	0.3	7.24934854868051E-04
1.2	0.35	7.94305197286782E-04
1.2	0.4	8.50747422659369E-04
1.2	0.45	8.95256644030210E-04
1.2	0.5	9.29149109104278E-04
1.2	0.55	9.54145560462128E-04
1.2	0.6	9.72335926981308E-04
1.2	0.65	9.85925509434789E-04
1.2	0.7	9.96804969079551E-04
1.2	0.75	1.00619092241917E-03
1.2	0.8	1.01467070922422E-03
1.2	0.85	1.02255722504293E-03
1.2	0.9	1.03000229222768E-03
1.2	0.95	1.03710027384749E-03
1.2	1.0	1.04391899492913E-03
1.2	1.05	1.05051313420574E-03
1.2	1.1	1.05691188053710E-03
1.2	1.15	1.06314839245892E-03
1.2	1.2	1.06923663864486E-03