vg	vd	ids
0.0	0.0	-2.52629283317360E-17
0.0	0.05	4.69407578075938E-14
0.0	0.1	5.36281558068324E-14
0.0	0.15	5.57966759156225E-14
0.0	0.2	5.76912919972346E-14
0.0	0.25	5.96086237050801E-14
0.0	0.3	6.15810019691309E-14
0.0	0.35	6.36066133743404E-14
0.0	0.4	6.56625810399003E-14
0.0	0.45	6.77357111822961E-14
0.0	0.5	6.99025274721808E-14
0.0	0.55	7.21430943962468E-14
0.0	0.6	7.44311200912766E-14
0.0	0.65	7.67983149621899E-14
0.0	0.7	7.92146757212661E-14
0.0	0.75	8.17265419448574E-14
0.0	0.8	8.42892352916683E-14
0.0	0.85	8.69138942506906E-14
0.0	0.9	8.96490118682263E-14
0.0	0.95	9.24375098393314E-14
0.0	1.0	9.53099835814124E-14
0.0	1.05	9.83034961869841E-14
0.0	1.1	1.01367532299557E-13
0.0	1.15	1.02641473457441E-13
0.0	1.2	1.06298962441358E-13
0.1	0.0	-5.70368932321524E-18
0.1	0.05	1.51634900654211E-12
0.1	0.1	1.73796339661476E-12
0.1	0.15	1.81250521687649E-12
0.1	0.2	1.87709249699639E-12
0.1	0.25	1.94268658248485E-12
0.1	0.3	2.00974553227629E-12
0.1	0.35	2.07825556659809E-12
0.1	0.4	2.14830547630867E-12
0.1	0.45	2.22033798190866E-12
0.1	0.5	2.29423446695169E-12
0.1	0.55	2.37010078115591E-12
0.1	0.6	2.44804345260362E-12
0.1	0.65	2.52794640931555E-12
0.1	0.7	2.61008316506315E-12
0.1	0.75	2.69459690850322E-12
0.1	0.8	2.78146354040916E-12
0.1	0.85	2.87085365925266E-12
0.1	0.9	2.96281198174985E-12
0.1	0.95	3.05751121894399E-12
0.1	1.0	3.15500277417508E-12
0.1	1.05	3.25543369112607E-12
0.1	1.1	3.35888388075830E-12
0.1	1.15	3.46553123317945E-12
0.1	1.2	3.57541041550153E-12
0.2	0.0	-1.41772929166638E-17
0.2	0.05	4.99847366173672E-11
0.2	0.1	5.74818362862537E-11
0.2	0.15	6.00724708897309E-11
0.2	0.2	6.23158578095232E-11
0.2	0.25	6.45867830931700E-11
0.2	0.3	6.69040689401905E-11
0.2	0.35	6.92717256510390E-11
0.2	0.4	7.16931432598379E-11
0.2	0.45	7.41718097969429E-11
0.2	0.5	7.67053405618658E-11
0.2	0.55	7.93132894104858E-11
0.2	0.6	8.19802514761762E-11
0.2	0.65	8.47207815391114E-11
0.2	0.7	8.75318935257921E-11
0.2	0.75	9.04185767997654E-11
0.2	0.8	9.33838197900667E-11
0.2	0.85	9.64310848820166E-11
0.2	0.9	9.95631456250342E-11
0.2	0.95	1.02783350346706E-10
0.2	1.0	1.06095027538757E-10
0.2	1.05	1.09501422022883E-10
0.2	1.1	1.13006091749346E-10
0.2	1.15	1.16612478261264E-10
0.2	1.2	1.20324267155774E-10
0.3	0.0	-6.92028281998667E-18
0.3	0.05	1.66610058288033E-09
0.3	0.1	1.92307663829718E-09
0.3	0.15	2.01402677309876E-09
0.3	0.2	2.09244198898747E-09
0.3	0.25	2.17148753572516E-09
0.3	0.3	2.25191262629608E-09
0.3	0.35	2.33388677685740E-09
0.3	0.4	2.41755027391003E-09
0.3	0.45	2.50302701794861E-09
0.3	0.5	2.59043264785687E-09
0.3	0.55	2.67987475217860E-09
0.3	0.6	2.77145715918966E-09
0.3	0.65	2.86528079958261E-09
0.3	0.7	2.96144455038039E-09
0.3	0.75	3.06004619733346E-09
0.3	0.8	3.16118344387953E-09
0.3	0.85	3.26495339117615E-09
0.3	0.9	3.37145474835623E-09
0.3	0.95	3.48078648016604E-09
0.3	1.0	3.59304877666928E-09
0.3	1.05	3.70834346345930E-09
0.3	1.1	3.82677404594065E-09
0.3	1.15	3.94844564097986E-09
0.3	1.2	4.07346577244823E-09
0.4	0.0	-1.99164419826983E-17
0.4	0.05	5.48506204710627E-08
0.4	0.1	6.37048285099466E-08
0.4	0.15	6.68782305968513E-08
0.4	0.2	6.95691782430874E-08
0.4	0.25	7.22567537512225E-08
0.4	0.3	7.49751536118045E-08
0.4	0.35	7.77332188933395E-08
0.4	0.4	8.05372070099527E-08
0.4	0.45	8.33921374827838E-08
0.4	0.5	8.63022663347232E-08
0.4	0.55	8.92713595511887E-08
0.4	0.6	9.23028554186300E-08
0.4	0.65	9.53999627703521E-08
0.4	0.7	9.85657347542841E-08
0.4	0.75	1.01803103075890E-07
0.4	0.8	1.05114928293772E-07
0.4	0.85	1.08504003320254E-07
0.4	0.9	1.11973093317627E-07
0.4	0.95	1.15524942596811E-07
0.4	1.0	1.19162278325010E-07
0.4	1.05	1.22887836900280E-07
0.4	1.1	1.26704358145031E-07
0.4	1.15	1.30614591628797E-07
0.4	1.2	1.34621315713307E-07
0.5	0.0	-1.82984271107979E-17
0.5	0.05	1.36241067722090E-06
0.5	0.1	1.64373890434226E-06
0.5	0.15	1.73244596983838E-06
0.5	0.2	1.79765666064348E-06
0.5	0.25	1.86005891106627E-06
0.5	0.3	1.92187170871718E-06
0.5	0.35	1.98355083917598E-06
0.5	0.4	2.04539460269621E-06
0.5	0.45	2.10760343004969E-06
0.5	0.5	2.17027830014469E-06
0.5	0.55	2.23350898860384E-06
0.5	0.6	2.29736832149174E-06
0.5	0.65	2.36191482655362E-06
0.5	0.7	2.42720038417335E-06
0.5	0.75	2.49326826830666E-06
0.5	0.8	2.56015856043940E-06
0.5	0.85	2.62790637189173E-06
0.5	0.9	2.69654363455819E-06
0.5	0.95	2.76610090382926E-06
0.5	1.0	2.83660428428456E-06
0.5	1.05	2.90808064812513E-06
0.5	1.1	2.98055387088671E-06
0.5	1.15	3.05404583332153E-06
0.5	1.2	3.12857938557590E-06
0.6	0.0	1.03592961580960E-17
0.6	0.05	9.25263401000447E-06
0.6	0.1	1.33287955769263E-05
0.6	0.15	1.47583520852061E-05
0.6	0.2	1.53548104585765E-05
0.6	0.25	1.57749252320934E-05
0.6	0.3	1.61546752241560E-05
0.6	0.35	1.65188243360093E-05
0.6	0.4	1.68736004723715E-05
0.6	0.45	1.72226736696129E-05
0.6	0.5	1.75676574235688E-05
0.6	0.55	1.79096609271478E-05
0.6	0.6	1.82494462704491E-05
0.6	0.65	1.85875952651236E-05
0.6	0.7	1.89245431035372E-05
0.6	0.75	1.92606669897839E-05
0.6	0.8	1.95962338203805E-05
0.6	0.85	1.99315297962453E-05
0.6	0.9	2.02667258716950E-05
0.6	0.95	2.06020387632833E-05
0.6	1.0	2.09376103490620E-05
0.6	1.05	2.12735729413330E-05
0.6	1.1	2.16100721123337E-05
0.6	1.15	2.19471923470376E-05
0.6	1.2	2.22850394405329E-05
0.7	0.0	-5.04402249871800E-18
0.7	0.05	2.13421479270608E-05
0.7	0.1	3.54401441447005E-05
0.7	0.15	4.35921962012460E-05
0.7	0.2	4.76711463899925E-05
0.7	0.25	4.96507942856069E-05
0.7	0.3	5.08611601761143E-05
0.7	0.35	5.18380669475479E-05
0.7	0.4	5.27287942795710E-05
0.7	0.45	5.35755523010121E-05
0.7	0.5	5.43949319188649E-05
0.7	0.55	5.51944268626624E-05
0.7	0.6	5.59784344410014E-05
0.7	0.65	5.67498402565410E-05
0.7	0.7	5.75107062186300E-05
0.7	0.75	5.82625377864893E-05
0.7	0.8	5.90065978227698E-05
0.7	0.85	5.97438364346299E-05
0.7	0.9	6.04751085781361E-05
0.7	0.95	6.12011068305162E-05
0.7	1.0	6.19223879683797E-05
0.7	1.05	6.26395187267132E-05
0.7	1.1	6.33529315114713E-05
0.7	1.15	6.40629584811901E-05
0.7	1.2	6.47700512067018E-05
0.8	0.0	5.98839165092259E-18
0.8	0.05	3.35198145886528E-05
0.8	0.1	5.92605086888442E-05
0.8	0.15	7.78149467817499E-05
0.8	0.2	9.01605214354385E-05
0.8	0.25	9.76543935849985E-05
0.8	0.3	1.01923219891736E-04
0.8	0.35	1.04495526608593E-04
0.8	0.4	1.06360642978858E-04
0.8	0.45	1.07947196456327E-04
0.8	0.5	1.09405756011342E-04
0.8	0.55	1.10791894631950E-04
0.8	0.6	1.12128801597406E-04
0.8	0.65	1.13428583354587E-04
0.8	0.7	1.14698167432948E-04
0.8	0.75	1.15942454882814E-04
0.8	0.8	1.17165046152440E-04
0.8	0.85	1.18368746825657E-04
0.8	0.9	1.19555655688706E-04
0.8	0.95	1.20727510308643E-04
0.8	1.0	1.21885904219407E-04
0.8	1.05	1.23031997756166E-04
0.8	1.1	1.24166866352025E-04
0.8	1.15	1.25291539617145E-04
0.8	1.2	1.26406750446169E-04
0.9	0.0	-1.37455979752692E-18
0.9	0.05	4.48121514845946E-05
0.9	0.1	8.18022991322600E-05
0.9	0.15	1.11243608168189E-04
0.9	0.2	1.33669973392577E-04
0.9	0.25	1.49850435450650E-04
0.9	0.3	1.60812251825957E-04
0.9	0.35	1.67833580473265E-04
0.9	0.4	1.72301763076424E-04
0.9	0.45	1.75402305635161E-04
0.9	0.5	1.77868240344606E-04
0.9	0.55	1.80041021689742E-04
0.9	0.6	1.82059772104432E-04
0.9	0.65	1.83981724781895E-04
0.9	0.7	1.85833778690692E-04
0.9	0.75	1.87631280175009E-04
0.9	0.8	1.89383574029095E-04
0.9	0.85	1.91097547288763E-04
0.9	0.9	1.92778088685575E-04
0.9	0.95	1.94429107985528E-04
0.9	1.0	1.96053654655459E-04
0.9	1.05	1.97654497061886E-04
0.9	1.1	1.99233652703721E-04
0.9	1.15	2.00792946867044E-04
0.9	1.2	2.02333794965916E-04
1.0	0.0	1.36487996981376E-17
1.0	0.05	5.49970150586509E-05
1.0	0.1	1.02336365909116E-04
1.0	0.15	1.42116982043592E-04
1.0	0.2	1.74645687765136E-04
1.0	0.25	2.00381773024254E-04
1.0	0.3	2.19946510524539E-04
1.0	0.35	2.34149670701824E-04
1.0	0.4	2.44003817219777E-04
1.0	0.45	2.50679390957189E-04
1.0	0.5	2.55339026575777E-04
1.0	0.55	2.58894506646146E-04
1.0	0.6	2.61895193516633E-04
1.0	0.65	2.64609264837800E-04
1.0	0.7	2.67153618450744E-04
1.0	0.75	2.69581979991151E-04
1.0	0.8	2.71922692352397E-04
1.0	0.85	2.74192689559725E-04
1.0	0.9	2.76403691816612E-04
1.0	0.95	2.78563788367994E-04
1.0	1.0	2.80679445217346E-04
1.0	1.05	2.82755464409286E-04
1.0	1.1	2.84795668662371E-04
1.0	1.15	2.86803569076297E-04
1.0	1.2	2.88781457269604E-04
1.1	0.0	-1.77639821951643E-18
1.1	0.05	6.40648505624259E-05
1.1	0.1	1.20729877718243E-04
1.1	0.15	1.69991798417201E-04
1.1	0.2	2.12028827569209E-04
1.1	0.25	2.47128637011909E-04
1.1	0.3	2.75683529357690E-04
1.1	0.35	2.98205165488504E-04
1.1	0.4	3.15347367029909E-04
1.1	0.45	3.27926235975545E-04
1.1	0.5	3.36912494395047E-04
1.1	0.55	3.43352675992186E-04
1.1	0.6	3.48201427657128E-04
1.1	0.65	3.52159048517906E-04
1.1	0.7	3.55639017604391E-04
1.1	0.75	3.58844853576058E-04
1.1	0.8	3.61871284142868E-04
1.1	0.85	3.64766790923217E-04
1.1	0.9	3.67559648934547E-04
1.1	0.95	3.70268474199826E-04
1.1	1.0	3.72905700041305E-04
1.1	1.05	3.75481038140388E-04
1.1	1.1	3.78001696722964E-04
1.1	1.15	3.80473105035289E-04
1.1	1.2	3.82900331468067E-04
1.2	0.0	1.77739677513322E-17
1.2	0.05	7.20896887317792E-05
1.2	0.1	1.37071850750147E-04
1.2	0.15	1.94882942087298E-04
1.2	0.2	2.45626208317709E-04
1.2	0.25	2.89489747040710E-04
1.2	0.3	3.26733028408086E-04
1.2	0.35	3.57691678440063E-04
1.2	0.4	3.82791702885891E-04
1.2	0.45	4.02569648292643E-04
1.2	0.5	4.17692570234558E-04
1.2	0.55	4.28965140554010E-04
1.2	0.6	4.37296501358694E-04
1.2	0.65	4.43599219414886E-04
1.2	0.7	4.48645588315912E-04
1.2	0.75	4.52971759758839E-04
1.2	0.8	4.56883432466369E-04
1.2	0.85	4.60532409720386E-04
1.2	0.9	4.63995417613993E-04
1.2	0.95	4.67316738816640E-04
1.2	1.0	4.70523610593033E-04
1.2	1.05	4.73634665713583E-04
1.2	1.1	4.76664003712308E-04
1.2	1.15	4.79621493990959E-04
1.2	1.2	4.82515139213352E-04