vg	vd	ids
0.0	0.0	-3.05210640216253E-18
0.0	0.05	6.92610094991261E-14
0.0	0.1	7.97355222330957E-14
0.0	0.15	8.32367484384140E-14
0.0	0.2	8.63972639705197E-14
0.0	0.25	8.94675913968829E-14
0.0	0.3	9.28876589824544E-14
0.0	0.35	9.60276790255180E-14
0.0	0.4	9.96032089023446E-14
0.0	0.45	1.02966000787203E-13
0.0	0.5	1.06646870811990E-13
0.0	0.55	1.10375035465472E-13
0.0	0.6	1.14211156350274E-13
0.0	0.65	1.18357163688494E-13
0.0	0.7	1.22389645192949E-13
0.0	0.75	1.26608160162140E-13
0.0	0.8	1.31138079479141E-13
0.0	0.85	1.35628061831309E-13
0.0	0.9	1.40448375914433E-13
0.0	0.95	1.45239543323621E-13
0.0	1.0	1.50367245185121E-13
0.0	1.05	1.55628130318770E-13
0.0	1.1	1.61058403641553E-13
0.0	1.15	1.66548094982356E-13
0.0	1.2	1.72312553346346E-13
0.1	0.0	6.49091303644209E-17
0.1	0.05	2.30754352880966E-12
0.1	0.1	2.66387303633379E-12
0.1	0.15	2.78866773298755E-12
0.1	0.2	2.89627843670614E-12
0.1	0.25	3.00584398088689E-12
0.1	0.3	3.11810427914574E-12
0.1	0.35	3.23326567376679E-12
0.1	0.4	3.35186628538658E-12
0.1	0.45	3.47402846042615E-12
0.1	0.5	3.59968619352072E-12
0.1	0.55	3.72892934244936E-12
0.1	0.6	3.86238695809465E-12
0.1	0.65	3.99975815570746E-12
0.1	0.7	4.14170650583973E-12
0.1	0.75	4.28795755051584E-12
0.1	0.8	4.43895018484986E-12
0.1	0.85	4.59474796320708E-12
0.1	0.9	4.75583807543532E-12
0.1	0.95	4.92216956408672E-12
0.1	1.0	5.09395517764109E-12
0.1	1.05	5.27162009575100E-12
0.1	1.1	5.45521260916195E-12
0.1	1.15	5.64515150083055E-12
0.1	1.2	5.84133034886980E-12
0.2	0.0	3.15923688603244E-17
0.2	0.05	7.81415308746525E-11
0.2	0.1	9.04863281039552E-11
0.2	0.15	9.49012424700366E-11
0.2	0.2	9.87014539451585E-11
0.2	0.25	1.02552909254126E-10
0.2	0.3	1.06489083452671E-10
0.2	0.35	1.10532814288528E-10
0.2	0.4	1.14665092366628E-10
0.2	0.45	1.18925844741429E-10
0.2	0.5	1.23296771591611E-10
0.2	0.55	1.27789582338025E-10
0.2	0.6	1.32410992212967E-10
0.2	0.65	1.37167608295931E-10
0.2	0.7	1.42063471462057E-10
0.2	0.75	1.47104236092659E-10
0.2	0.8	1.52296586221762E-10
0.2	0.85	1.57646976965358E-10
0.2	0.9	1.63161215927707E-10
0.2	0.95	1.68845664461553E-10
0.2	1.0	1.74707026040085E-10
0.2	1.05	1.80752055574341E-10
0.2	1.1	1.86987336266799E-10
0.2	1.15	1.93420388774240E-10
0.2	1.2	2.00058189881063E-10
0.3	0.0	1.40031148641912E-17
0.3	0.05	2.66580195208416E-09
0.3	0.1	3.09791171397976E-09
0.3	0.15	3.25542032315944E-09
0.3	0.2	3.39019531905626E-09
0.3	0.25	3.52599972887902E-09
0.3	0.3	3.66432817886351E-09
0.3	0.35	3.80574522437275E-09
0.3	0.4	3.95066154420489E-09
0.3	0.45	4.09899924576719E-09
0.3	0.5	4.25096326580121E-09
0.3	0.55	4.40678915592958E-09
0.3	0.6	4.56669183051175E-09
0.3	0.65	4.73086393087263E-09
0.3	0.7	4.89949631330134E-09
0.3	0.75	5.07277434559168E-09
0.3	0.8	5.25088064246924E-09
0.3	0.85	5.43399752806436E-09
0.3	0.9	5.62231190047002E-09
0.3	0.95	5.81601266815246E-09
0.3	1.0	6.01529077700767E-09
0.3	1.05	6.22034314251403E-09
0.3	1.1	6.43136908343656E-09
0.3	1.15	6.64857310521770E-09
0.3	1.2	6.87216534535024E-09
0.4	0.0	-1.01445500153895E-18
0.4	0.05	8.87136625890274E-08
0.4	0.1	1.03828658414583E-07
0.4	0.15	1.09357076806462E-07
0.4	0.2	1.13983700793046E-07
0.4	0.25	1.18587312776930E-07
0.4	0.3	1.23251421563176E-07
0.4	0.35	1.27993825631075E-07
0.4	0.4	1.32814769519078E-07
0.4	0.45	1.37728137273307E-07
0.4	0.5	1.42742100039352E-07
0.4	0.55	1.47863343088041E-07
0.4	0.6	1.53098068660390E-07
0.4	0.65	1.58451977816213E-07
0.4	0.7	1.63930415693059E-07
0.4	0.75	1.69538501984747E-07
0.4	0.8	1.75281213875777E-07
0.4	0.85	1.81163360806791E-07
0.4	0.9	1.87189727722296E-07
0.4	0.95	1.93365015154883E-07
0.4	1.0	1.99693908694290E-07
0.4	1.05	2.06181143554788E-07
0.4	1.1	2.12831433372419E-07
0.4	1.15	2.19649567478833E-07
0.4	1.2	2.26640388033594E-07
0.5	0.0	3.05841535728699E-17
0.5	0.05	1.97286855300812E-06
0.5	0.1	2.43517764842539E-06
0.5	0.15	2.57913752653725E-06
0.5	0.2	2.67795749053894E-06
0.5	0.25	2.77069947434161E-06
0.5	0.3	2.86202431747860E-06
0.5	0.35	2.95288198095046E-06
0.5	0.4	3.04375312127185E-06
0.5	0.45	3.13493584557805E-06
0.5	0.5	3.22662670004231E-06
0.5	0.55	3.31896808158315E-06
0.5	0.6	3.41207110219774E-06
0.5	0.65	3.50602381080026E-06
0.5	0.7	3.60090173675112E-06
0.5	0.75	3.69676488603661E-06
0.5	0.8	3.79367053739873E-06
0.5	0.85	3.89166308878503E-06
0.5	0.9	3.99078677242813E-06
0.5	0.95	4.09107917659967E-06
0.5	1.0	4.19257244497275E-06
0.5	1.05	4.29530108174766E-06
0.5	1.1	4.39929120748360E-06
0.5	1.15	4.50457070280764E-06
0.5	1.2	4.61116706908259E-06
0.6	0.0	1.76147018712992E-17
0.6	0.05	1.07113847442924E-05
0.6	0.1	1.59838669048141E-05
0.6	0.15	1.80621353743634E-05
0.6	0.2	1.89151533044670E-05
0.6	0.25	1.94580070064888E-05
0.6	0.3	1.99288526635576E-05
0.6	0.35	2.03743009426386E-05
0.6	0.4	2.08061603744175E-05
0.6	0.45	2.12294725221050E-05
0.6	0.5	2.16468219159416E-05
0.6	0.55	2.20597710066680E-05
0.6	0.6	2.24694130551296E-05
0.6	0.65	2.28765144738626E-05
0.6	0.7	2.32816920924888E-05
0.6	0.75	2.36854177317012E-05
0.6	0.8	2.40880604609899E-05
0.6	0.85	2.44899752899859E-05
0.6	0.9	2.48913863076082E-05
0.6	0.95	2.52925678487329E-05
0.6	1.0	2.56936838642715E-05
0.6	1.05	2.60949159187483E-05
0.6	1.1	2.64964212640489E-05
0.6	1.15	2.68983226292880E-05
0.6	1.2	2.73007396153670E-05
0.7	0.0	5.28999727335722E-17
0.7	0.05	2.26679116601318E-05
0.7	0.1	3.83154667829206E-05
0.7	0.15	4.79695558907931E-05
0.7	0.2	5.31966149236878E-05
0.7	0.25	5.58349230262001E-05
0.7	0.3	5.73652585302208E-05
0.7	0.35	5.85248905686916E-05
0.7	0.4	5.95532450558346E-05
0.7	0.45	6.05204710448876E-05
0.7	0.5	6.14514661545450E-05
0.7	0.55	6.23572039574627E-05
0.7	0.6	6.32436264820104E-05
0.7	0.65	6.41146553102584E-05
0.7	0.7	6.49728219045625E-05
0.7	0.75	6.58201202057609E-05
0.7	0.8	6.66580546569966E-05
0.7	0.85	6.74878407699129E-05
0.7	0.9	6.83104165726299E-05
0.7	0.95	6.91267220390468E-05
0.7	1.0	6.99373107710365E-05
0.7	1.05	7.07428907953037E-05
0.7	1.1	7.15439639792763E-05
0.7	1.15	7.23409094414607E-05
0.7	1.2	7.31342278974714E-05
0.8	0.0	-5.82751668561181E-17
0.8	0.05	3.44944276548296E-05
0.8	0.1	6.16098227350569E-05
0.8	0.15	8.17876273741021E-05
0.8	0.2	9.58025356277687E-05
0.8	0.25	1.04772056927436E-04
0.8	0.3	1.10122385461960E-04
0.8	0.35	1.13344222317035E-04
0.8	0.4	1.15570791430169E-04
0.8	0.45	1.17388061529679E-04
0.8	0.5	1.19025169121614E-04
0.8	0.55	1.20566415495543E-04
0.8	0.6	1.22045982017054E-04
0.8	0.65	1.23480525175688E-04
0.8	0.7	1.24879323049256E-04
0.8	0.75	1.26248680308241E-04
0.8	0.8	1.27592989369835E-04
0.8	0.85	1.28915688340594E-04
0.8	0.9	1.30219327136923E-04
0.8	0.95	1.31505930724067E-04
0.8	1.0	1.32777340484826E-04
0.8	1.05	1.34034964237274E-04
0.8	1.1	1.35279814643008E-04
0.8	1.15	1.36513269838061E-04
0.8	1.2	1.37736117857519E-04
0.9	0.0	5.18669064185971E-17
0.9	0.05	4.54175177032889E-05
0.9	0.1	8.35041025508355E-05
0.9	0.15	1.14428651632868E-04
0.9	0.2	1.38588006397811E-04
0.9	0.25	1.56586241081253E-04
0.9	0.3	1.69263282276030E-04
0.9	0.35	1.77709743649024E-04
0.9	0.4	1.83193990488126E-04
0.9	0.45	1.86928637886102E-04
0.9	0.5	1.89784943177134E-04
0.9	0.55	1.92228927279764E-04
0.9	0.6	1.94464293106218E-04
0.9	0.65	1.96575872297079E-04
0.9	0.7	1.98601937723381E-04
0.9	0.75	2.00563163900749E-04
0.9	0.8	2.02471723811775E-04
0.9	0.85	2.04336552323604E-04
0.9	0.9	2.06163427502290E-04
0.9	0.95	2.07957451089814E-04
0.9	1.0	2.09721756931939E-04
0.9	1.05	2.11459670681482E-04
0.9	1.1	2.13173755627285E-04
0.9	1.15	2.14865921644071E-04
0.9	1.2	2.16537873315947E-04
1.0	0.0	1.75993364263964E-17
1.0	0.05	5.52492962092257E-05
1.0	0.1	1.03390227034277E-04
1.0	0.15	1.44442391052418E-04
1.0	0.2	1.78606532216621E-04
1.0	0.25	2.06218834978843E-04
1.0	0.3	2.27761572817865E-04
1.0	0.35	2.43889143203721E-04
1.0	0.4	2.55451776706328E-04
1.0	0.45	2.63483103575451E-04
1.0	0.5	2.69095281504650E-04
1.0	0.55	2.73270074180368E-04
1.0	0.6	2.76684163276499E-04
1.0	0.65	2.79705511417092E-04
1.0	0.7	2.82503918990677E-04
1.0	0.75	2.85156966747898E-04
1.0	0.8	2.87704025481933E-04
1.0	0.85	2.90167694922375E-04
1.0	0.9	2.92563251432593E-04
1.0	0.95	2.94900816996783E-04
1.0	1.0	2.97188481624816E-04
1.0	1.05	2.99431836248711E-04
1.0	1.1	3.01635749328136E-04
1.0	1.15	3.03803501079057E-04
1.0	1.2	3.05939142018086E-04
1.1	0.0	-3.85089368754374E-17
1.1	0.05	6.39867190008802E-05
1.1	0.1	1.21162740562441E-04
1.1	0.15	1.71461769745711E-04
1.1	0.2	2.14974381949381E-04
1.1	0.25	2.51888230692446E-04
1.1	0.3	2.82485547120899E-04
1.1	0.35	3.07156848755891E-04
1.1	0.4	3.26423320094775E-04
1.1	0.45	3.40960310231961E-04
1.1	0.5	3.51605698511105E-04
1.1	0.55	3.59319596799468E-04
1.1	0.6	3.65062373371657E-04
1.1	0.65	3.69627467274706E-04
1.1	0.7	3.73541876868149E-04
1.1	0.75	3.77089364960053E-04
1.1	0.8	3.80406611860382E-04
1.1	0.85	3.83561843304800E-04
1.1	0.9	3.86594379550316E-04
1.1	0.95	3.89527062550222E-04
1.1	1.0	3.92377872905894E-04
1.1	1.05	3.95157805083939E-04
1.1	1.1	3.97876788081445E-04
1.1	1.15	4.00540370246381E-04
1.1	1.2	4.03155581360723E-04
1.2	0.0	3.64913740115251E-17
1.2	0.05	7.17033098640753E-05
1.2	0.1	1.36916346768536E-04
1.2	0.15	1.95524148086072E-04
1.2	0.2	2.47554722071523E-04
1.2	0.25	2.93110897583436E-04
1.2	0.3	3.32360068571003E-04
1.2	0.35	3.65538860397124E-04
1.2	0.4	3.92966567059235E-04
1.2	0.45	4.15063911021832E-04
1.2	0.5	4.32374430794461E-04
1.2	0.55	4.45579915253928E-04
1.2	0.6	4.55490280257786E-04
1.2	0.65	4.62980567054773E-04
1.2	0.7	4.68869878581153E-04
1.2	0.75	4.73796430671816E-04
1.2	0.8	4.78164306950094E-04
1.2	0.85	4.82188615354387E-04
1.2	0.9	4.85977862474434E-04
1.2	0.95	4.89593366337792E-04
1.2	1.0	4.93071954090005E-04
1.2	1.05	4.96437677258098E-04
1.2	1.1	4.99709642479224E-04
1.2	1.15	5.02899240790002E-04
1.2	1.2	5.06017391571756E-04