vg	vd	ids
0.0	0.0	4.29912431273790E-17
0.0	0.05	8.17093436240815E-13
0.0	0.1	9.67771105353764E-13
0.0	0.15	1.07775557810352E-12
0.0	0.2	1.19902491813742E-12
0.0	0.25	1.33451243883818E-12
0.0	0.3	1.48645822061410E-12
0.0	0.35	1.65658136208755E-12
0.0	0.4	1.84874240549264E-12
0.0	0.45	2.06683962454308E-12
0.0	0.5	2.31373625096429E-12
0.0	0.55	2.59602778693062E-12
0.0	0.6	2.92011155297110E-12
0.0	0.65	3.29421626227012E-12
0.0	0.7	3.72707737495688E-12
0.0	0.75	4.23146041963779E-12
0.0	0.8	4.82439186197706E-12
0.0	0.85	5.52715415398161E-12
0.0	0.9	6.35910737776742E-12
0.0	0.95	7.35598284362328E-12
0.0	1.0	8.55702977282763E-12
0.0	1.05	1.00138349936101E-11
0.0	1.1	1.17931124559120E-11
0.0	1.15	1.39796791634634E-11
0.0	1.2	1.66834017805924E-11
0.1	0.0	-4.19998899073907E-17
0.1	0.05	2.36150720692293E-11
0.1	0.1	2.78941486979899E-11
0.1	0.15	3.08470344304680E-11
0.1	0.2	3.40335715611212E-11
0.1	0.25	3.75267154030247E-11
0.1	0.3	4.13621069096245E-11
0.1	0.35	4.55808509731790E-11
0.1	0.4	5.02282798625405E-11
0.1	0.45	5.53354618636818E-11
0.1	0.5	6.10063791285579E-11
0.1	0.55	6.72796315173604E-11
0.1	0.6	7.42536141395877E-11
0.1	0.65	8.20611731973763E-11
0.1	0.7	9.07343405205546E-11
0.1	0.75	1.00444037630577E-10
0.1	0.8	1.11349372674358E-10
0.1	0.85	1.23636297999356E-10
0.1	0.9	1.37536929684642E-10
0.1	0.95	1.53319467664227E-10
0.1	1.0	1.71315677914110E-10
0.1	1.05	1.91927927886922E-10
0.1	1.1	2.15643645369075E-10
0.1	1.15	2.43063240546840E-10
0.1	1.2	2.74924300476329E-10
0.2	0.0	2.03608403145205E-17
0.2	0.05	6.98709891797079E-10
0.2	0.1	8.25515991189265E-10
0.2	0.15	9.09219577949687E-10
0.2	0.2	9.97967252045806E-10
0.2	0.25	1.09392982089752E-09
0.2	0.3	1.19782580127274E-09
0.2	0.35	1.31043918106278E-09
0.2	0.4	1.43261843006604E-09
0.2	0.45	1.56446551704014E-09
0.2	0.5	1.70891336543114E-09
0.2	0.55	1.86601421657049E-09
0.2	0.6	2.03702660881646E-09
0.2	0.65	2.22354534753565E-09
0.2	0.7	2.42687078688831E-09
0.2	0.75	2.64905596041054E-09
0.2	0.8	2.89221808577161E-09
0.2	0.85	3.15869168703060E-09
0.2	0.9	3.45118597168119E-09
0.2	0.95	3.77281196817709E-09
0.2	1.0	4.12712589190909E-09
0.2	1.05	4.51826063948486E-09
0.2	1.1	4.95099398532338E-09
0.2	1.15	5.43087652486979E-09
0.2	1.2	5.96440067599645E-09
0.3	0.0	4.17647028330600E-17
0.3	0.05	2.07656550800509E-08
0.3	0.1	2.46080457287661E-08
0.3	0.15	2.70434403428027E-08
0.3	0.2	2.95759692414325E-08
0.3	0.25	3.22775785991315E-08
0.3	0.3	3.51651560860743E-08
0.3	0.35	3.82558092797747E-08
0.3	0.4	4.15662010500655E-08
0.3	0.45	4.51078585844296E-08
0.3	0.5	4.89171915764855E-08
0.3	0.55	5.30006946901200E-08
0.3	0.6	5.73831667132372E-08
0.3	0.65	6.20871763416646E-08
0.3	0.7	6.71399964713094E-08
0.3	0.75	7.25692193133550E-08
0.3	0.8	7.84052254307141E-08
0.3	0.85	8.46814420439306E-08
0.3	0.9	9.14343184318675E-08
0.3	0.95	9.87039489236723E-08
0.3	1.0	1.06534436219721E-07
0.3	1.05	1.14974536747061E-07
0.3	1.1	1.24078186993716E-07
0.3	1.15	1.33905108148629E-07
0.3	1.2	1.44521833704900E-07
0.4	0.0	1.29621317936191E-16
0.4	0.05	5.72247182246823E-07
0.4	0.1	6.85449405942487E-07
0.4	0.15	7.51047515859210E-07
0.4	0.2	8.16395264700366E-07
0.4	0.25	8.84380766335392E-07
0.4	0.3	9.55489714228198E-07
0.4	0.35	1.02997009363251E-06
0.4	0.4	1.10833308546339E-06
0.4	0.45	1.19062911264555E-06
0.4	0.5	1.27715268747648E-06
0.4	0.55	1.36811859022420E-06
0.4	0.6	1.46375375479632E-06
0.4	0.65	1.56429177859022E-06
0.4	0.7	1.66996430258752E-06
0.4	0.75	1.78101029498034E-06
0.4	0.8	1.89767287381353E-06
0.4	0.85	2.02020445695209E-06
0.4	0.9	2.14886577414151E-06
0.4	0.95	2.28392650622101E-06
0.4	1.0	2.42566954740117E-06
0.4	1.05	2.57438714877427E-06
0.4	1.1	2.73038770218178E-06
0.4	1.15	2.89399343086390E-06
0.4	1.2	3.06554307290297E-06
0.5	0.0	-5.88346211539393E-17
0.5	0.05	8.01915775191805E-06
0.5	0.1	1.03421651379838E-05
0.5	0.15	1.12591597748847E-05
0.5	0.2	1.19865315705138E-05
0.5	0.25	1.26862867877288E-05
0.5	0.3	1.33796978780545E-05
0.5	0.35	1.40750447691755E-05
0.5	0.4	1.47754997689907E-05
0.5	0.45	1.54834262546863E-05
0.5	0.5	1.62002667343323E-05
0.5	0.55	1.69269350581454E-05
0.5	0.6	1.76641881827773E-05
0.5	0.65	1.84124842601121E-05
0.5	0.7	1.91723180952641E-05
0.5	0.75	1.99439605854872E-05
0.5	0.8	2.07277434177446E-05
0.5	0.85	2.15238904228653E-05
0.5	0.9	2.23326298908803E-05
0.5	0.95	2.31541619136190E-05
0.5	1.0	2.39887071033334E-05
0.5	1.05	2.48363953389178E-05
0.5	1.1	2.56974874126019E-05
0.5	1.15	2.65721202293696E-05
0.5	1.2	2.74605056055944E-05
0.6	0.0	-9.92957743059445E-17
0.6	0.05	2.88969380727670E-05
0.6	0.1	4.41444349187942E-05
0.6	0.15	5.08872587505902E-05
0.6	0.2	5.41340979147284E-05
0.6	0.25	5.64506575910902E-05
0.6	0.3	5.85136867214156E-05
0.6	0.35	6.04684754283137E-05
0.6	0.4	6.23661051274079E-05
0.6	0.45	6.42283991565572E-05
0.6	0.5	6.60673792428111E-05
0.6	0.55	6.78895931052436E-05
0.6	0.6	6.97000157586129E-05
0.6	0.65	7.15018508890113E-05
0.6	0.7	7.32975153947237E-05
0.6	0.75	7.50890742241203E-05
0.6	0.8	7.68777715781072E-05
0.6	0.85	7.86651654880099E-05
0.6	0.9	8.04520631332202E-05
0.6	0.95	8.22393832643950E-05
0.6	1.0	8.40279777155806E-05
0.6	1.05	8.58184047289362E-05
0.6	1.1	8.76113761936613E-05
0.6	1.15	8.94074750632662E-05
0.6	1.2	9.12070593469611E-05
0.7	0.0	-1.37511233470739E-16
0.7	0.05	5.25666116193873E-05
0.7	0.1	8.86003713367748E-05
0.7	0.15	1.10843059843006E-04
0.7	0.2	1.23205320868860E-04
0.7	0.25	1.30006675330275E-04
0.7	0.3	1.34519939212715E-04
0.7	0.35	1.38217696200896E-04
0.7	0.4	1.41574345428095E-04
0.7	0.45	1.44755070719708E-04
0.7	0.5	1.47825986439787E-04
0.7	0.55	1.50818679384008E-04
0.7	0.6	1.53751483048442E-04
0.7	0.65	1.56635708963284E-04
0.7	0.7	1.59480055746210E-04
0.7	0.75	1.62290493202202E-04
0.7	0.8	1.65071264855019E-04
0.7	0.85	1.67826625486409E-04
0.7	0.9	1.70559354633028E-04
0.7	0.95	1.73271841323211E-04
0.7	1.0	1.75966868870991E-04
0.7	1.05	1.78645404426497E-04
0.7	1.1	1.81309553913601E-04
0.7	1.15	1.83960930027123E-04
0.7	1.2	1.86600379949563E-04
0.8	0.0	4.61569083674028E-17
0.8	0.05	7.43091743893883E-05
0.8	0.1	1.31378877412698E-04
0.8	0.15	1.72727533205308E-04
0.8	0.2	2.00721402435240E-04
0.8	0.25	2.18385601758758E-04
0.8	0.3	2.29211093055014E-04
0.8	0.35	2.36385870431398E-04
0.8	0.4	2.41926057419224E-04
0.8	0.45	2.46743881148769E-04
0.8	0.5	2.51198240989144E-04
0.8	0.55	2.55435858996811E-04
0.8	0.6	2.59522614090529E-04
0.8	0.65	2.63494552258056E-04
0.8	0.7	2.67374624203321E-04
0.8	0.75	2.71177508334917E-04
0.8	0.8	2.74914967756819E-04
0.8	0.85	2.78594234312744E-04
0.8	0.9	2.82222751240979E-04
0.8	0.95	2.85805820076368E-04
0.8	1.0	2.89347412115866E-04
0.8	1.05	2.92851469901855E-04
0.8	1.1	2.96321268745816E-04
0.8	1.15	2.99759307976152E-04
0.8	1.2	3.03169226823822E-04
0.9	0.0	1.45063795344646E-16
0.9	0.05	9.32967229026278E-05
0.9	0.1	1.69490536442890E-04
0.9	0.15	2.29454624735889E-04
0.9	0.2	2.74717971627960E-04
0.9	0.25	3.07249537238285E-04
0.9	0.3	3.29476491891394E-04
0.9	0.35	3.44210534709553E-04
0.9	0.4	3.54270722920553E-04
0.9	0.45	3.61841015105505E-04
0.9	0.5	3.68193548168252E-04
0.9	0.55	3.73928994673754E-04
0.9	0.6	3.79303240916365E-04
0.9	0.65	3.84434880497940E-04
0.9	0.7	3.89385418798240E-04
0.9	0.75	3.94193200571233E-04
0.9	0.8	3.98882276894699E-04
0.9	0.85	4.03470637074287E-04
0.9	0.9	4.07970665118891E-04
0.9	0.95	4.12394076744187E-04
0.9	1.0	4.16747037229202E-04
0.9	1.05	4.21037424272499E-04
0.9	1.1	4.25272359037700E-04
0.9	1.15	4.29451618831569E-04
0.9	1.2	4.33584822295898E-04
1.0	0.0	6.46112809245374E-17
1.0	0.05	1.09572835884082E-04
1.0	0.1	2.02541062515522E-04
1.0	0.15	2.79410840779016E-04
1.0	0.2	3.41240300786341E-04
1.0	0.25	3.89385855203802E-04
1.0	0.3	4.25499200466685E-04
1.0	0.35	4.51556684554694E-04
1.0	0.4	4.69850918216394E-04
1.0	0.45	4.82797862055427E-04
1.0	0.5	4.92516939374997E-04
1.0	0.55	5.00483435311268E-04
1.0	0.6	5.07522790950557E-04
1.0	0.65	5.14025528374886E-04
1.0	0.7	5.20173257664096E-04
1.0	0.75	5.26061023748156E-04
1.0	0.8	5.31747465512781E-04
1.0	0.85	5.37268744726639E-04
1.0	0.9	5.42650143176862E-04
1.0	0.95	5.47912598567554E-04
1.0	1.0	5.53068546890475E-04
1.0	1.05	5.58130697567940E-04
1.0	1.1	5.63109016418135E-04
1.0	1.15	5.68009990928683E-04
1.0	1.2	5.72841582796141E-04
1.1	0.0	9.11478508399536E-17
1.1	0.05	1.23435260584492E-04
1.1	0.1	2.30893771334765E-04
1.1	0.15	3.22673507174718E-04
1.1	0.2	3.99561606415126E-04
1.1	0.25	4.62558663579762E-04
1.1	0.3	5.12847168669264E-04
1.1	0.35	5.51811380150633E-04
1.1	0.4	5.81081159489994E-04
1.1	0.45	6.02545203677110E-04
1.1	0.5	6.18255183620255E-04
1.1	0.55	6.30161551984973E-04
1.1	0.6	6.39805334219382E-04
1.1	0.65	6.48180038082730E-04
1.1	0.7	6.55813473334719E-04
1.1	0.75	6.62963977497497E-04
1.1	0.8	6.69764775252854E-04
1.1	0.85	6.76297572381027E-04
1.1	0.9	6.82612431946120E-04
1.1	0.95	6.88747847247017E-04
1.1	1.0	6.94727105030466E-04
1.1	1.05	7.00572688241312E-04
1.1	1.1	7.06297710459741E-04
1.1	1.15	7.11915891332082E-04
1.1	1.2	7.17437140189570E-04
1.2	0.0	-5.09061549770742E-17
1.2	0.05	1.35242434809157E-04
1.2	0.1	2.55148386078269E-04
1.2	0.15	3.59901558504294E-04
1.2	0.2	4.50135864375583E-04
1.2	0.25	5.26646364550928E-04
1.2	0.3	5.90338405913342E-04
1.2	0.35	6.42230855176558E-04
1.2	0.4	6.83489882078463E-04
1.2	0.45	7.15470292166598E-04
1.2	0.5	7.39740470213106E-04
1.2	0.55	7.58038147656514E-04
1.2	0.6	7.72109856643676E-04
1.2	0.65	7.83469198065587E-04
1.2	0.7	7.93210725628778E-04
1.2	0.75	8.01986154124139E-04
1.2	0.8	8.10133436744480E-04
1.2	0.85	8.17833437718831E-04
1.2	0.9	8.25190983700239E-04
1.2	0.95	8.32276699720302E-04
1.2	1.0	8.39136412050912E-04
1.2	1.05	8.45801973957727E-04
1.2	1.1	8.52302244874694E-04
1.2	1.15	8.58655555111525E-04
1.2	1.2	8.64878017519253E-04