vg	vd	ids
0.0	0.0	8.34301959981087E-19
0.0	0.05	9.33394922157721E-14
0.0	0.1	1.04287808969820E-13
0.0	0.15	1.07277128802862E-13
0.0	0.2	1.09839185820263E-13
0.0	0.25	1.12538964935548E-13
0.0	0.3	1.15292915824993E-13
0.0	0.35	1.18183348902550E-13
0.0	0.4	1.20784556937821E-13
0.0	0.45	1.23455518077050E-13
0.0	0.5	1.26359143579095E-13
0.0	0.55	1.29113144304482E-13
0.0	0.6	1.31998952390133E-13
0.0	0.65	1.35277756084441E-13
0.0	0.7	1.38068107471283E-13
0.0	0.75	1.41074745562114E-13
0.0	0.8	1.44399192095645E-13
0.0	0.85	1.47624262137710E-13
0.0	0.9	1.50741680853971E-13
0.0	0.95	1.54249352782205E-13
0.0	1.0	1.57423041112879E-13
0.0	1.05	1.61023985766452E-13
0.0	1.1	1.64389888367554E-13
0.0	1.15	1.68211842833570E-13
0.0	1.2	1.71972506208497E-13
0.1	0.0	-2.14212312374450E-17
0.1	0.05	3.14638188888408E-12
0.1	0.1	3.52274796744489E-12
0.1	0.15	3.62987327551832E-12
0.1	0.2	3.72480238124654E-12
0.1	0.25	3.82047146259633E-12
0.1	0.3	3.91696348028934E-12
0.1	0.35	4.01498485904639E-12
0.1	0.4	4.11392555941042E-12
0.1	0.45	4.21431101833238E-12
0.1	0.5	4.31602080246631E-12
0.1	0.55	4.41931021958607E-12
0.1	0.6	4.52423109139791E-12
0.1	0.65	4.63109206757170E-12
0.1	0.7	4.73919751847676E-12
0.1	0.75	4.85018430968857E-12
0.1	0.8	4.96172736940305E-12
0.1	0.85	5.07579358843242E-12
0.1	0.9	5.19249854610780E-12
0.1	0.95	5.31040579332841E-12
0.1	1.0	5.43126608003543E-12
0.1	1.05	5.55409871874437E-12
0.1	1.1	5.67939237173580E-12
0.1	1.15	5.80721723681117E-12
0.1	1.2	5.93734283714745E-12
0.2	0.0	5.44589019647495E-18
0.2	0.05	1.08205442560818E-10
0.2	0.1	1.21571593858171E-10
0.2	0.15	1.25495297597710E-10
0.2	0.2	1.28959880693464E-10
0.2	0.25	1.32443148829011E-10
0.2	0.3	1.35957473899859E-10
0.2	0.35	1.39508603038811E-10
0.2	0.4	1.43099663231391E-10
0.2	0.45	1.46736542977318E-10
0.2	0.5	1.50419611385127E-10
0.2	0.55	1.54156056358501E-10
0.2	0.6	1.57947844436141E-10
0.2	0.65	1.61797296658644E-10
0.2	0.7	1.65713012778490E-10
0.2	0.75	1.69682130201969E-10
0.2	0.8	1.73723791125484E-10
0.2	0.85	1.77834850908530E-10
0.2	0.9	1.82018563448140E-10
0.2	0.95	1.86276940399001E-10
0.2	1.0	1.90610742348471E-10
0.2	1.05	1.95026510860796E-10
0.2	1.1	1.99524493228139E-10
0.2	1.15	2.04107374932439E-10
0.2	1.2	2.08779352132521E-10
0.3	0.0	-6.57137275956291E-17
0.3	0.05	3.76586339781995E-09
0.3	0.1	4.24731842914090E-09
0.3	0.15	4.39274865289315E-09
0.3	0.2	4.52022522941552E-09
0.3	0.25	4.64787349431747E-09
0.3	0.3	4.77630327720353E-09
0.3	0.35	4.90578363360888E-09
0.3	0.4	5.03648218208713E-09
0.3	0.45	5.16858291251503E-09
0.3	0.5	5.30226736394747E-09
0.3	0.55	5.43764915531446E-09
0.3	0.6	5.57494154888374E-09
0.3	0.65	5.71404675786585E-09
0.3	0.7	5.85525535038460E-09
0.3	0.75	5.99864168944640E-09
0.3	0.8	6.14428976021181E-09
0.3	0.85	6.29230261079116E-09
0.3	0.9	6.44275642216841E-09
0.3	0.95	6.59575674720186E-09
0.3	1.0	6.75139282669763E-09
0.3	1.05	6.90975519529290E-09
0.3	1.1	7.07093226102847E-09
0.3	1.15	7.23501265615234E-09
0.3	1.2	7.40208542643422E-09
0.4	0.0	-6.05329219178098E-17
0.4	0.05	1.29007429423471E-07
0.4	0.1	1.46508315826580E-07
0.4	0.15	1.51857616105178E-07
0.4	0.2	1.56441346118629E-07
0.4	0.25	1.60988496559892E-07
0.4	0.3	1.65536385772142E-07
0.4	0.35	1.70100569327716E-07
0.4	0.4	1.74691557746540E-07
0.4	0.45	1.79322421305728E-07
0.4	0.5	1.83987303550268E-07
0.4	0.55	1.88702505053223E-07
0.4	0.6	1.93470509221859E-07
0.4	0.65	1.98295285090920E-07
0.4	0.7	2.03180699223298E-07
0.4	0.75	2.08130362191301E-07
0.4	0.8	2.13147717115799E-07
0.4	0.85	2.18235992005778E-07
0.4	0.9	2.23398230060005E-07
0.4	0.95	2.28637353678017E-07
0.4	1.0	2.33956199934969E-07
0.4	1.05	2.39357531744748E-07
0.4	1.1	2.44844042304025E-07
0.4	1.15	2.50418379545186E-07
0.4	1.2	2.56083150267814E-07
0.5	0.0	5.98937446328928E-17
0.5	0.05	3.05857760683336E-06
0.5	0.1	3.65022652956578E-06
0.5	0.15	3.80123746005257E-06
0.5	0.2	3.90721068835768E-06
0.5	0.25	4.00781580092708E-06
0.5	0.3	4.10630412972177E-06
0.5	0.35	4.20380771947412E-06
0.5	0.4	4.30031886089892E-06
0.5	0.45	4.39659256387935E-06
0.5	0.5	4.49274846645170E-06
0.5	0.55	4.58893164664287E-06
0.5	0.6	4.68526074267911E-06
0.5	0.65	4.78183868891830E-06
0.5	0.7	4.87874953813161E-06
0.5	0.75	4.97606701028669E-06
0.5	0.8	5.07385618013802E-06
0.5	0.85	5.17217124744814E-06
0.5	0.9	5.27106602743019E-06
0.5	0.95	5.37058371636287E-06
0.5	1.0	5.47076574842006E-06
0.5	1.05	5.57165124291224E-06
0.5	1.1	5.67327174866575E-06
0.5	1.15	5.77566068457521E-06
0.5	1.2	5.87884790325264E-06
0.6	0.0	-3.13337910072115E-17
0.6	0.05	1.74595987133746E-05
0.6	0.1	2.53269213281258E-05
0.6	0.15	2.79460320752018E-05
0.6	0.2	2.88681872180479E-05
0.6	0.25	2.94699019239531E-05
0.6	0.3	3.00064848193544E-05
0.6	0.35	3.05164842136451E-05
0.6	0.4	3.10090154053572E-05
0.6	0.45	3.14906972300747E-05
0.6	0.5	3.19639973463770E-05
0.6	0.55	3.24304533574024E-05
0.6	0.6	3.28913427319344E-05
0.6	0.65	3.33474924478217E-05
0.6	0.7	3.37997089719897E-05
0.6	0.75	3.42484985972844E-05
0.6	0.8	3.46944083492347E-05
0.6	0.85	3.51378197553456E-05
0.6	0.9	3.55790861473654E-05
0.6	0.95	3.60185507247249E-05
0.6	1.0	3.64564532503963E-05
0.6	1.05	3.68930481921736E-05
0.6	1.1	3.73285468419511E-05
0.6	1.15	3.77631367009226E-05
0.6	1.2	3.81969811298147E-05
0.7	0.0	-5.54364093211235E-17
0.7	0.05	3.67717544991557E-05
0.7	0.1	6.11327172901022E-05
0.7	0.15	7.50954967396665E-05
0.7	0.2	8.17701177379045E-05
0.7	0.25	8.46713903985335E-05
0.7	0.3	8.62892747820184E-05
0.7	0.35	8.75691844005989E-05
0.7	0.4	8.87262785920106E-05
0.7	0.45	8.98221642061581E-05
0.7	0.5	9.08787805204587E-05
0.7	0.55	9.19058336852473E-05
0.7	0.6	9.29089501783310E-05
0.7	0.65	9.38922657465492E-05
0.7	0.7	9.48583937710738E-05
0.7	0.75	9.58095581019613E-05
0.7	0.8	9.67474944098400E-05
0.7	0.85	9.76735531788072E-05
0.7	0.9	9.85889749615268E-05
0.7	0.95	9.94948223470941E-05
0.7	1.0	1.00391829197516E-04
0.7	1.05	1.01280955319485E-04
0.7	1.1	1.02162747679685E-04
0.7	1.15	1.03037821832450E-04
0.7	1.2	1.03906747953391E-04
0.8	0.0	1.10210493581243E-16
0.8	0.05	5.47541665332387E-05
0.8	0.1	9.67463957662001E-05
0.8	0.15	1.26799809263454E-04
0.8	0.2	1.46431092698486E-04
0.8	0.25	1.57850160805199E-04
0.8	0.3	1.63851452674821E-04
0.8	0.35	1.67154813642920E-04
0.8	0.4	1.69460217712869E-04
0.8	0.45	1.71409327543090E-04
0.8	0.5	1.73202840916562E-04
0.8	0.55	1.74905852540154E-04
0.8	0.6	1.76545342271923E-04
0.8	0.65	1.78135380540799E-04
0.8	0.7	1.79684296689909E-04
0.8	0.75	1.81198580282678E-04
0.8	0.8	1.82682245078188E-04
0.8	0.85	1.84139134791310E-04
0.8	0.9	1.85571872086938E-04
0.8	0.95	1.86982614905649E-04
0.8	1.0	1.88373608347845E-04
0.8	1.05	1.89746503178397E-04
0.8	1.1	1.91102638717122E-04
0.8	1.15	1.92443399421338E-04
0.8	1.2	1.93769920091354E-04
0.9	0.0	2.29891206955936E-17
0.9	0.05	7.02562178303297E-05
0.9	0.1	1.28164137422826E-04
0.9	0.15	1.74030340513420E-04
0.9	0.2	2.08609925546041E-04
0.9	0.25	2.33076245679729E-04
0.9	0.3	2.49036758430318E-04
0.9	0.35	2.58625143336460E-04
0.9	0.4	2.64247101417707E-04
0.9	0.45	2.67935154773774E-04
0.9	0.5	2.70828174178617E-04
0.9	0.55	2.73387808749747E-04
0.9	0.6	2.75772986461919E-04
0.9	0.65	2.78043883435776E-04
0.9	0.7	2.80230126877430E-04
0.9	0.75	2.82348591584392E-04
0.9	0.8	2.84409977055628E-04
0.9	0.85	2.86422248353903E-04
0.9	0.9	2.88391193828464E-04
0.9	0.95	2.90321733865300E-04
0.9	1.0	2.92217630996552E-04
0.9	1.05	2.94081928828026E-04
0.9	1.1	2.95917614889627E-04
0.9	1.15	2.97726850551583E-04
0.9	1.2	2.99511740460560E-04
1.0	0.0	2.26470400861209E-17
1.0	0.05	8.33061952368351E-05
1.0	0.1	1.54909969419276E-04
1.0	0.15	2.14882037250611E-04
1.0	0.2	2.63633458066230E-04
1.0	0.25	3.01807728414945E-04
1.0	0.3	3.30296780235953E-04
1.0	0.35	3.50326511731556E-04
1.0	0.4	3.63518275492692E-04
1.0	0.45	3.71844001129199E-04
1.0	0.5	3.77289641417649E-04
1.0	0.55	3.81325597437724E-04
1.0	0.6	3.84733997814742E-04
1.0	0.65	3.87837152186826E-04
1.0	0.7	3.90752736554047E-04
1.0	0.75	3.93536644071034E-04
1.0	0.8	3.96218194095437E-04
1.0	0.85	3.98815809100110E-04
1.0	0.9	4.01342088635152E-04
1.0	0.95	4.03806717561396E-04
1.0	1.0	4.06216517618897E-04
1.0	1.05	4.08578164467047E-04
1.0	1.1	4.10895515856624E-04
1.0	1.15	4.13172698114847E-04
1.0	1.2	4.15413730618598E-04
1.1	0.0	4.03636307247868E-17
1.1	0.05	9.42261486993830E-05
1.1	0.1	1.77419655673616E-04
1.1	0.15	2.49548884474539E-04
1.1	0.2	3.10868137321491E-04
1.1	0.25	3.61773405992534E-04
1.1	0.3	4.02794013913123E-04
1.1	0.35	4.34633045978705E-04
1.1	0.4	4.58229012444827E-04
1.1	0.45	4.74826168830209E-04
1.1	0.5	4.85997215791466E-04
1.1	0.55	4.93500570280943E-04
1.1	0.6	4.98910059206613E-04
1.1	0.65	5.03282349684910E-04
1.1	0.7	5.07150845068712E-04
1.1	0.75	5.10732652835752E-04
1.1	0.8	5.14117906173230E-04
1.1	0.85	5.17357915398892E-04
1.1	0.9	5.20481622528107E-04
1.1	0.95	5.23508250486795E-04
1.1	1.0	5.26451778752918E-04
1.1	1.05	5.29323244605737E-04
1.1	1.1	5.32130836931944E-04
1.1	1.15	5.34880389242497E-04
1.1	1.2	5.37578358404200E-04
1.2	0.0	2.93852081001700E-17
1.2	0.05	1.03384050923549E-04
1.2	0.1	1.96348196873016E-04
1.2	0.15	2.78823489078220E-04
1.2	0.2	3.50999405420985E-04
1.2	0.25	4.13162275606729E-04
1.2	0.3	4.65668411935534E-04
1.2	0.35	5.08957565427334E-04
1.2	0.4	5.43587036776500E-04
1.2	0.45	5.70284680466446E-04
1.2	0.5	5.90011820089320E-04
1.2	0.55	6.04009629588626E-04
1.2	0.6	6.13758517006420E-04
1.2	0.65	6.20765395902230E-04
1.2	0.7	6.26246186562736E-04
1.2	0.75	6.30948988009503E-04
1.2	0.8	6.35226442450495E-04
1.2	0.85	6.39226067173647E-04
1.2	0.9	6.43026134212873E-04
1.2	0.95	6.46670178871904E-04
1.2	1.0	6.50187619184453E-04
1.2	1.05	6.53597098842827E-04
1.2	1.1	6.56915243798048E-04
1.2	1.15	6.60151414799566E-04
1.2	1.2	6.63315937445797E-04