vg	vd	ids
0.0	0.0	1.21722912646806E-17
0.0	0.05	1.55768728194675E-12
0.0	0.1	1.83764151607409E-12
0.0	0.15	2.09300437125743E-12
0.0	0.2	2.38543693163214E-12
0.0	0.25	2.72213857355060E-12
0.0	0.3	3.11185635334567E-12
0.0	0.35	3.56520115790027E-12
0.0	0.4	4.09548793347790E-12
0.0	0.45	4.71975583379925E-12
0.0	0.5	5.45922397510682E-12
0.0	0.55	6.34103390489572E-12
0.0	0.6	7.39984233428626E-12
0.0	0.65	8.68000223772912E-12
0.0	0.7	1.02399633424491E-11
0.0	0.75	1.21523163378842E-11
0.0	0.8	1.45153553732303E-11
0.0	0.85	1.74540426125874E-11
0.0	0.9	2.11329388083631E-11
0.0	0.95	2.57665038270550E-11
0.0	1.0	3.16364951000295E-11
0.0	1.05	3.91137232217497E-11
0.0	1.1	4.86772088310716E-11
0.0	1.15	6.09617676725305E-11
0.0	1.2	7.67693954055176E-11
0.1	0.0	5.51909760160485E-17
0.1	0.05	4.08664342561306E-11
0.1	0.1	4.79272137943951E-11
0.1	0.15	5.39414246831568E-11
0.1	0.2	6.06362329810205E-11
0.1	0.25	6.81204899622815E-11
0.1	0.3	7.65105262871214E-11
0.1	0.35	8.59429234101384E-11
0.1	0.4	9.65789311500267E-11
0.1	0.45	1.08609831937228E-10
0.1	0.5	1.22264911816007E-10
0.1	0.55	1.37819504697334E-10
0.1	0.6	1.55606609456878E-10
0.1	0.65	1.76029942460034E-10
0.1	0.7	1.99583410223163E-10
0.1	0.75	2.26872538147935E-10
0.1	0.8	2.58637682604438E-10
0.1	0.85	2.95801634827957E-10
0.1	0.9	3.39508895378621E-10
0.1	0.95	3.91187196717083E-10
0.1	1.0	4.52609910343711E-10
0.1	1.05	5.26026716100871E-10
0.1	1.1	6.14233136155521E-10
0.1	1.15	7.20704102219962E-10
0.1	1.2	8.49940913420060E-10
0.2	0.0	-4.30972274049671E-17
0.2	0.05	1.10868996995082E-09
0.2	0.1	1.29950963268133E-09
0.2	0.15	1.45344213230973E-09
0.2	0.2	1.62125739044890E-09
0.2	0.25	1.80509863685272E-09
0.2	0.3	2.00689876332870E-09
0.2	0.35	2.22881024934545E-09
0.2	0.4	2.47324881006935E-09
0.2	0.45	2.74295100350793E-09
0.2	0.5	3.04102667778688E-09
0.2	0.55	3.37103543113291E-09
0.2	0.6	3.73706412910262E-09
0.2	0.65	4.14382979716289E-09
0.2	0.7	4.59679804280977E-09
0.2	0.75	5.10233376910098E-09
0.2	0.8	5.66782073175365E-09
0.2	0.85	6.30201138805863E-09
0.2	0.9	7.01500020718613E-09
0.2	0.95	7.81906256168302E-09
0.2	1.0	8.72846253356993E-09
0.2	1.05	9.76025551312668E-09
0.2	1.1	1.09347803424253E-08
0.2	1.15	1.22762845622118E-08
0.2	1.2	1.38138991202359E-08
0.3	0.0	-5.73767603687265E-17
0.3	0.05	3.02390618721331E-08
0.3	0.1	3.55777267503888E-08
0.3	0.15	3.96699934630204E-08
0.3	0.2	4.40384206166195E-08
0.3	0.25	4.87368729472646E-08
0.3	0.3	5.38026999527029E-08
0.3	0.35	5.92742940566901E-08
0.3	0.4	6.51920439897955E-08
0.3	0.45	7.15996052007451E-08
0.3	0.5	7.85439539636116E-08
0.3	0.55	8.60764503559403E-08
0.3	0.6	9.42533146410200E-08
0.3	0.65	1.03136463203337E-07
0.3	0.7	1.12794297111828E-07
0.3	0.75	1.23302644763218E-07
0.3	0.8	1.34745843045254E-07
0.3	0.85	1.47217854038316E-07
0.3	0.9	1.60824609667571E-07
0.3	0.95	1.75681283593747E-07
0.3	1.0	1.91922687776710E-07
0.3	1.05	2.09696727009553E-07
0.3	1.1	2.29171129110901E-07
0.3	1.15	2.50536372573796E-07
0.3	1.2	2.74007703991551E-07
0.4	0.0	-4.30588847206751E-17
0.4	0.05	7.64282180715261E-07
0.4	0.1	9.09150937063506E-07
0.4	0.15	1.00965994279054E-06
0.4	0.2	1.11281962565280E-06
0.4	0.25	1.22049790963099E-06
0.4	0.3	1.33345445965039E-06
0.4	0.35	1.45228950380288E-06
0.4	0.4	1.57753765006297E-06
0.4	0.45	1.70969414904296E-06
0.4	0.5	1.84923929239376E-06
0.4	0.55	1.99664185318319E-06
0.4	0.6	2.15237727692758E-06
0.4	0.65	2.31692026449701E-06
0.4	0.7	2.49076843859854E-06
0.4	0.75	2.67440921268075E-06
0.4	0.8	2.86837477436452E-06
0.4	0.85	3.07320762004813E-06
0.4	0.9	3.28946599362784E-06
0.4	0.95	3.51774777122803E-06
0.4	1.0	3.75866845181792E-06
0.4	1.05	4.01288428821693E-06
0.4	1.1	4.28108162922461E-06
0.4	1.15	4.56399061336454E-06
0.4	1.2	4.86238362596580E-06
0.5	0.0	6.61157325141294E-18
0.5	0.05	1.02655287509885E-05
0.5	0.1	1.29609789797519E-05
0.5	0.15	1.41649184818974E-05
0.5	0.2	1.52173313632399E-05
0.5	0.25	1.62377187970345E-05
0.5	0.3	1.72451568011672E-05
0.5	0.35	1.82491521519677E-05
0.5	0.4	1.92557219397616E-05
0.5	0.45	2.02690138426797E-05
0.5	0.5	2.12917249395790E-05
0.5	0.55	2.23260926190871E-05
0.5	0.6	2.33735008623319E-05
0.5	0.65	2.44353490743286E-05
0.5	0.7	2.55124382815736E-05
0.5	0.75	2.66057126690730E-05
0.5	0.8	2.77157942979362E-05
0.5	0.85	2.88433031249439E-05
0.5	0.9	2.99887842616687E-05
0.5	0.95	3.11527580401905E-05
0.5	1.0	3.23356599856852E-05
0.5	1.05	3.35380174638490E-05
0.5	1.1	3.47603121821537E-05
0.5	1.15	3.60029276806169E-05
0.5	1.2	3.72665271908766E-05
0.6	0.0	-7.03690226832445E-18
0.6	0.05	3.70200015192074E-05
0.6	0.1	5.49902660263302E-05
0.6	0.15	6.23165075046238E-05
0.6	0.2	6.61262767218452E-05
0.6	0.25	6.91608168518328E-05
0.6	0.3	7.19268778021376E-05
0.6	0.35	7.45379559241275E-05
0.6	0.4	7.70474990652823E-05
0.6	0.45	7.94886050314236E-05
0.6	0.5	8.18810933746749E-05
0.6	0.55	8.42383983421429E-05
0.6	0.6	8.65696531869755E-05
0.6	0.65	8.88815937506164E-05
0.6	0.7	9.11792597823335E-05
0.6	0.75	9.34662790720843E-05
0.6	0.8	9.57461467413220E-05
0.6	0.85	9.80210547553279E-05
0.6	0.9	1.00293234592110E-04
0.6	0.95	1.02564583671465E-04
0.6	1.0	1.04836443505111E-04
0.6	1.05	1.07110096016544E-04
0.6	1.1	1.09387234365214E-04
0.6	1.15	1.11668488319136E-04
0.6	1.2	1.13955165745303E-04
0.7	0.0	-5.08559495258283E-17
0.7	0.05	6.66325995318379E-05
0.7	0.1	1.09989461777763E-04
0.7	0.15	1.34901085370526E-04
0.7	0.2	1.47802112332214E-04
0.7	0.25	1.55033137544813E-04
0.7	0.3	1.60337487693025E-04
0.7	0.35	1.64908963370562E-04
0.7	0.4	1.69074839562500E-04
0.7	0.45	1.72986961131847E-04
0.7	0.5	1.76727600874775E-04
0.7	0.55	1.80346058566628E-04
0.7	0.6	1.83871436207040E-04
0.7	0.65	1.87324059092830E-04
0.7	0.7	1.90717639660335E-04
0.7	0.75	1.94062325083536E-04
0.7	0.8	1.97366440703148E-04
0.7	0.85	2.00635831621166E-04
0.7	0.9	2.03875356639058E-04
0.7	0.95	2.07089453612701E-04
0.7	1.0	2.10281321671943E-04
0.7	1.05	2.13453564330118E-04
0.7	1.1	2.16609504988358E-04
0.7	1.15	2.19750993184367E-04
0.7	1.2	2.22880377158214E-04
0.8	0.0	-2.42713398126155E-17
0.8	0.05	9.30022915093916E-05
0.8	0.1	1.61709342640141E-04
0.8	0.15	2.09082168344344E-04
0.8	0.2	2.39269014003876E-04
0.8	0.25	2.57238115459756E-04
0.8	0.3	2.68151687246546E-04
0.8	0.35	2.75882678202594E-04
0.8	0.4	2.82234339893603E-04
0.8	0.45	2.87848709666185E-04
0.8	0.5	2.93012169806800E-04
0.8	0.55	2.97885872145344E-04
0.8	0.6	3.02557299876807E-04
0.8	0.65	3.07077688459868E-04
0.8	0.7	3.11478821183703E-04
0.8	0.75	3.15783342157824E-04
0.8	0.8	3.20006782397440E-04
0.8	0.85	3.24160821364107E-04
0.8	0.9	3.28255005094902E-04
0.8	0.95	3.32297365397877E-04
0.8	1.0	3.36292640076007E-04
0.8	1.05	3.40247062003999E-04
0.8	1.1	3.44164721484153E-04
0.8	1.15	3.48048491228879E-04
0.8	1.2	3.51903516060016E-04
0.9	0.0	-5.61550574650024E-17
0.9	0.05	1.15517761944886E-04
0.9	0.1	2.06853231425575E-04
0.9	0.15	2.76008529077370E-04
0.9	0.2	3.25895071157574E-04
0.9	0.25	3.59956766056380E-04
0.9	0.3	3.82123949849042E-04
0.9	0.35	3.96555079922089E-04
0.9	0.4	4.06785116790564E-04
0.9	0.45	4.14923437173951E-04
0.9	0.5	4.21931362694598E-04
0.9	0.55	4.28262064721382E-04
0.9	0.6	4.34163665594950E-04
0.9	0.65	4.39775469433478E-04
0.9	0.7	4.45175079858757E-04
0.9	0.75	4.50409731854770E-04
0.9	0.8	4.55510098238811E-04
0.9	0.85	4.60498974466875E-04
0.9	0.9	4.65392023292121E-04
0.9	0.95	4.70202200537126E-04
0.9	1.0	4.74938592387380E-04
0.9	1.05	4.79610540911501E-04
0.9	1.1	4.84223031661415E-04
0.9	1.15	4.88782481222101E-04
0.9	1.2	4.93295725510788E-04
1.0	0.0	-2.95361851455922E-17
1.0	0.05	1.34532897466249E-04
1.0	0.1	2.45454438961621E-04
1.0	0.15	3.34217265046476E-04
1.0	0.2	4.03042607840473E-04
1.0	0.25	4.54485580515823E-04
1.0	0.3	4.91400609188017E-04
1.0	0.35	5.16965720166844E-04
1.0	0.4	5.34555038863781E-04
1.0	0.45	5.47243264678911E-04
1.0	0.5	5.57184429949132E-04
1.0	0.55	5.65571805611092E-04
1.0	0.6	5.73030724406118E-04
1.0	0.65	5.79907811980648E-04
1.0	0.7	5.86395603840553E-04
1.0	0.75	5.92603749349451E-04
1.0	0.8	5.98599398758631E-04
1.0	0.85	6.04421242848310E-04
1.0	0.9	6.10101142137212E-04
1.0	0.95	6.15658099308854E-04
1.0	1.0	6.21109643026132E-04
1.0	1.05	6.26468446621774E-04
1.0	1.1	6.31742855960788E-04
1.0	1.15	6.36944618571500E-04
1.0	1.2	6.42079209317050E-04
1.1	0.0	6.14902087531240E-17
1.1	0.05	1.50575090794309E-04
1.1	0.1	2.78270923777112E-04
1.1	0.15	3.84216236225598E-04
1.1	0.2	4.70224498605042E-04
1.1	0.25	5.38327999137889E-04
1.1	0.3	5.90715245117515E-04
1.1	0.35	6.29764663579716E-04
1.1	0.4	6.58082144036677E-04
1.1	0.45	6.78435706024961E-04
1.1	0.5	6.93455037163703E-04
1.1	0.55	7.05194620336776E-04
1.1	0.6	7.14969101956051E-04
1.1	0.65	7.23545530203510E-04
1.1	0.7	7.31372619208385E-04
1.1	0.75	7.38703499226996E-04
1.1	0.8	7.45681820692807E-04
1.1	0.85	7.52392147990963E-04
1.1	0.9	7.58889952806133E-04
1.1	0.95	7.65210168453420E-04
1.1	1.0	7.71382443179997E-04
1.1	1.05	7.77425693259010E-04
1.1	1.1	7.83355538192010E-04
1.1	1.15	7.89186482512038E-04
1.1	1.2	7.94928756076994E-04
1.2	0.0	-1.29275677906585E-17
1.2	0.05	1.64160437347083E-04
1.2	0.1	3.06191364553004E-04
1.2	0.15	4.27031353181666E-04
1.2	0.2	5.28249879328764E-04
1.2	0.25	6.11564670711673E-04
1.2	0.3	6.78759009662755E-04
1.2	0.35	7.31696905039850E-04
1.2	0.4	7.72370544967074E-04
1.2	0.45	8.02938504452283E-04
1.2	0.5	8.25694612675327E-04
1.2	0.55	8.42879677300701E-04
1.2	0.6	8.56383477595780E-04
1.2	0.65	8.67551827323894E-04
1.2	0.7	8.77251559629019E-04
1.2	0.75	8.86023397398896E-04
1.2	0.8	8.94181201586819E-04
1.2	0.85	9.01907999181191E-04
1.2	0.9	9.09307813235543E-04
1.2	0.95	9.16450470726038E-04
1.2	1.0	9.23381661699200E-04
1.2	1.05	9.30136018082137E-04
1.2	1.1	9.36737316395348E-04
1.2	1.15	9.43207558378515E-04
1.2	1.2	9.49560050331553E-04