vg	vd	ids
0.0	0.0	1.35396659383763E-17
0.0	0.05	3.88281205055374E-14
0.0	0.1	4.43256733538043E-14
0.0	0.15	4.60296732574131E-14
0.0	0.2	4.74438598053598E-14
0.0	0.25	4.88649633044347E-14
0.0	0.3	5.03723458835255E-14
0.0	0.35	5.18635204316927E-14
0.0	0.4	5.33645569912703E-14
0.0	0.45	5.48168281783986E-14
0.0	0.5	5.63374353623867E-14
0.0	0.55	5.79679138250561E-14
0.0	0.6	5.94149388496919E-14
0.0	0.65	6.10838465804563E-14
0.0	0.7	6.28124477336520E-14
0.0	0.75	6.45016684828910E-14
0.0	0.8	6.62993606562877E-14
0.0	0.85	6.80307144765470E-14
0.0	0.9	6.98727678395328E-14
0.0	0.95	7.17753884180307E-14
0.0	1.0	7.36814111544039E-14
0.0	1.05	7.55863070753759E-14
0.0	1.1	7.75990243985898E-14
0.0	1.15	7.97094291597570E-14
0.0	1.2	7.82444779048478E-14
0.1	0.0	-2.68593224608691E-17
0.1	0.05	1.23349564359317E-12
0.1	0.1	1.41239067995636E-12
0.1	0.15	1.46965174429482E-12
0.1	0.2	1.51788542840107E-12
0.1	0.25	1.56638972371921E-12
0.1	0.3	1.61542952985576E-12
0.1	0.35	1.66509284151746E-12
0.1	0.4	1.71560765623879E-12
0.1	0.45	1.76684148285441E-12
0.1	0.5	1.81902800834563E-12
0.1	0.55	1.87213768503810E-12
0.1	0.6	1.92619674075868E-12
0.1	0.65	1.98128078888574E-12
0.1	0.7	2.03768864353011E-12
0.1	0.75	2.09514931315844E-12
0.1	0.8	2.15384433068780E-12
0.1	0.85	2.21440879483040E-12
0.1	0.9	2.27370736865828E-12
0.1	0.95	2.33885440719755E-12
0.1	1.0	2.40329940449976E-12
0.1	1.05	2.46849508945895E-12
0.1	1.1	2.53682949120232E-12
0.1	1.15	2.60373865326706E-12
0.1	1.2	2.67767745009001E-12
0.2	0.0	-2.56089724711286E-17
0.2	0.05	3.98979395040856E-11
0.2	0.1	4.58575651038325E-11
0.2	0.15	4.78402444997838E-11
0.2	0.2	4.95145190807795E-11
0.2	0.25	5.11890876620119E-11
0.2	0.3	5.28801426782094E-11
0.2	0.35	5.45910267430581E-11
0.2	0.4	5.63247317846327E-11
0.2	0.45	5.80835517420609E-11
0.2	0.5	5.98699030920073E-11
0.2	0.55	6.16866846559919E-11
0.2	0.6	6.35353077569759E-11
0.2	0.65	6.53995872381267E-11
0.2	0.7	6.73101962162262E-11
0.2	0.75	6.92952735704581E-11
0.2	0.8	7.12137704004127E-11
0.2	0.85	7.33289918067882E-11
0.2	0.9	7.54191069402047E-11
0.2	0.95	7.75272228979112E-11
0.2	1.0	7.97013751490939E-11
0.2	1.05	8.19605573471621E-11
0.2	1.1	8.42430443425552E-11
0.2	1.15	8.65594786499045E-11
0.2	1.2	8.89738492871291E-11
0.3	0.0	-4.41434920564321E-17
0.3	0.05	1.30345065920284E-09
0.3	0.1	1.50454489854627E-09
0.3	0.15	1.57384599960634E-09
0.3	0.2	1.63229708632239E-09
0.3	0.25	1.69049004120825E-09
0.3	0.3	1.74905105372002E-09
0.3	0.35	1.80812233762384E-09
0.3	0.4	1.86781772499069E-09
0.3	0.45	1.92822746140500E-09
0.3	0.5	1.98947772945043E-09
0.3	0.55	2.05161936384593E-09
0.3	0.6	2.11474190776143E-09
0.3	0.65	2.17738939373678E-09
0.3	0.7	2.24192100706909E-09
0.3	0.75	2.31072172443158E-09
0.3	0.8	2.37727554268434E-09
0.3	0.85	2.44698615846102E-09
0.3	0.9	2.51804609776749E-09
0.3	0.95	2.58971554407462E-09
0.3	1.0	2.66345172632303E-09
0.3	1.05	2.73810963917145E-09
0.3	1.1	2.81473226227492E-09
0.3	1.15	2.89363632677839E-09
0.3	1.2	2.97384534544724E-09
0.4	0.0	2.79249880633500E-17
0.4	0.05	4.21611478179505E-08
0.4	0.1	4.89745779458873E-08
0.4	0.15	5.13838213168129E-08
0.4	0.2	5.33946135677114E-08
0.4	0.25	5.53799007738361E-08
0.4	0.3	5.73658241820607E-08
0.4	0.35	5.93592527077981E-08
0.4	0.4	6.13640937841676E-08
0.4	0.45	6.33870520297772E-08
0.4	0.5	6.54295344665723E-08
0.4	0.55	6.74953629889121E-08
0.4	0.6	6.95255665124655E-08
0.4	0.65	7.16522290233190E-08
0.4	0.7	7.38599278105939E-08
0.4	0.75	7.60329195720526E-08
0.4	0.8	7.82290578284833E-08
0.4	0.85	8.05144747808422E-08
0.4	0.9	8.28239172806893E-08
0.4	0.95	8.51640582019084E-08
0.4	1.0	8.75479830876097E-08
0.4	1.05	8.99774231395478E-08
0.4	1.1	9.24542958722982E-08
0.4	1.15	9.49804087510069E-08
0.4	1.2	9.75578639762976E-08
0.5	0.0	-3.94543937871964E-17
0.5	0.05	1.07170731741209E-06
0.5	0.1	1.28683304952896E-06
0.5	0.15	1.35543369776844E-06
0.5	0.2	1.40643889689559E-06
0.5	0.25	1.45512680252456E-06
0.5	0.3	1.50296831510694E-06
0.5	0.35	1.55028889894083E-06
0.5	0.4	1.59730885540932E-06
0.5	0.45	1.64311128223657E-06
0.5	0.5	1.69094672627708E-06
0.5	0.55	1.73777645986244E-06
0.5	0.6	1.78443309553021E-06
0.5	0.65	1.83186081154686E-06
0.5	0.7	1.87893546209748E-06
0.5	0.75	1.92675097083784E-06
0.5	0.8	1.97482943414519E-06
0.5	0.85	2.02317099956327E-06
0.5	0.9	2.07202826141167E-06
0.5	0.95	2.12124129977024E-06
0.5	1.0	2.17095897075931E-06
0.5	1.05	2.22117182503982E-06
0.5	1.1	2.27192150574839E-06
0.5	1.15	2.32323446324083E-06
0.5	1.2	2.37513591666861E-06
0.6	0.0	1.03161302437770E-17
0.6	0.05	7.91582442750932E-06
0.6	0.1	1.12714541083495E-05
0.6	0.15	1.24097222487999E-05
0.6	0.2	1.28953112228657E-05
0.6	0.25	1.32501009852144E-05
0.6	0.3	1.35741823077933E-05
0.6	0.35	1.38830962017638E-05
0.6	0.4	1.41827681404316E-05
0.6	0.45	1.44708552422263E-05
0.6	0.5	1.47558166037415E-05
0.6	0.55	1.50392878457628E-05
0.6	0.6	1.53141791247931E-05
0.6	0.65	1.55877015127483E-05
0.6	0.7	1.58570540194839E-05
0.6	0.75	1.61245861588259E-05
0.6	0.8	1.63899866424552E-05
0.6	0.85	1.66540852189463E-05
0.6	0.9	1.69167097237632E-05
0.6	0.95	1.71783921803255E-05
0.6	1.0	1.74393261548709E-05
0.6	1.05	1.76997321844303E-05
0.6	1.1	1.79597873454445E-05
0.6	1.15	1.82196644176847E-05
0.6	1.2	1.84795341740365E-05
0.7	0.0	6.57968504302208E-18
0.7	0.05	1.89013637068280E-05
0.7	0.1	3.12632188511124E-05
0.7	0.15	3.82858443605885E-05
0.7	0.2	4.17216895317820E-05
0.7	0.25	4.33824274167725E-05
0.7	0.3	4.44277551581300E-05
0.7	0.35	4.52932103174461E-05
0.7	0.4	4.60834689854115E-05
0.7	0.45	4.68359936861199E-05
0.7	0.5	4.75500651362383E-05
0.7	0.55	4.82401624816421E-05
0.7	0.6	4.89097653034388E-05
0.7	0.65	4.95626448456503E-05
0.7	0.7	5.01994369648992E-05
0.7	0.75	5.08238583767973E-05
0.7	0.8	5.14380358823448E-05
0.7	0.85	5.20424427881998E-05
0.7	0.9	5.26389172530470E-05
0.7	0.95	5.32282949802468E-05
0.7	1.0	5.38113657797483E-05
0.7	1.05	5.43889683503987E-05
0.7	1.1	5.49617232631039E-05
0.7	1.15	5.55302249219106E-05
0.7	1.2	5.60949858884257E-05
0.8	0.0	-1.80306506034976E-17
0.8	0.05	3.00060313895659E-05
0.8	0.1	5.30225073010654E-05
0.8	0.15	6.95603105591961E-05
0.8	0.2	8.04902823942127E-05
0.8	0.25	8.70544042536936E-05
0.8	0.3	9.07592007582689E-05
0.8	0.35	9.30085104125493E-05
0.8	0.4	9.46806548907578E-05
0.8	0.45	9.61241137987781E-05
0.8	0.5	9.74530024619367E-05
0.8	0.55	9.86958113266111E-05
0.8	0.6	9.98776085457938E-05
0.8	0.65	1.01010400733923E-04
0.8	0.7	1.02104037647224E-04
0.8	0.75	1.03163585544949E-04
0.8	0.8	1.04196123491814E-04
0.8	0.85	1.05204159372117E-04
0.8	0.9	1.06191807516732E-04
0.8	0.95	1.07161431027202E-04
0.8	1.0	1.08114890248949E-04
0.8	1.05	1.09054306412937E-04
0.8	1.1	1.09981004613853E-04
0.8	1.15	1.10896417984560E-04
0.8	1.2	1.11801723247713E-04
0.9	0.0	-3.11815950348158E-17
0.9	0.05	4.02952794190247E-05
0.9	0.1	7.36033844083219E-05
0.9	0.15	1.00143962809718E-04
0.9	0.2	1.20367326969390E-04
0.9	0.25	1.34941909803548E-04
0.9	0.3	1.44783613415106E-04
0.9	0.35	1.51057067244397E-04
0.9	0.4	1.55045821627456E-04
0.9	0.45	1.57849628153499E-04
0.9	0.5	1.60119517342762E-04
0.9	0.55	1.62128884829373E-04
0.9	0.6	1.63974870234953E-04
0.9	0.65	1.65701463036988E-04
0.9	0.7	1.67338254135942E-04
0.9	0.75	1.68903451064006E-04
0.9	0.8	1.70411039522884E-04
0.9	0.85	1.71870488327039E-04
0.9	0.9	1.73289023026371E-04
0.9	0.95	1.74672597566403E-04
0.9	1.0	1.76025494288585E-04
0.9	1.05	1.77351616765520E-04
0.9	1.1	1.78653943207188E-04
0.9	1.15	1.79935163063663E-04
0.9	1.2	1.81197198655026E-04
1.0	0.0	-1.85654786158105E-17
1.0	0.05	4.95855122227230E-05
1.0	0.1	9.23584253854696E-05
1.0	0.15	1.28386768946657E-04
1.0	0.2	1.57917878644267E-04
1.0	0.25	1.81335438674376E-04
1.0	0.3	1.99171257273037E-04
1.0	0.35	2.12133358300299E-04
1.0	0.4	2.21125499397724E-04
1.0	0.45	2.27215568843686E-04
1.0	0.5	2.31487425370785E-04
1.0	0.55	2.34787461165578E-04
1.0	0.6	2.37592837343246E-04
1.0	0.65	2.40107558404505E-04
1.0	0.7	2.42423780119289E-04
1.0	0.75	2.44592560248768E-04
1.0	0.8	2.46647867618257E-04
1.0	0.85	2.48613278039970E-04
1.0	0.9	2.50505657912388E-04
1.0	0.95	2.52336644435001E-04
1.0	1.0	2.54115941088454E-04
1.0	1.05	2.55850388137115E-04
1.0	1.1	2.57545673261693E-04
1.0	1.15	2.59206413829187E-04
1.0	1.2	2.60836532927222E-04
1.1	0.0	5.60002462075340E-18
1.1	0.05	5.78786214279793E-05
1.1	0.1	1.09192533919336E-04
1.1	0.15	1.53921813820775E-04
1.1	0.2	1.92201778755536E-04
1.1	0.25	2.24264694359069E-04
1.1	0.3	2.50437012764339E-04
1.1	0.35	2.71153315069681E-04
1.1	0.4	2.86978084465843E-04
1.1	0.45	2.98627670587171E-04
1.1	0.5	3.06971431706358E-04
1.1	0.55	3.12971068649516E-04
1.1	0.6	3.17518897366030E-04
1.1	0.65	3.21251849488255E-04
1.1	0.7	3.24513031987227E-04
1.1	0.75	3.27464256104695E-04
1.1	0.8	3.30192325139630E-04
1.1	0.85	3.32752731946106E-04
1.1	0.9	3.35182544603351E-04
1.1	0.95	3.37508508996678E-04
1.1	1.0	3.39749756630727E-04
1.1	1.05	3.41919884900848E-04
1.1	1.1	3.44029035923305E-04
1.1	1.15	3.46085405932775E-04
1.1	1.2	3.48096084271036E-04
1.2	0.0	-1.25478090989707E-18
1.2	0.05	6.52419342935644E-05
1.2	0.1	1.24192739321469E-04
1.2	0.15	1.76780172967651E-04
1.2	0.2	2.23074139020555E-04
1.2	0.25	2.63219895315948E-04
1.2	0.3	2.97427557028673E-04
1.2	0.35	3.25976251274024E-04
1.2	0.4	3.49226813309345E-04
1.2	0.45	3.67639283673126E-04
1.2	0.5	3.81792442079573E-04
1.2	0.55	3.92395774045969E-04
1.2	0.6	4.00268510344272E-04
1.2	0.65	4.06252147605793E-04
1.2	0.7	4.11057428303766E-04
1.2	0.75	4.15153413914508E-04
1.2	0.8	4.18795375437864E-04
1.2	0.85	4.22116506178122E-04
1.2	0.9	4.25199743283928E-04
1.2	0.95	4.28102171197184E-04
1.2	1.0	4.30863506786407E-04
1.2	1.05	4.33511962841062E-04
1.2	1.1	4.36066630930975E-04
1.2	1.15	4.38543197970715E-04
1.2	1.2	4.40952202944771E-04