vg	vd	ids
0.0	0.0	2.29628631220129E-16
0.0	0.05	4.50025152298290E-13
0.0	0.1	5.20511844880930E-13
0.0	0.15	5.67468625579492E-13
0.0	0.2	6.17819081246229E-13
0.0	0.25	6.72713689583134E-13
0.0	0.3	7.31094402676576E-13
0.0	0.35	7.93417587869793E-13
0.0	0.4	8.64117399892138E-13
0.0	0.45	9.40777194840293E-13
0.0	0.5	1.02317208954765E-12
0.0	0.55	1.11139177444600E-12
0.0	0.6	1.21313130811487E-12
0.0	0.65	1.31859636739809E-12
0.0	0.7	1.43900922383718E-12
0.0	0.75	1.56898529000912E-12
0.0	0.8	1.71418896119549E-12
0.0	0.85	1.87209686595719E-12
0.0	0.9	2.04869430599361E-12
0.0	0.95	2.24417212680284E-12
0.0	1.0	2.46317553982892E-12
0.0	1.05	2.70656947157901E-12
0.0	1.1	2.97924163003663E-12
0.0	1.15	3.28660719818807E-12
0.0	1.2	3.63207690606552E-12
0.1	0.0	-3.83016441172578E-17
0.1	0.05	1.35156910499403E-11
0.1	0.1	1.56622527593320E-11
0.1	0.15	1.70340277598574E-11
0.1	0.2	1.84812732887400E-11
0.1	0.25	2.00312321692383E-11
0.1	0.3	2.16960711767048E-11
0.1	0.35	2.34832532151202E-11
0.1	0.4	2.54052130252306E-11
0.1	0.45	2.74756827610529E-11
0.1	0.5	2.97049614285932E-11
0.1	0.55	3.21105869657454E-11
0.1	0.6	3.47091384540081E-11
0.1	0.65	3.75118043564103E-11
0.1	0.7	4.05458958321399E-11
0.1	0.75	4.38308034259669E-11
0.1	0.8	4.73863744597499E-11
0.1	0.85	5.12458538650256E-11
0.1	0.9	5.54375033942268E-11
0.1	0.95	5.99936722163583E-11
0.1	1.0	6.49571565651107E-11
0.1	1.05	7.03683454783748E-11
0.1	1.1	7.62790898785507E-11
0.1	1.15	8.27437909221235E-11
0.1	1.2	8.98293328540513E-11
0.2	0.0	2.34377488444270E-17
0.2	0.05	4.10190477243498E-10
0.2	0.1	4.76834652169059E-10
0.2	0.15	5.18207678459733E-10
0.2	0.2	5.61258430916831E-10
0.2	0.25	6.06957516658930E-10
0.2	0.3	6.55547827143294E-10
0.2	0.35	7.07274189904506E-10
0.2	0.4	7.62398571380131E-10
0.2	0.45	8.21193716092953E-10
0.2	0.5	8.83946222034015E-10
0.2	0.55	9.50972010591818E-10
0.2	0.6	1.02266255525878E-09
0.2	0.65	1.09923950306945E-09
0.2	0.7	1.18113783622273E-09
0.2	0.75	1.26886151936838E-09
0.2	0.8	1.36276576489852E-09
0.2	0.85	1.46341531424451E-09
0.2	0.9	1.57132110886104E-09
0.2	0.95	1.68707611000386E-09
0.2	1.0	1.81132942514086E-09
0.2	1.05	1.94477902135992E-09
0.2	1.1	2.08820982357563E-09
0.2	1.15	2.24247827140300E-09
0.2	1.2	2.40852235918733E-09
0.3	0.0	-3.24714927793812E-16
0.3	0.05	1.24140854538218E-08
0.3	0.1	1.45065121650712E-08
0.3	0.15	1.57723430674360E-08
0.3	0.2	1.70682487172685E-08
0.3	0.25	1.84286721992765E-08
0.3	0.3	1.98606182244412E-08
0.3	0.35	2.13706641581239E-08
0.3	0.4	2.29652536023543E-08
0.3	0.45	2.46508714657986E-08
0.3	0.5	2.64341545241219E-08
0.3	0.55	2.83224249519809E-08
0.3	0.6	3.03216038017888E-08
0.3	0.65	3.24405626033441E-08
0.3	0.7	3.46864226588001E-08
0.3	0.75	3.70671559663564E-08
0.3	0.8	3.95916475180011E-08
0.3	0.85	4.22703176096687E-08
0.3	0.9	4.51123932564313E-08
0.3	0.95	4.81285171874004E-08
0.3	1.0	5.13300315691318E-08
0.3	1.05	5.47290031778374E-08
0.3	1.1	5.83383795987606E-08
0.3	1.15	6.21720699011319E-08
0.3	1.2	6.62449141822647E-08
0.4	0.0	-1.44911908316740E-16
0.4	0.05	3.54907691419688E-07
0.4	0.1	4.19308443591403E-07
0.4	0.15	4.56070576972083E-07
0.4	0.2	4.92498410902220E-07
0.4	0.25	5.29980883108927E-07
0.4	0.3	5.68761210005328E-07
0.4	0.35	6.09021055877370E-07
0.4	0.4	6.50912301438893E-07
0.4	0.45	6.94596814286500E-07
0.4	0.5	7.40138609337670E-07
0.4	0.55	7.87689802194579E-07
0.4	0.6	8.37363743291353E-07
0.4	0.65	8.89273792797092E-07
0.4	0.7	9.43532076979878E-07
0.4	0.75	1.00025116352266E-06
0.4	0.8	1.05954367899290E-06
0.4	0.85	1.12152325719575E-06
0.4	0.9	1.18630707610173E-06
0.4	0.95	1.25401322971041E-06
0.4	1.0	1.32476407217427E-06
0.4	1.05	1.39868389698576E-06
0.4	1.1	1.47590010476187E-06
0.4	1.15	1.55654447507184E-06
0.4	1.2	1.64075086374222E-06
0.5	0.0	3.95739219256925E-17
0.5	0.05	5.94354544341667E-06
0.5	0.1	7.44740818617112E-06
0.5	0.15	8.05438930330903E-06
0.5	0.2	8.56277728745362E-06
0.5	0.25	9.05492686931777E-06
0.5	0.3	9.54099554479747E-06
0.5	0.35	1.00254224789532E-05
0.5	0.4	1.05111429913702E-05
0.5	0.45	1.09997550815032E-05
0.5	0.5	1.14928499745893E-05
0.5	0.55	1.19914208281310E-05
0.5	0.6	1.24962003175285E-05
0.5	0.65	1.30077941875922E-05
0.5	0.7	1.35266835975475E-05
0.5	0.75	1.40532273319792E-05
0.5	0.8	1.45877935963254E-05
0.5	0.85	1.51305961323154E-05
0.5	0.9	1.56819043633215E-05
0.5	0.95	1.62419011000434E-05
0.5	1.0	1.68107383493682E-05
0.5	1.05	1.73886001040528E-05
0.5	1.1	1.79755894556123E-05
0.5	1.15	1.85718332582837E-05
0.5	1.2	1.91774384489126E-05
0.6	0.0	6.24569984993243E-16
0.6	0.05	2.51660038013169E-05
0.6	0.1	3.75427363286001E-05
0.6	0.15	4.25595384229295E-05
0.6	0.2	4.49812169276538E-05
0.6	0.25	4.68187507313285E-05
0.6	0.3	4.84855867035393E-05
0.6	0.35	5.00614980723099E-05
0.6	0.4	5.15783041007821E-05
0.6	0.45	5.30547515398616E-05
0.6	0.5	5.45029668383371E-05
0.6	0.55	5.59307851734383E-05
0.6	0.6	5.73436998652408E-05
0.6	0.65	5.87456707671042E-05
0.6	0.7	6.01396093005114E-05
0.6	0.75	6.15278708378948E-05
0.6	0.8	6.29122137766953E-05
0.6	0.85	6.42940055443828E-05
0.6	0.9	6.56745109538983E-05
0.6	0.95	6.70546487361198E-05
0.6	1.0	6.84350936428259E-05
0.6	1.05	6.98167287575095E-05
0.6	1.1	7.11999454412494E-05
0.6	1.15	7.25852237452996E-05
0.6	1.2	7.39730564104053E-05
0.7	0.0	-4.22443014876896E-16
0.7	0.05	4.80179759780825E-05
0.7	0.1	8.01997295455425E-05
0.7	0.15	9.93322689413783E-05
0.7	0.2	1.09442720876729E-04
0.7	0.25	1.14862126497838E-04
0.7	0.3	1.18568711275686E-04
0.7	0.35	1.21687939563191E-04
0.7	0.4	1.24517522689538E-04
0.7	0.45	1.27167862318683E-04
0.7	0.5	1.29698517695499E-04
0.7	0.55	1.32143985587246E-04
0.7	0.6	1.34525771815324E-04
0.7	0.65	1.36858032824556E-04
0.7	0.7	1.39150226752354E-04
0.7	0.75	1.41409942545592E-04
0.7	0.8	1.43642099405919E-04
0.7	0.85	1.45851095313097E-04
0.7	0.9	1.48040381811675E-04
0.7	0.95	1.50212486101427E-04
0.7	1.0	1.52369504531958E-04
0.7	1.05	1.54513550973795E-04
0.7	1.1	1.56645965433613E-04
0.7	1.15	1.58768100796629E-04
0.7	1.2	1.60880883568666E-04
0.8	0.0	3.68427072154427E-17
0.8	0.05	6.89604314062000E-05
0.8	0.1	1.21437894487819E-04
0.8	0.15	1.58925815902326E-04
0.8	0.2	1.83766636828441E-04
0.8	0.25	1.98992453559646E-04
0.8	0.3	2.08093115899955E-04
0.8	0.35	2.14143562509631E-04
0.8	0.4	2.18901823945858E-04
0.8	0.45	2.23037318588934E-04
0.8	0.5	2.26806128635293E-04
0.8	0.55	2.30342802451380E-04
0.8	0.6	2.33721103755193E-04
0.8	0.65	2.36983066983715E-04
0.8	0.7	2.40155256048684E-04
0.8	0.75	2.43254877543657E-04
0.8	0.8	2.46294392542287E-04
0.8	0.85	2.49283166887026E-04
0.8	0.9	2.52228306714307E-04
0.8	0.95	2.55134623773016E-04
0.8	1.0	2.58007422385194E-04
0.8	1.05	2.60850155575725E-04
0.8	1.1	2.63665244140386E-04
0.8	1.15	2.66455700578644E-04
0.8	1.2	2.69223804365729E-04
0.9	0.0	2.59035241188592E-16
0.9	0.05	8.72080334115190E-05
0.9	0.1	1.58079991565324E-04
0.9	0.15	2.13482614143363E-04
0.9	0.2	2.54913254492244E-04
0.9	0.25	2.84304701397496E-04
0.9	0.3	3.04046348401698E-04
0.9	0.35	3.16907934277766E-04
0.9	0.4	3.25631815774752E-04
0.9	0.45	3.32229836097690E-04
0.9	0.5	3.37743917552544E-04
0.9	0.55	3.42636973097790E-04
0.9	0.6	3.47144607435512E-04
0.9	0.65	3.51401444319709E-04
0.9	0.7	3.55480292855719E-04
0.9	0.75	3.59423456527485E-04
0.9	0.8	3.63259814725731E-04
0.9	0.85	3.67006760643871E-04
0.9	0.9	3.70678884648599E-04
0.9	0.95	3.74286370811887E-04
0.9	1.0	3.77837089199007E-04
0.9	1.05	3.81336924326079E-04
0.9	1.1	3.84791815380756E-04
0.9	1.15	3.88204868611409E-04
0.9	1.2	3.91581401448016E-04
1.0	0.0	4.26695958532681E-16
1.0	0.05	1.02868775470203E-04
1.0	0.1	1.89863024014039E-04
1.0	0.15	2.61501998434436E-04
1.0	0.2	3.18831309302598E-04
1.0	0.25	3.63184427061324E-04
1.0	0.3	3.96178901984402E-04
1.0	0.35	4.19744331487146E-04
1.0	0.4	4.36110900634095E-04
1.0	0.45	4.47608730365927E-04
1.0	0.5	4.56214540119645E-04
1.0	0.55	4.63203466037974E-04
1.0	0.6	4.69255605890956E-04
1.0	0.65	4.74733645254936E-04
1.0	0.7	4.79842182568156E-04
1.0	0.75	4.84697494835463E-04
1.0	0.8	4.89366210892343E-04
1.0	0.85	4.93887485072907E-04
1.0	0.9	4.98289546653132E-04
1.0	0.95	5.02590645008067E-04
1.0	1.0	5.06805209085757E-04
1.0	1.05	5.10945254883033E-04
1.0	1.1	5.15015819201593E-04
1.0	1.15	5.19027248539886E-04
1.0	1.2	5.22984284520076E-04
1.1	0.0	1.61347717647095E-16
1.1	0.05	1.16251971952284E-04
1.1	0.1	2.17201357162969E-04
1.1	0.15	3.03168204054214E-04
1.1	0.2	3.74939759814496E-04
1.1	0.25	4.33509433379150E-04
1.1	0.3	4.80044904086290E-04
1.1	0.35	5.15905303984346E-04
1.1	0.4	5.42677387716927E-04
1.1	0.45	5.62184559270724E-04
1.1	0.5	5.76382846866458E-04
1.1	0.55	5.87082795551246E-04
1.1	0.6	5.95642628973442E-04
1.1	0.65	6.02908395782850E-04
1.1	0.7	6.09377016515559E-04
1.1	0.75	6.15337312866114E-04
1.1	0.8	6.20952793946909E-04
1.1	0.85	6.26318894003082E-04
1.1	0.9	6.31494784826104E-04
1.1	0.95	6.36514758657240E-04
1.1	1.0	6.41407324501347E-04
1.1	1.05	6.46188935848780E-04
1.1	1.1	6.50875066158502E-04
1.1	1.15	6.55477841752495E-04
1.1	1.2	6.60002820327893E-04
1.2	0.0	-8.23669875431586E-17
1.2	0.05	1.27701109661571E-04
1.2	0.1	2.40682193665720E-04
1.2	0.15	3.39150195050957E-04
1.2	0.2	4.23743712388629E-04
1.2	0.25	4.95257903222429E-04
1.2	0.3	5.54595669965019E-04
1.2	0.35	6.02769526966163E-04
1.2	0.4	6.40928760575427E-04
1.2	0.45	6.70394329700171E-04
1.2	0.5	6.92674019025559E-04
1.2	0.55	7.09409468865979E-04
1.2	0.6	7.22208172966484E-04
1.2	0.65	7.32407224186788E-04
1.2	0.7	7.40948595646821E-04
1.2	0.75	7.48443939335081E-04
1.2	0.8	7.55268289019887E-04
1.2	0.85	7.61643506483839E-04
1.2	0.9	7.67698090300792E-04
1.2	0.95	7.73508801001303E-04
1.2	1.0	7.79126874426534E-04
1.2	1.05	7.84582670348428E-04
1.2	1.1	7.89905482548519E-04
1.2	1.15	7.95109799671538E-04
1.2	1.2	8.00211702039763E-04