vg	vd	ids
0.0	0.0	6.78967525930997E-18
0.0	0.05	6.76461526919389E-14
0.0	0.1	7.81879549095527E-14
0.0	0.15	8.21053533288739E-14
0.0	0.2	8.57165374750451E-14
0.0	0.25	8.93997180106993E-14
0.0	0.3	9.32048880838318E-14
0.0	0.35	9.71553991089636E-14
0.0	0.4	1.01259138038223E-13
0.0	0.45	1.05511427392619E-13
0.0	0.5	1.09980429348505E-13
0.0	0.55	1.14601559314473E-13
0.0	0.6	1.19449276549391E-13
0.0	0.65	1.24501156097253E-13
0.0	0.7	1.29596787898924E-13
0.0	0.75	1.35078867602105E-13
0.0	0.8	1.40773060163303E-13
0.0	0.85	1.46671966623663E-13
0.0	0.9	1.52884796696354E-13
0.0	0.95	1.59339874341974E-13
0.0	1.0	1.66030012560333E-13
0.0	1.05	1.73063646680982E-13
0.0	1.1	1.80398422638717E-13
0.0	1.15	1.88064803995522E-13
0.0	1.2	1.96059495639995E-13
0.1	0.0	-3.84073332673648E-17
0.1	0.05	2.19176292652610E-12
0.1	0.1	2.53955557758946E-12
0.1	0.15	2.67399587923644E-12
0.1	0.2	2.79481503434791E-12
0.1	0.25	2.91881397889676E-12
0.1	0.3	3.04698567137352E-12
0.1	0.35	3.17962576341191E-12
0.1	0.4	3.31710422881620E-12
0.1	0.45	3.45950098331343E-12
0.1	0.5	3.60730418119839E-12
0.1	0.55	3.76073399084703E-12
0.1	0.6	3.92006498901457E-12
0.1	0.65	4.08562796728762E-12
0.1	0.7	4.25753066019658E-12
0.1	0.75	4.43647408933894E-12
0.1	0.8	4.62239849231862E-12
0.1	0.85	4.81588910365826E-12
0.1	0.9	5.01726521466425E-12
0.1	0.95	5.22682632685343E-12
0.1	1.0	5.44503673065624E-12
0.1	1.05	5.67221442377525E-12
0.1	1.1	5.90876587114480E-12
0.1	1.15	6.15522769496895E-12
0.1	1.2	6.41188021650023E-12
0.2	0.0	9.67466848281609E-18
0.2	0.05	7.20149787838236E-11
0.2	0.1	8.37322538646878E-11
0.2	0.15	8.83445629903908E-11
0.2	0.2	9.24686498223609E-11
0.2	0.25	9.66840860113805E-11
0.2	0.3	1.01027301671985E-10
0.2	0.35	1.05505634125053E-10
0.2	0.4	1.10132842361284E-10
0.2	0.45	1.14921621303555E-10
0.2	0.5	1.19873899658161E-10
0.2	0.55	1.24998857896339E-10
0.2	0.6	1.30310519483393E-10
0.2	0.65	1.35814826886218E-10
0.2	0.7	1.41519854032413E-10
0.2	0.75	1.47436816670802E-10
0.2	0.8	1.53575636396827E-10
0.2	0.85	1.59945330706916E-10
0.2	0.9	1.66556187056062E-10
0.2	0.95	1.73418919979967E-10
0.2	1.0	1.80544362607601E-10
0.2	1.05	1.87943464572832E-10
0.2	1.1	1.95627899384574E-10
0.2	1.15	2.03609478254762E-10
0.2	1.2	2.11900685142587E-10
0.3	0.0	-8.60585512935886E-18
0.3	0.05	2.37695408076122E-09
0.3	0.1	2.77521174695020E-09
0.3	0.15	2.93467045235578E-09
0.3	0.2	3.07610222728406E-09
0.3	0.25	3.21971543978453E-09
0.3	0.3	3.36684963650322E-09
0.3	0.35	3.51810655219233E-09
0.3	0.4	3.67392207808315E-09
0.3	0.45	3.83443902207256E-09
0.3	0.5	3.99991933736565E-09
0.3	0.55	4.17072171913601E-09
0.3	0.6	4.34716680534927E-09
0.3	0.65	4.52952823310631E-09
0.3	0.7	4.71806779211577E-09
0.3	0.75	4.91305965541074E-09
0.3	0.8	5.11478737320022E-09
0.3	0.85	5.32353722377973E-09
0.3	0.9	5.53960022758295E-09
0.3	0.95	5.76327201402833E-09
0.3	1.0	5.99485532927819E-09
0.3	1.05	6.23466194961393E-09
0.3	1.1	6.48300996630511E-09
0.3	1.15	6.74022696560932E-09
0.3	1.2	7.00664897410211E-09
0.4	0.0	3.31071889690709E-17
0.4	0.05	7.63810344904516E-08
0.4	0.1	8.98764660932706E-08
0.4	0.15	9.53033166351133E-08
0.4	0.2	1.00008199914845E-07
0.4	0.25	1.04719714113454E-07
0.4	0.3	1.09505540719434E-07
0.4	0.35	1.14388865900460E-07
0.4	0.4	1.19382329586040E-07
0.4	0.45	1.24495711737521E-07
0.4	0.5	1.29742230871022E-07
0.4	0.55	1.35131529271049E-07
0.4	0.6	1.40671686369455E-07
0.4	0.65	1.46370433336776E-07
0.4	0.7	1.52235201809624E-07
0.4	0.75	1.58273197816738E-07
0.4	0.8	1.64491473831815E-07
0.4	0.85	1.70897002603074E-07
0.4	0.9	1.77496760226172E-07
0.4	0.95	1.84297696084784E-07
0.4	1.0	1.91306807559911E-07
0.4	1.05	1.98531160528350E-07
0.4	1.1	2.05977843954155E-07
0.4	1.15	2.13654051413916E-07
0.4	1.2	2.21567051396893E-07
0.5	0.0	-8.77380428384806E-18
0.5	0.05	1.70847758993100E-06
0.5	0.1	2.10713853638106E-06
0.5	0.15	2.24391697518145E-06
0.5	0.2	2.34458874287989E-06
0.5	0.25	2.43998667888803E-06
0.5	0.3	2.53402836931915E-06
0.5	0.35	2.62776401254518E-06
0.5	0.4	2.72163001350698E-06
0.5	0.45	2.81605169931764E-06
0.5	0.5	2.91129847520812E-06
0.5	0.55	3.00755226600884E-06
0.5	0.6	3.10495105759453E-06
0.5	0.65	3.20360932917746E-06
0.5	0.7	3.30361766865254E-06
0.5	0.75	3.40505379893222E-06
0.5	0.8	3.50798474944946E-06
0.5	0.85	3.61246586671681E-06
0.5	0.9	3.71855159668012E-06
0.5	0.95	3.82628662155603E-06
0.5	1.0	3.93571292623800E-06
0.5	1.05	4.04687196422337E-06
0.5	1.1	4.15979664353938E-06
0.5	1.15	4.27452216027995E-06
0.5	1.2	4.39108121801954E-06
0.6	0.0	1.19430341221251E-17
0.6	0.05	9.85638003166830E-06
0.6	0.1	1.45771390889941E-05
0.6	0.15	1.64218591249214E-05
0.6	0.2	1.72316324343348E-05
0.6	0.25	1.77880573176018E-05
0.6	0.3	1.82803335955822E-05
0.6	0.35	1.87459552297244E-05
0.6	0.4	1.91962627394132E-05
0.6	0.45	1.96369368112322E-05
0.6	0.5	2.00712765523459E-05
0.6	0.55	2.05013037140317E-05
0.6	0.6	2.09284047656635E-05
0.6	0.65	2.13535194841294E-05
0.6	0.7	2.17774257798285E-05
0.6	0.75	2.22006143825110E-05
0.6	0.8	2.26235884056102E-05
0.6	0.85	2.30466613814424E-05
0.6	0.9	2.34701255905532E-05
0.6	0.95	2.38942568121328E-05
0.6	1.0	2.43192157933401E-05
0.6	1.05	2.47452087275202E-05
0.6	1.1	2.51723817139259E-05
0.6	1.15	2.56008590538452E-05
0.6	1.2	2.60307647351560E-05
0.7	0.0	1.26011070867846E-17
0.7	0.05	2.13540005326891E-05
0.7	0.1	3.59314046629581E-05
0.7	0.15	4.48055938868156E-05
0.7	0.2	4.95760707936940E-05
0.7	0.25	5.20418562723676E-05
0.7	0.3	5.35583467117246E-05
0.7	0.35	5.47516580568114E-05
0.7	0.4	5.58163725015328E-05
0.7	0.45	5.68135733997150E-05
0.7	0.5	5.77694919344087E-05
0.7	0.55	5.86976566395964E-05
0.7	0.6	5.96055352323576E-05
0.7	0.65	6.04979687300257E-05
0.7	0.7	6.13779944959986E-05
0.7	0.75	6.22480542123047E-05
0.7	0.8	6.31097561827514E-05
0.7	0.85	6.39644883861601E-05
0.7	0.9	6.48133075679210E-05
0.7	0.95	6.56570853534806E-05
0.7	1.0	6.64964731190457E-05
0.7	1.05	6.73321914017588E-05
0.7	1.1	6.81646300539811E-05
0.7	1.15	6.89942790268415E-05
0.7	1.2	6.98215823380914E-05
0.8	0.0	2.69378038140087E-17
0.8	0.05	3.27841635805835E-05
0.8	0.1	5.83913651436034E-05
0.8	0.15	7.73089040064785E-05
0.8	0.2	9.03534803516404E-05
0.8	0.25	9.86718126570195E-05
0.8	0.3	1.03682106127674E-04
0.8	0.35	1.06800275848011E-04
0.8	0.4	1.09040327610637E-04
0.8	0.45	1.10897878609487E-04
0.8	0.5	1.12565911274483E-04
0.8	0.55	1.14127139407339E-04
0.8	0.6	1.15620902732915E-04
0.8	0.65	1.17066989808012E-04
0.8	0.7	1.18477024516390E-04
0.8	0.75	1.19858374936014E-04
0.8	0.8	1.21215998149261E-04
0.8	0.85	1.22553747016008E-04
0.8	0.9	1.23874116463162E-04
0.8	0.95	1.25179574590286E-04
0.8	1.0	1.26471682582996E-04
0.8	1.05	1.27751981381741E-04
0.8	1.1	1.29021570336543E-04
0.8	1.15	1.30281599497282E-04
0.8	1.2	1.31532894676518E-04
0.9	0.0	2.93141067427658E-17
0.9	0.05	4.34049680799070E-05
0.9	0.1	7.96193831874265E-05
0.9	0.15	1.08864332169446E-04
0.9	0.2	1.31587120472065E-04
0.9	0.25	1.48436278746547E-04
0.9	0.3	1.60283230504755E-04
0.9	0.35	1.68223143537069E-04
0.9	0.4	1.73480943488957E-04
0.9	0.45	1.77171390740480E-04
0.9	0.5	1.80053468262380E-04
0.9	0.55	1.82523004909809E-04
0.9	0.6	1.84764917914493E-04
0.9	0.65	1.86872099439770E-04
0.9	0.7	1.88889843832471E-04
0.9	0.75	1.90841933665042E-04
0.9	0.8	1.92742974123651E-04
0.9	0.85	1.94602154407387E-04
0.9	0.9	1.96426294690665E-04
0.9	0.95	1.98220265942409E-04
0.9	1.0	1.99987665836106E-04
0.9	1.05	2.01731719470066E-04
0.9	1.1	2.03454669325418E-04
0.9	1.15	2.05158450350082E-04
0.9	1.2	2.06844926227122E-04
1.0	0.0	3.32166103394845E-17
1.0	0.05	5.30473769609046E-05
1.0	0.1	9.90561411738110E-05
1.0	0.15	1.38098833407882E-04
1.0	0.2	1.70431185989099E-04
1.0	0.25	1.96442829819530E-04
1.0	0.3	2.16664080871740E-04
1.0	0.35	2.31786040557985E-04
1.0	0.4	2.42673923868775E-04
1.0	0.45	2.50338550405002E-04
1.0	0.5	2.55817941010217E-04
1.0	0.55	2.59981888713642E-04
1.0	0.6	2.63408096533325E-04
1.0	0.65	2.66421892329117E-04
1.0	0.7	2.69193072928981E-04
1.0	0.75	2.71811418928735E-04
1.0	0.8	2.74322756528972E-04
1.0	0.85	2.76752960296426E-04
1.0	0.9	2.79118261408012E-04
1.0	0.95	2.81429753799978E-04
1.0	1.0	2.83695572107011E-04
1.0	1.05	2.85921026891823E-04
1.0	1.1	2.88111309251237E-04
1.0	1.15	2.90269708769579E-04
1.0	1.2	2.92399610575958E-04
1.1	0.0	-2.27816291556558E-17
1.1	0.05	6.17018879705145E-05
1.1	0.1	1.16595336991266E-04
1.1	0.15	1.64662785457470E-04
1.1	0.2	2.06048329762619E-04
1.1	0.25	2.40995038835218E-04
1.1	0.3	2.69839852460488E-04
1.1	0.35	2.93024100817809E-04
1.1	0.4	3.11110810194670E-04
1.1	0.45	3.24799703657978E-04
1.1	0.5	3.34922448715073E-04
1.1	0.55	3.42387331789283E-04
1.1	0.6	3.48055817345601E-04
1.1	0.65	3.52608386241488E-04
1.1	0.7	3.56499331896099E-04
1.1	0.75	3.59999134328936E-04
1.1	0.8	3.63253874627271E-04
1.1	0.85	3.66344116048215E-04
1.1	0.9	3.69313550023313E-04
1.1	0.95	3.72188614867931E-04
1.1	1.0	3.74986617124740E-04
1.1	1.05	3.77719726076934E-04
1.1	1.1	3.80396999132230E-04
1.1	1.15	3.83025070069948E-04
1.1	1.2	3.85609686980153E-04
1.2	0.0	1.49202085001041E-17
1.2	0.05	6.94240953524944E-05
1.2	0.1	1.32301791783921E-04
1.2	0.15	1.88560022342446E-04
1.2	0.2	2.38275658549735E-04
1.2	0.25	2.81603481773683E-04
1.2	0.3	3.18765192038629E-04
1.2	0.35	3.50052143152055E-04
1.2	0.4	3.75835787386379E-04
1.2	0.45	3.96582520504799E-04
1.2	0.5	4.12868010783521E-04
1.2	0.55	4.25381588593280E-04
1.2	0.6	4.34901663982295E-04
1.2	0.65	4.42223853664223E-04
1.2	0.7	4.48055607019294E-04
1.2	0.75	4.52938725063404E-04
1.2	0.8	4.57239222056021E-04
1.2	0.85	4.61176949020978E-04
1.2	0.9	4.64872407015104E-04
1.2	0.95	4.68395259136499E-04
1.2	1.0	4.71786857295090E-04
1.2	1.05	4.75072336701193E-04
1.2	1.1	4.78270527241172E-04
1.2	1.15	4.81393503027614E-04
1.2	1.2	4.84452002128259E-04