vg	vd	ids
0.0	0.0	-7.23806411615262E-17
0.0	0.05	2.80724147646588E-13
0.0	0.1	3.16814076981666E-13
0.0	0.15	3.34755133200812E-13
0.0	0.2	3.53010830332397E-13
0.0	0.25	3.72140892729439E-13
0.0	0.3	3.92451012302902E-13
0.0	0.35	4.13607891861669E-13
0.0	0.4	4.35950171065536E-13
0.0	0.45	4.59624283719269E-13
0.0	0.5	4.84185159018789E-13
0.0	0.55	5.10156360046990E-13
0.0	0.6	5.37713198630314E-13
0.0	0.65	5.67029887466000E-13
0.0	0.7	5.97392361638793E-13
0.0	0.75	6.29796403539053E-13
0.0	0.8	6.64030414512387E-13
0.0	0.85	7.00247510547655E-13
0.0	0.9	7.38372529219445E-13
0.0	0.95	7.78736937914060E-13
0.0	1.0	8.21451073480323E-13
0.0	1.05	8.66602730070094E-13
0.0	1.1	9.14583102921573E-13
0.0	1.15	9.65277897769381E-13
0.0	1.2	1.01876949458527E-12
0.1	0.0	4.18206906072877E-17
0.1	0.05	9.28545548351958E-12
0.1	0.1	1.05138873809870E-11
0.1	0.15	1.11170259239708E-11
0.1	0.2	1.17271091608751E-11
0.1	0.25	1.23641208833574E-11
0.1	0.3	1.30300877391898E-11
0.1	0.35	1.37271190850810E-11
0.1	0.4	1.44571136671735E-11
0.1	0.45	1.52219388694453E-11
0.1	0.5	1.60236192551575E-11
0.1	0.55	1.68646176419305E-11
0.1	0.6	1.77457655072507E-11
0.1	0.65	1.86726953032849E-11
0.1	0.7	1.96449150985306E-11
0.1	0.75	2.06652089859728E-11
0.1	0.8	2.17374623993009E-11
0.1	0.85	2.28641902711744E-11
0.1	0.9	2.40481806988053E-11
0.1	0.95	2.52927447210675E-11
0.1	1.0	2.66013825518390E-11
0.1	1.05	2.79777989692524E-11
0.1	1.1	2.94258683212427E-11
0.1	1.15	3.09495822258545E-11
0.1	1.2	3.25536820208174E-11
0.2	0.0	4.79178558713677E-17
0.2	0.05	3.10283489271736E-10
0.2	0.1	3.52675408997050E-10
0.2	0.15	3.73247074223012E-10
0.2	0.2	3.93846582408022E-10
0.2	0.25	4.15240023192487E-10
0.2	0.3	4.37493925186987E-10
0.2	0.35	4.60669545833354E-10
0.2	0.4	4.84826075043675E-10
0.2	0.45	5.10006312752281E-10
0.2	0.5	5.36330463922590E-10
0.2	0.55	5.63790986659264E-10
0.2	0.6	5.92463847663095E-10
0.2	0.65	6.22420821740210E-10
0.2	0.7	6.53736199490382E-10
0.2	0.75	6.86476560583500E-10
0.2	0.8	7.20708139492609E-10
0.2	0.85	7.56505331215375E-10
0.2	0.9	7.93949006781529E-10
0.2	0.95	8.33118746458809E-10
0.2	1.0	8.74100692953481E-10
0.2	1.05	9.16984650592217E-10
0.2	1.1	9.61865064963487E-10
0.2	1.15	1.00884150575788E-09
0.2	1.2	1.05801832171007E-09
0.3	0.0	9.00878618706122E-17
0.3	0.05	1.03739061748792E-08
0.3	0.1	1.18487248825404E-08
0.3	0.15	1.25560936706993E-08
0.3	0.2	1.32547863378782E-08
0.3	0.25	1.39750070026242E-08
0.3	0.3	1.47195260282135E-08
0.3	0.35	1.54905642166571E-08
0.3	0.4	1.62901139678996E-08
0.3	0.45	1.71200500752014E-08
0.3	0.5	1.79821607473153E-08
0.3	0.55	1.88781589322654E-08
0.3	0.6	1.98097917784065E-08
0.3	0.65	2.07788370258365E-08
0.3	0.7	2.17870893511939E-08
0.3	0.75	2.28363721163808E-08
0.3	0.8	2.39285535300145E-08
0.3	0.85	2.50655545079755E-08
0.3	0.9	2.62493500000476E-08
0.3	0.95	2.74819783281131E-08
0.3	1.0	2.87655547757869E-08
0.3	1.05	3.01022731570277E-08
0.3	1.1	3.14944054490428E-08
0.3	1.15	3.29443240766325E-08
0.3	1.2	3.44544899585880E-08
0.4	0.0	-1.74727528490535E-17
0.4	0.05	3.30917977213893E-07
0.4	0.1	3.81832273075285E-07
0.4	0.15	4.05179643442052E-07
0.4	0.2	4.27510813648851E-07
0.4	0.25	4.50175860489607E-07
0.4	0.3	4.73328403474433E-07
0.4	0.35	4.97065174911125E-07
0.4	0.4	5.21472248052231E-07
0.4	0.45	5.46571243238885E-07
0.4	0.5	5.72436580529177E-07
0.4	0.55	5.99111178079781E-07
0.4	0.6	6.26634536960714E-07
0.4	0.65	6.55044812525284E-07
0.4	0.7	6.84378808861049E-07
0.4	0.75	7.14672753147927E-07
0.4	0.8	7.45962523836861E-07
0.4	0.85	7.78283530236949E-07
0.4	0.9	8.11671425594859E-07
0.4	0.95	8.46161493519261E-07
0.4	1.0	8.81789450258841E-07
0.4	1.05	9.18591277111819E-07
0.4	1.1	9.56603052182112E-07
0.4	1.15	9.95861636703800E-07
0.4	1.2	1.03640414946682E-06
0.5	0.0	8.22067756403745E-17
0.5	0.05	6.15681818216529E-06
0.5	0.1	7.58503056096517E-06
0.5	0.15	8.05143987644254E-06
0.5	0.2	8.41423999792632E-06
0.5	0.25	8.76178551502308E-06
0.5	0.3	9.10373037084000E-06
0.5	0.35	9.44382604648197E-06
0.5	0.4	9.78418741206125E-06
0.5	0.45	1.01259369436738E-05
0.5	0.5	1.04700045718694E-05
0.5	0.55	1.08169657579990E-05
0.5	0.6	1.11672386906466E-05
0.5	0.65	1.15211506866651E-05
0.5	0.7	1.18789675023820E-05
0.5	0.75	1.22408776110594E-05
0.5	0.8	1.26070815969906E-05
0.5	0.85	1.29776930829006E-05
0.5	0.9	1.33528572810646E-05
0.5	0.95	1.37326750329472E-05
0.5	1.0	1.41172221688687E-05
0.5	1.05	1.45065989741161E-05
0.5	1.1	1.49008536463645E-05
0.5	1.15	1.53000470664593E-05
0.5	1.2	1.57042385055966E-05
0.6	0.0	-9.14839104452198E-17
0.6	0.05	2.68158196617819E-05
0.6	0.1	3.99522547596219E-05
0.6	0.15	4.49892908138507E-05
0.6	0.2	4.70782442983880E-05
0.6	0.25	4.85266038677016E-05
0.6	0.3	4.98157801390701E-05
0.6	0.35	5.10338034414214E-05
0.6	0.4	5.22104350947933E-05
0.6	0.45	5.33612958370815E-05
0.6	0.5	5.44941606155591E-05
0.6	0.55	5.56138411168464E-05
0.6	0.6	5.67235744050573E-05
0.6	0.65	5.78256880085548E-05
0.6	0.7	5.89218610801069E-05
0.6	0.75	6.00134990731607E-05
0.6	0.8	6.11015985135902E-05
0.6	0.85	6.21869993753380E-05
0.6	0.9	6.32704248748464E-05
0.6	0.95	6.43524567051508E-05
0.6	1.0	6.54334976713518E-05
0.6	1.05	6.65141366206841E-05
0.6	1.1	6.75945715401091E-05
0.6	1.15	6.86751397767886E-05
0.6	1.2	6.97561926079914E-05
0.7	0.0	4.84127871970236E-17
0.7	0.05	5.11761668633220E-05
0.7	0.1	8.56827017401401E-05
0.7	0.15	1.06190465277970E-04
0.7	0.2	1.16727375787632E-04
0.7	0.25	1.21886038083026E-04
0.7	0.3	1.25057461792084E-04
0.7	0.35	1.27609839890375E-04
0.7	0.4	1.29906808026660E-04
0.7	0.45	1.32071343768273E-04
0.7	0.5	1.34154332097442E-04
0.7	0.55	1.36179549514587E-04
0.7	0.6	1.38160512191894E-04
0.7	0.65	1.40106162760823E-04
0.7	0.7	1.42022277063428E-04
0.7	0.75	1.43913562377362E-04
0.7	0.8	1.45782999340044E-04
0.7	0.85	1.47633457928718E-04
0.7	0.9	1.49467118189683E-04
0.7	0.95	1.51285606928957E-04
0.7	1.0	1.53090452585962E-04
0.7	1.05	1.54883152466597E-04
0.7	1.1	1.56664420175181E-04
0.7	1.15	1.58435505910075E-04
0.7	1.2	1.60197207639298E-04
0.8	0.0	5.45083631097438E-17
0.8	0.05	7.31120157409744E-05
0.8	0.1	1.29198541954412E-04
0.8	0.15	1.69533380569373E-04
0.8	0.2	1.96285928688995E-04
0.8	0.25	2.12428784400853E-04
0.8	0.3	2.21570160701909E-04
0.8	0.35	2.27127602845598E-04
0.8	0.4	2.31217845680545E-04
0.8	0.45	2.34698175438085E-04
0.8	0.5	2.37880934411766E-04
0.8	0.55	2.40894514989520E-04
0.8	0.6	2.43793851650248E-04
0.8	0.65	2.46607763952125E-04
0.8	0.7	2.49353607787214E-04
0.8	0.75	2.52042787162564E-04
0.8	0.8	2.54683423653378E-04
0.8	0.85	2.57281891203943E-04
0.8	0.9	2.59842941984113E-04
0.8	0.95	2.62370222022362E-04
0.8	1.0	2.64867188798978E-04
0.8	1.05	2.67336388820172E-04
0.8	1.1	2.69780189719599E-04
0.8	1.15	2.72200667236411E-04
0.8	1.2	2.74599404268175E-04
0.9	0.0	-6.38785259785737E-18
0.9	0.05	9.17669811574973E-05
0.9	0.1	1.67004344199662E-04
0.9	0.15	2.26334884435465E-04
0.9	0.2	2.71014445053057E-04
0.9	0.25	3.02782371347395E-04
0.9	0.3	3.23911612959171E-04
0.9	0.35	3.37202599104048E-04
0.9	0.4	3.45634301429020E-04
0.9	0.45	3.51583199036149E-04
0.9	0.5	3.56380251687953E-04
0.9	0.55	3.60625344111326E-04
0.9	0.6	3.64567764292178E-04
0.9	0.65	3.68318049719249E-04
0.9	0.7	3.71929146792789E-04
0.9	0.75	3.75431886035743E-04
0.9	0.8	3.78845990427830E-04
0.9	0.85	3.82184873848245E-04
0.9	0.9	3.85458157121377E-04
0.9	0.95	3.88674033267621E-04
0.9	1.0	3.91838879786085E-04
0.9	1.05	3.94956093392307E-04
0.9	1.1	3.98031983267775E-04
0.9	1.15	4.01069419658726E-04
0.9	1.2	4.04070032997367E-04
1.0	0.0	-6.27900775527738E-17
1.0	0.05	1.07361563713830E-04
1.0	0.1	1.98961534199575E-04
1.0	0.15	2.75102695530499E-04
1.0	0.2	3.36587597068368E-04
1.0	0.25	3.84512754667268E-04
1.0	0.3	4.20281682113660E-04
1.0	0.35	4.45673110847172E-04
1.0	0.4	4.62882784928886E-04
1.0	0.45	4.74385784821242E-04
1.0	0.5	4.82474586621985E-04
1.0	0.55	4.88761371174489E-04
1.0	0.6	4.94140590928332E-04
1.0	0.65	4.99036405198746E-04
1.0	0.7	5.03632252366672E-04
1.0	0.75	5.08019604414538E-04
1.0	0.8	5.12249931864425E-04
1.0	0.85	5.16351415624062E-04
1.0	0.9	5.20347731483885E-04
1.0	0.95	5.24252315848654E-04
1.0	1.0	5.28078384796721E-04
1.0	1.05	5.31833316727222E-04
1.0	1.1	5.35524972472013E-04
1.0	1.15	5.39160811123835E-04
1.0	1.2	5.42742246088289E-04
1.1	0.0	-9.81499771230110E-17
1.1	0.05	1.20358763683628E-04
1.1	0.1	2.25757522382811E-04
1.1	0.15	3.16346524106478E-04
1.1	0.2	3.92704139021336E-04
1.1	0.25	4.55598388597328E-04
1.1	0.3	5.05963780604611E-04
1.1	0.35	5.44941036971797E-04
1.1	0.4	5.73943203344502E-04
1.1	0.45	5.94710460064069E-04
1.1	0.5	6.09268410966731E-04
1.1	0.55	6.19674636152810E-04
1.1	0.6	6.27623737518595E-04
1.1	0.65	6.34237068679966E-04
1.1	0.7	6.40127321005548E-04
1.1	0.75	6.45584873817287E-04
1.1	0.8	6.50744965838618E-04
1.1	0.85	6.55684941801583E-04
1.1	0.9	6.60452579190238E-04
1.1	0.95	6.65077837530748E-04
1.1	1.0	6.69584790250057E-04
1.1	1.05	6.73986581023653E-04
1.1	1.1	6.78297960184169E-04
1.1	1.15	6.82527846760166E-04
1.1	1.2	6.86683249455043E-04
1.2	0.0	3.46490258649975E-17
1.2	0.05	1.31232151029959E-04
1.2	0.1	2.48242851333939E-04
1.2	0.15	3.51116222173009E-04
1.2	0.2	4.40325416534772E-04
1.2	0.25	5.16475810063492E-04
1.2	0.3	5.80259559696576E-04
1.2	0.35	6.32468886630588E-04
1.2	0.4	6.74037852880565E-04
1.2	0.45	7.06100877805521E-04
1.2	0.5	7.30048601486187E-04
1.2	0.55	7.47530975469123E-04
1.2	0.6	7.60329022037536E-04
1.2	0.65	7.70081150055073E-04
1.2	0.7	7.78037433056148E-04
1.2	0.75	7.84982552909885E-04
1.2	0.8	7.91326003904123E-04
1.2	0.85	7.97267725528123E-04
1.2	0.9	8.02916620005559E-04
1.2	0.95	8.08339003401720E-04
1.2	1.0	8.13579707067605E-04
1.2	1.05	8.18666318671453E-04
1.2	1.1	8.23621963163203E-04
1.2	1.15	8.28463157506100E-04
1.2	1.2	8.33203141917739E-04