vg	vd	ids
0.0	0.0	1.08114682231390E-16
0.0	0.05	9.01008702260657E-13
0.0	0.1	1.04048092350881E-12
0.0	0.15	1.14659102387481E-12
0.0	0.2	1.26185328552468E-12
0.0	0.25	1.38774185860727E-12
0.0	0.3	1.52622286478924E-12
0.0	0.35	1.67782744509292E-12
0.0	0.4	1.84518255327499E-12
0.0	0.45	2.02873299369658E-12
0.0	0.5	2.23275402858564E-12
0.0	0.55	2.45830729743429E-12
0.0	0.6	2.70937018451827E-12
0.0	0.65	2.98800463172693E-12
0.0	0.7	3.29987790662583E-12
0.0	0.75	3.65009638326467E-12
0.0	0.8	4.04318914119523E-12
0.0	0.85	4.48693444442629E-12
0.0	0.9	4.98972090763088E-12
0.0	0.95	5.56216190331654E-12
0.0	1.0	6.21536349417960E-12
0.0	1.05	6.96442841471548E-12
0.0	1.1	7.82727743575253E-12
0.0	1.15	8.82483370136700E-12
0.0	1.2	9.98566632515682E-12
0.1	0.0	2.20355630384789E-16
0.1	0.05	2.61084858384059E-11
0.1	0.1	3.01653851477608E-11
0.1	0.15	3.31085106371090E-11
0.1	0.2	3.62631508215683E-11
0.1	0.25	3.96649920425983E-11
0.1	0.3	4.33398812912319E-11
0.1	0.35	4.73122979154681E-11
0.1	0.4	5.16140586041483E-11
0.1	0.45	5.62743779970623E-11
0.1	0.5	6.13319427329743E-11
0.1	0.55	6.68274187927943E-11
0.1	0.6	7.28072687285517E-11
0.1	0.65	7.93245116055922E-11
0.1	0.7	8.64357721291071E-11
0.1	0.75	9.42068201546021E-11
0.1	0.8	1.02717689898524E-10
0.1	0.85	1.12053190438894E-10
0.1	0.9	1.22315361252112E-10
0.1	0.95	1.33619243643490E-10
0.1	1.0	1.46096388296652E-10
0.1	1.05	1.59904375545559E-10
0.1	1.1	1.75221585927738E-10
0.1	1.15	1.92275952123880E-10
0.1	1.2	2.11283748710840E-10
0.2	0.0	2.08722187911920E-16
0.2	0.05	7.67202845056870E-10
0.2	0.1	8.88999112321212E-10
0.2	0.15	9.73990048576262E-10
0.2	0.2	1.06384119977498E-09
0.2	0.25	1.15963945818127E-09
0.2	0.3	1.26189850583892E-09
0.2	0.35	1.37116285239252E-09
0.2	0.4	1.48801444977627E-09
0.2	0.45	1.61307878991832E-09
0.2	0.5	1.74703705700411E-09
0.2	0.55	1.89062792960525E-09
0.2	0.6	2.04460702691560E-09
0.2	0.65	2.20995188139586E-09
0.2	0.7	2.38761777241049E-09
0.2	0.75	2.57861786303939E-09
0.2	0.8	2.78420235279268E-09
0.2	0.85	3.00564769802392E-09
0.2	0.9	3.24437757168507E-09
0.2	0.95	3.50205456977397E-09
0.2	1.0	3.78047577506915E-09
0.2	1.05	4.08166288584519E-09
0.2	1.1	4.40776261475523E-09
0.2	1.15	4.76133022580421E-09
0.2	1.2	5.14523262564410E-09
0.3	0.0	-2.68593666467932E-16
0.3	0.05	2.25045886022465E-08
0.3	0.1	2.62163802160345E-08
0.3	0.15	2.87118379196804E-08
0.3	0.2	3.13094593970227E-08
0.3	0.25	3.40459657110210E-08
0.3	0.3	3.69337424880640E-08
0.3	0.35	3.99849547939750E-08
0.3	0.4	4.32118905340473E-08
0.3	0.45	4.66272112845533E-08
0.3	0.5	5.02441193055568E-08
0.3	0.55	5.40762499832829E-08
0.3	0.6	5.81372399933541E-08
0.3	0.65	6.24476300035562E-08
0.3	0.7	6.70172890888124E-08
0.3	0.75	7.18694293622617E-08
0.3	0.8	7.70209546530742E-08
0.3	0.85	8.24929609060693E-08
0.3	0.9	8.83079017567271E-08
0.3	0.95	9.44893334797434E-08
0.3	1.0	1.01062727921600E-07
0.3	1.05	1.08056548436322E-07
0.3	1.1	1.15501189807139E-07
0.3	1.15	1.23429354460175E-07
0.3	1.2	1.31876673611244E-07
0.4	0.0	-2.22868085411464E-16
0.4	0.05	6.17825428321369E-07
0.4	0.1	7.27735706435330E-07
0.4	0.15	7.95776143710766E-07
0.4	0.2	8.64415941106923E-07
0.4	0.25	9.35224954927895E-07
0.4	0.3	1.00853366113803E-06
0.4	0.35	1.08459386717822E-06
0.4	0.4	1.16362157115350E-06
0.4	0.45	1.24581107994949E-06
0.4	0.5	1.33134607232320E-06
0.4	0.55	1.42040186469084E-06
0.4	0.6	1.51315308712055E-06
0.4	0.65	1.60976087382268E-06
0.4	0.7	1.71043124563704E-06
0.4	0.75	1.81530585429131E-06
0.4	0.8	1.92458493577089E-06
0.4	0.85	2.03844791344442E-06
0.4	0.9	2.15707946219934E-06
0.4	0.95	2.28067880561375E-06
0.4	1.0	2.40944679442623E-06
0.4	1.05	2.54358900812524E-06
0.4	1.1	2.68332266946918E-06
0.4	1.15	2.82886702949239E-06
0.4	1.2	2.98045186469386E-06
0.5	0.0	2.25881623439292E-16
0.5	0.05	9.16093020100506E-06
0.5	0.1	1.15021055960893E-05
0.5	0.15	1.24473511472171E-05
0.5	0.2	1.32523839878478E-05
0.5	0.25	1.40336587948268E-05
0.5	0.3	1.48043621677647E-05
0.5	0.35	1.55698460645366E-05
0.5	0.4	1.63333429366795E-05
0.5	0.45	1.70971864269224E-05
0.5	0.5	1.78630588397394E-05
0.5	0.55	1.86322891865498E-05
0.5	0.6	1.94058215855063E-05
0.5	0.65	2.01846422958939E-05
0.5	0.7	2.09692746260835E-05
0.5	0.75	2.17604286025621E-05
0.5	0.8	2.25585099352052E-05
0.5	0.85	2.33640174050819E-05
0.5	0.9	2.41773839332996E-05
0.5	0.95	2.49989210541113E-05
0.5	1.0	2.58290160890710E-05
0.5	1.05	2.66679651467399E-05
0.5	1.1	2.75160764920015E-05
0.5	1.15	2.83736164237906E-05
0.5	1.2	2.92408666103776E-05
0.6	0.0	-1.24945899167060E-16
0.6	0.05	3.44030886849808E-05
0.6	0.1	5.13876799820638E-05
0.6	0.15	5.82100624416601E-05
0.6	0.2	6.14906938325111E-05
0.6	0.25	6.40235967057393E-05
0.6	0.3	6.63422584580368E-05
0.6	0.35	6.85392795031864E-05
0.6	0.4	7.06491396724450E-05
0.6	0.45	7.26921972030676E-05
0.6	0.5	7.46833881625375E-05
0.6	0.55	7.66324904992235E-05
0.6	0.6	7.85475166745257E-05
0.6	0.65	8.04342087028171E-05
0.6	0.7	8.22971083933044E-05
0.6	0.75	8.41400882755836E-05
0.6	0.8	8.59660987996693E-05
0.6	0.85	8.77776764059228E-05
0.6	0.9	8.95773616185354E-05
0.6	0.95	9.13666882730858E-05
0.6	1.0	9.31475825865929E-05
0.6	1.05	9.49214813479188E-05
0.6	1.1	9.66897351938429E-05
0.6	1.15	9.84534939912686E-05
0.6	1.2	1.00213776227801E-04
0.7	0.0	-5.29545806769214E-17
0.7	0.05	6.23123520202171E-05
0.7	0.1	1.03836139412086E-04
0.7	0.15	1.28221884999880E-04
0.7	0.2	1.40834748459815E-04
0.7	0.25	1.47530354732034E-04
0.7	0.3	1.52229719170353E-04
0.7	0.35	1.56275274773943E-04
0.7	0.4	1.59983382448607E-04
0.7	0.45	1.63458770208039E-04
0.7	0.5	1.66760587266611E-04
0.7	0.55	1.69927511154775E-04
0.7	0.6	1.72987527761757E-04
0.7	0.65	1.75959191648591E-04
0.7	0.7	1.78857278126970E-04
0.7	0.75	1.81692672888676E-04
0.7	0.8	1.84473826265523E-04
0.7	0.85	1.87207847291386E-04
0.7	0.9	1.89900785253227E-04
0.7	0.95	1.92557263850328E-04
0.7	1.0	1.95181444393555E-04
0.7	1.05	1.97777229680703E-04
0.7	1.1	2.00347557267268E-04
0.7	1.15	2.02894955433028E-04
0.7	1.2	2.05422110064070E-04
0.8	0.0	-1.89893450069534E-16
0.8	0.05	8.68337897348273E-05
0.8	0.1	1.52522516626750E-04
0.8	0.15	1.98981011766152E-04
0.8	0.2	2.29274082594592E-04
0.8	0.25	2.47411933913744E-04
0.8	0.3	2.58063303696578E-04
0.8	0.35	2.65261313860251E-04
0.8	0.4	2.71119461368397E-04
0.8	0.45	2.76312302130793E-04
0.8	0.5	2.81074570696181E-04
0.8	0.55	2.85527782966728E-04
0.8	0.6	2.89747160795639E-04
0.8	0.65	2.93783836981702E-04
0.8	0.7	2.97674279988064E-04
0.8	0.75	3.01443274925563E-04
0.8	0.8	3.05109552094688E-04
0.8	0.85	3.08688567623163E-04
0.8	0.9	3.12190213294760E-04
0.8	0.95	3.15624999154150E-04
0.8	1.0	3.19000807880971E-04
0.8	1.05	3.22323600212361E-04
0.8	1.1	3.25599697889835E-04
0.8	1.15	3.28832969586782E-04
0.8	1.2	3.32028556431540E-04
0.9	0.0	-3.99048621037870E-16
0.9	0.05	1.07474306825091E-04
0.9	0.1	1.94364352444514E-04
0.9	0.15	2.61783321318430E-04
0.9	0.2	3.11666115387035E-04
0.9	0.25	3.46505371393968E-04
0.9	0.3	3.69409090169168E-04
0.9	0.35	3.84036651055600E-04
0.9	0.4	3.93995961939791E-04
0.9	0.45	4.01763231965215E-04
0.9	0.5	4.08442098408870E-04
0.9	0.55	4.14442925062696E-04
0.9	0.6	4.19966804738071E-04
0.9	0.65	4.25143225825943E-04
0.9	0.7	4.30054323325127E-04
0.9	0.75	4.34757369223030E-04
0.9	0.8	4.39290910364498E-04
0.9	0.85	4.43683227111076E-04
0.9	0.9	4.47955181485407E-04
0.9	0.95	4.52123541979282E-04
0.9	1.0	4.56200855506165E-04
0.9	1.05	4.60198013400586E-04
0.9	1.1	4.64123299367001E-04
0.9	1.15	4.67986857845689E-04
0.9	1.2	4.71791472141395E-04
1.0	0.0	6.59695521955470E-17
1.0	0.05	1.24687622337840E-04
1.0	0.1	2.29631329107007E-04
1.0	0.15	3.15536203220871E-04
1.0	0.2	3.83769020521448E-04
1.0	0.25	4.36034621166144E-04
1.0	0.3	4.74383400420130E-04
1.0	0.35	5.01276671760140E-04
1.0	0.4	5.19611090480256E-04
1.0	0.45	5.32435883047332E-04
1.0	0.5	5.42235863228028E-04
1.0	0.55	5.50430783669760E-04
1.0	0.6	5.57657240497485E-04
1.0	0.65	5.64216144588843E-04
1.0	0.7	5.70290202048196E-04
1.0	0.75	5.76007297545296E-04
1.0	0.8	5.81449548048991E-04
1.0	0.85	5.86673591042065E-04
1.0	0.9	5.91717628658911E-04
1.0	0.95	5.96609651530487E-04
1.0	1.0	6.01372533152658E-04
1.0	1.05	6.06020961848938E-04
1.0	1.1	6.10571715151285E-04
1.0	1.15	6.15033584401408E-04
1.0	1.2	6.19417332706323E-04
1.1	0.0	-4.55086752037569E-16
1.1	0.05	1.39057849054768E-04
1.1	0.1	2.59246972794368E-04
1.1	0.15	3.61060957661772E-04
1.1	0.2	4.45567106833877E-04
1.1	0.25	5.14053020442111E-04
1.1	0.3	5.67991852134487E-04
1.1	0.35	6.09074384365265E-04
1.1	0.4	6.39289331525053E-04
1.1	0.45	6.60958789373449E-04
1.1	0.5	6.76610295632260E-04
1.1	0.55	6.88535708137902E-04
1.1	0.6	6.98309488285000E-04
1.1	0.65	7.06774634789913E-04
1.1	0.7	7.14359802207137E-04
1.1	0.75	7.21312023879301E-04
1.1	0.8	7.27797039923452E-04
1.1	0.85	7.33933572233653E-04
1.1	0.9	7.39797337051954E-04
1.1	0.95	7.45442943421362E-04
1.1	1.0	7.50902849200855E-04
1.1	1.05	7.56209334330930E-04
1.1	1.1	7.61381416025510E-04
1.1	1.15	7.66434487700515E-04
1.1	1.2	7.71386176665725E-04
1.2	0.0	1.98711048217486E-17
1.2	0.05	1.51122365770702E-04
1.2	0.1	2.84188053182639E-04
1.2	0.15	3.99583681755416E-04
1.2	0.2	4.98218793099535E-04
1.2	0.25	5.81156144677004E-04
1.2	0.3	6.49552647267164E-04
1.2	0.35	7.04662250256794E-04
1.2	0.4	7.47899212211146E-04
1.2	0.45	7.80887823220223E-04
1.2	0.5	8.05512404400442E-04
1.2	0.55	8.23857637857938E-04
1.2	0.6	8.37946307377133E-04
1.2	0.65	8.49367653072058E-04
1.2	0.7	8.59112757444379E-04
1.2	0.75	8.67735233048846E-04
1.2	0.8	8.75561870637038E-04
1.2	0.85	8.82805590867763E-04
1.2	0.9	8.89613381831335E-04
1.2	0.95	8.96089206816871E-04
1.2	1.0	9.02302161963485E-04
1.2	1.05	9.08299137444982E-04
1.2	1.1	9.14112495088149E-04
1.2	1.15	9.19772201459510E-04
1.2	1.2	9.25295397850895E-04