vg	vd	ids
0.0	0.0	1.21730068568303E-17
0.0	0.05	2.02007363959407E-12
0.0	0.1	2.30660164467706E-12
0.0	0.15	2.52876352247946E-12
0.0	0.2	2.77340360838311E-12
0.0	0.25	3.04410854207405E-12
0.0	0.3	3.34484712880754E-12
0.0	0.35	3.68033445756074E-12
0.0	0.4	4.05506293874173E-12
0.0	0.45	4.47948597692497E-12
0.0	0.5	4.95731907471023E-12
0.0	0.55	5.50174609428763E-12
0.0	0.6	6.12306884123479E-12
0.0	0.65	6.84042698404479E-12
0.0	0.7	7.67472955200158E-12
0.0	0.75	8.64448616815149E-12
0.0	0.8	9.78369616251414E-12
0.0	0.85	1.11315313100535E-11
0.0	0.9	1.27377041895329E-11
0.0	0.95	1.46659450746698E-11
0.0	1.0	1.69972604701807E-11
0.0	1.05	1.98359628793146E-11
0.0	1.1	2.33155464461945E-11
0.0	1.15	2.76071784277575E-11
0.0	1.2	3.29341119679397E-11
0.1	0.0	4.23070259679572E-18
0.1	0.05	6.29966676705298E-11
0.1	0.1	7.17468281197787E-11
0.1	0.15	7.80462309770715E-11
0.1	0.2	8.48292272428512E-11
0.1	0.25	9.21723340579624E-11
0.1	0.3	1.00141886966414E-10
0.1	0.35	1.08812619396053E-10
0.1	0.4	1.18269412371983E-10
0.1	0.45	1.28609528842385E-10
0.1	0.5	1.39945872202681E-10
0.1	0.55	1.52343346081426E-10
0.1	0.6	1.66085433885371E-10
0.1	0.65	1.81356032333329E-10
0.1	0.7	1.98232326101521E-10
0.1	0.75	2.17034290255943E-10
0.1	0.8	2.38064049698591E-10
0.1	0.85	2.61679793921069E-10
0.1	0.9	2.88327676074771E-10
0.1	0.95	3.18527082283445E-10
0.1	1.0	3.52920384211649E-10
0.1	1.05	3.92292752263077E-10
0.1	1.1	4.37611383336097E-10
0.1	1.15	4.90049020944020E-10
0.1	1.2	5.51061669892207E-10
0.2	0.0	-8.78095528710599E-18
0.2	0.05	2.01244703186585E-09
0.2	0.1	2.29347915179583E-09
0.2	0.15	2.48374386373308E-09
0.2	0.2	2.68492703359430E-09
0.2	0.25	2.89921202152995E-09
0.2	0.3	3.12799573696809E-09
0.2	0.35	3.37274046328118E-09
0.2	0.4	3.63499278831709E-09
0.2	0.45	3.91647258627827E-09
0.2	0.5	4.21905753815222E-09
0.2	0.55	4.54484040782113E-09
0.2	0.6	4.89614463557778E-09
0.2	0.65	5.27558580164639E-09
0.2	0.7	5.68610351176157E-09
0.2	0.75	6.13103306476110E-09
0.2	0.8	6.61411898644199E-09
0.2	0.85	7.13971920759350E-09
0.2	0.9	7.71271013403242E-09
0.2	0.95	8.33885255321243E-09
0.2	1.0	9.02472675924909E-09
0.2	1.05	9.77799325523614E-09
0.2	1.1	1.06075191812123E-08
0.2	1.15	1.15237177705886E-08
0.2	1.2	1.25387641308980E-08
0.3	0.0	1.18762631475585E-17
0.3	0.05	6.44010043195289E-08
0.3	0.1	7.36855349000748E-08
0.3	0.15	7.96049669705718E-08
0.3	0.2	8.57329824460478E-08
0.3	0.25	9.21554737210766E-08
0.3	0.3	9.89075393592118E-08
0.3	0.35	1.06023466678432E-07
0.3	0.4	1.13536101267690E-07
0.3	0.45	1.21479200674369E-07
0.3	0.5	1.29887461598802E-07
0.3	0.55	1.38797344881130E-07
0.3	0.6	1.48247619123064E-07
0.3	0.65	1.58279678784696E-07
0.3	0.7	1.68938257648429E-07
0.3	0.75	1.80271448005807E-07
0.3	0.8	1.92331815157579E-07
0.3	0.85	2.05176140542325E-07
0.3	0.9	2.18867546357636E-07
0.3	0.95	2.33474638029407E-07
0.3	1.0	2.49073152127534E-07
0.3	1.05	2.65746774181139E-07
0.3	1.1	2.83588537724910E-07
0.3	1.15	3.02701406934730E-07
0.3	1.2	3.23200313068377E-07
0.4	0.0	-2.93398553405892E-17
0.4	0.05	1.83451873300691E-06
0.4	0.1	2.12998286595872E-06
0.4	0.15	2.29157575541050E-06
0.4	0.2	2.45074325777111E-06
0.4	0.25	2.61250081311336E-06
0.4	0.3	2.77806155258599E-06
0.4	0.35	2.94830638029732E-06
0.4	0.4	3.12387291505116E-06
0.4	0.45	3.30526830835860E-06
0.4	0.5	3.49294186309394E-06
0.4	0.55	3.68728275172372E-06
0.4	0.6	3.88867110840645E-06
0.4	0.65	4.09745097831285E-06
0.4	0.7	4.31398276809377E-06
0.4	0.75	4.53859698206281E-06
0.4	0.8	4.77164295645491E-06
0.4	0.85	5.01346749337342E-06
0.4	0.9	5.26442310328432E-06
0.4	0.95	5.52487635718284E-06
0.4	1.0	5.79520061716026E-06
0.4	1.05	6.07578490191767E-06
0.4	1.1	6.36703828693415E-06
0.4	1.15	6.66938704384992E-06
0.4	1.2	6.98327462003297E-06
0.5	0.0	5.49923933903602E-17
0.5	0.05	2.08648289433979E-05
0.5	0.1	2.69093185328182E-05
0.5	0.15	2.88357376610820E-05
0.5	0.2	3.02429367273750E-05
0.5	0.25	3.15561021735007E-05
0.5	0.3	3.28254988132812E-05
0.5	0.35	3.40713737696540E-05
0.5	0.4	3.53046247592169E-05
0.5	0.45	3.65318713652566E-05
0.5	0.5	3.77572160936191E-05
0.5	0.55	3.89838319669291E-05
0.5	0.6	4.02137460753297E-05
0.5	0.65	4.14487006329134E-05
0.5	0.7	4.26899380267810E-05
0.5	0.75	4.39385249688415E-05
0.5	0.8	4.51952098832380E-05
0.5	0.85	4.64608568817744E-05
0.5	0.9	4.77358580918170E-05
0.5	0.95	4.90209217411341E-05
0.5	1.0	5.03164047191195E-05
0.5	1.05	5.16227365120561E-05
0.5	1.1	5.29403557102621E-05
0.5	1.15	5.42696528886871E-05
0.5	1.2	5.56109061694318E-05
0.6	0.0	-8.03402168939202E-18
0.6	0.05	6.02732187641267E-05
0.6	0.1	9.31620461563684E-05
0.6	0.15	1.07416481615417E-04
0.6	0.2	1.13336656838878E-04
0.6	0.25	1.17117273438104E-04
0.6	0.3	1.20350352473545E-04
0.6	0.35	1.23340041666272E-04
0.6	0.4	1.26190328170112E-04
0.6	0.45	1.28949396442031E-04
0.6	0.5	1.31642969366165E-04
0.6	0.55	1.34286222008370E-04
0.6	0.6	1.36890624666450E-04
0.6	0.65	1.39463176540990E-04
0.6	0.7	1.42009577646059E-04
0.6	0.75	1.44534486972370E-04
0.6	0.8	1.47040775991018E-04
0.6	0.85	1.49531638785918E-04
0.6	0.9	1.52009210010161E-04
0.6	0.95	1.54475577561059E-04
0.6	1.0	1.56932051519359E-04
0.6	1.05	1.59380401769628E-04
0.6	1.1	1.61821781908296E-04
0.6	1.15	1.64257342331417E-04
0.6	1.2	1.66687954800653E-04
0.7	0.0	-2.39778610810931E-17
0.7	0.05	9.79620858397180E-05
0.7	0.1	1.66382853032726E-04
0.7	0.15	2.09062121099956E-04
0.7	0.2	2.32256098429617E-04
0.7	0.25	2.43898026908007E-04
0.7	0.3	2.50812329455729E-04
0.7	0.35	2.56156158637457E-04
0.7	0.4	2.60860991376685E-04
0.7	0.45	2.65240238921923E-04
0.7	0.5	2.69416984378518E-04
0.7	0.55	2.73449124216114E-04
0.7	0.6	2.77371029744105E-04
0.7	0.65	2.81203743968158E-04
0.7	0.7	2.84962414821501E-04
0.7	0.75	2.88658660456193E-04
0.7	0.8	2.92300344423230E-04
0.7	0.85	2.95893742390703E-04
0.7	0.9	2.99444607763085E-04
0.7	0.95	3.02957955764414E-04
0.7	1.0	3.06435238814003E-04
0.7	1.05	3.09881953233061E-04
0.7	1.1	3.13300056174034E-04
0.7	1.15	3.16691477461212E-04
0.7	1.2	3.20058071624776E-04
0.8	0.0	-5.34463323817050E-19
0.8	0.05	1.28563840405656E-04
0.8	0.1	2.28753842597092E-04
0.8	0.15	3.02256229628592E-04
0.8	0.2	3.52246722220574E-04
0.8	0.25	3.83256847913559E-04
0.8	0.3	4.01150755152423E-04
0.8	0.35	4.11951302932471E-04
0.8	0.4	4.19696584460189E-04
0.8	0.45	4.26153249583848E-04
0.8	0.5	4.31992714660601E-04
0.8	0.55	4.37477327369299E-04
0.8	0.6	4.42719767581004E-04
0.8	0.65	4.47781448866000E-04
0.8	0.7	4.52699204491520E-04
0.8	0.75	4.57499132298287E-04
0.8	0.8	4.62197117215890E-04
0.8	0.85	4.66808994880070E-04
0.8	0.9	4.71342360197937E-04
0.8	0.95	4.75806054696447E-04
0.8	1.0	4.80209388039594E-04
0.8	1.05	4.84553360655583E-04
0.8	1.1	4.88846426588586E-04
0.8	1.15	4.93093071032447E-04
0.8	1.2	4.97291980040311E-04
0.9	0.0	6.17253929186269E-18
0.9	0.05	1.52553925273685E-04
0.9	0.1	2.78653967972113E-04
0.9	0.15	3.79148170777027E-04
0.9	0.2	4.55846740365768E-04
0.9	0.25	5.11254719807443E-04
0.9	0.3	5.48712069723214E-04
0.9	0.35	5.72563100955595E-04
0.9	0.4	5.87701471008303E-04
0.9	0.45	5.98239769980327E-04
0.9	0.5	6.06609544369086E-04
0.9	0.55	6.13942117008053E-04
0.9	0.6	6.20703862836556E-04
0.9	0.65	6.27095818499196E-04
0.9	0.7	6.33217033824186E-04
0.9	0.75	6.39131006655480E-04
0.9	0.8	6.44873676271120E-04
0.9	0.85	6.50476184284894E-04
0.9	0.9	6.55954473825201E-04
0.9	0.95	6.61325421518525E-04
0.9	1.0	6.66603205471717E-04
0.9	1.05	6.71791630918233E-04
0.9	1.1	6.76903651455823E-04
0.9	1.15	6.81945316732800E-04
0.9	1.2	6.86919224265347E-04
1.0	0.0	-5.71496812273174E-17
1.0	0.05	1.71326998616814E-04
1.0	0.1	3.18049583444358E-04
1.0	0.15	4.40722061940438E-04
1.0	0.2	5.40610379321985E-04
1.0	0.25	6.19302281729376E-04
1.0	0.3	6.78750708335104E-04
1.0	0.35	7.21464988658541E-04
1.0	0.4	7.50684644017144E-04
1.0	0.45	7.70261265522933E-04
1.0	0.5	7.83931989458719E-04
1.0	0.55	7.94445779936178E-04
1.0	0.6	8.03374369208689E-04
1.0	0.65	8.11446875577584E-04
1.0	0.7	8.18978945155272E-04
1.0	0.75	8.26130598328822E-04
1.0	0.8	8.32993406153791E-04
1.0	0.85	8.39629063302607E-04
1.0	0.9	8.46071266053972E-04
1.0	0.95	8.52355100413590E-04
1.0	1.0	8.58497009408752E-04
1.0	1.05	8.64514166854589E-04
1.0	1.1	8.70423474997548E-04
1.0	1.15	8.76231180215936E-04
1.0	1.2	8.81949204573619E-04
1.1	0.0	4.41464395342614E-17
1.1	0.05	1.86179216472382E-04
1.1	0.1	3.49307381850029E-04
1.1	0.15	4.89868604687695E-04
1.1	0.2	6.08941812261389E-04
1.1	0.25	7.07751523347135E-04
1.1	0.3	7.87630503710856E-04
1.1	0.35	8.50120090288574E-04
1.1	0.4	8.97122716851233E-04
1.1	0.45	9.31073394088496E-04
1.1	0.5	9.54959800734802E-04
1.1	0.55	9.71974195836203E-04
1.1	0.6	9.84872142228447E-04
1.1	0.65	9.95537265295788E-04
1.1	0.7	1.00498581049466E-03
1.1	0.75	1.01368772928342E-03
1.1	0.8	1.02187098467124E-03
1.1	0.85	1.02967541105842E-03
1.1	0.9	1.03717646331077E-03
1.1	0.95	1.04443040673727E-03
1.1	1.0	1.05147674727925E-03
1.1	1.05	1.05834671098220E-03
1.1	1.1	1.06506028131190E-03
1.1	1.15	1.07164056085558E-03
1.1	1.2	1.07809461145917E-03
1.2	0.0	-2.22925637874431E-17
1.2	0.05	1.98117145959790E-04
1.2	0.1	3.74425396844941E-04
1.2	0.15	5.29420908116296E-04
1.2	0.2	6.64143306483273E-04
1.2	0.25	7.79698460605859E-04
1.2	0.3	8.77177199087157E-04
1.2	0.35	9.57696908641393E-04
1.2	0.4	1.02247931936049E-03
1.2	0.45	1.07298775141575E-03
1.2	0.5	1.11106371458135E-03
1.2	0.55	1.13900879438126E-03
1.2	0.6	1.15944906613242E-03
1.2	0.65	1.17493574279811E-03
1.2	0.7	1.18749477695922E-03
1.2	0.75	1.19841096406731E-03
1.2	0.8	1.20832965069335E-03
1.2	0.85	1.21757275652797E-03
1.2	0.9	1.22632635446540E-03
1.2	0.95	1.23468974323681E-03
1.2	1.0	1.24274034439707E-03
1.2	1.05	1.25052968812170E-03
1.2	1.1	1.25809940528794E-03
1.2	1.15	1.26548222642211E-03
1.2	1.2	1.27269716371693E-03