vg	vd	ids
0.0	0.0	7.32330710616759E-17
0.0	0.05	1.94312070870514E-13
0.0	0.1	2.17360341383457E-13
0.0	0.15	2.27341655899737E-13
0.0	0.2	2.37513338671891E-13
0.0	0.25	2.47977937773806E-13
0.0	0.3	2.58679467973795E-13
0.0	0.35	2.70144823805404E-13
0.0	0.4	2.82035873124815E-13
0.0	0.45	2.94220737330560E-13
0.0	0.5	3.06989778899876E-13
0.0	0.55	3.20412916575403E-13
0.0	0.6	3.34116802842845E-13
0.0	0.65	3.48818024962288E-13
0.0	0.7	3.63985981138210E-13
0.0	0.75	3.79184376106235E-13
0.0	0.8	3.96023972522033E-13
0.0	0.85	4.13027916660540E-13
0.0	0.9	4.31049638479991E-13
0.0	0.95	4.50164652812002E-13
0.0	1.0	4.69473703822977E-13
0.0	1.05	4.90035607890215E-13
0.0	1.1	5.11862252417212E-13
0.0	1.15	5.34235101270159E-13
0.0	1.2	5.57842053461161E-13
0.1	0.0	-6.24217345174647E-17
0.1	0.05	6.41521175825087E-12
0.1	0.1	7.20405955641216E-12
0.1	0.15	7.55308594586192E-12
0.1	0.2	7.89963319128448E-12
0.1	0.25	8.25756356472853E-12
0.1	0.3	8.62782336560480E-12
0.1	0.35	9.01103426567061E-12
0.1	0.4	9.40786690718908E-12
0.1	0.45	9.81995430156366E-12
0.1	0.5	1.02438376635413E-11
0.1	0.55	1.06911783132970E-11
0.1	0.6	1.11526087213336E-11
0.1	0.65	1.16320588731268E-11
0.1	0.7	1.21327660910558E-11
0.1	0.75	1.26524469315216E-11
0.1	0.8	1.31930917163829E-11
0.1	0.85	1.37571469517408E-11
0.1	0.9	1.43438147348820E-11
0.1	0.95	1.49552844603841E-11
0.1	1.0	1.55923702488045E-11
0.1	1.05	1.62559161002325E-11
0.1	1.1	1.69480623106166E-11
0.1	1.15	1.76693201187946E-11
0.1	1.2	1.84208135054777E-11
0.2	0.0	-1.57470337463436E-16
0.2	0.05	2.14273799114048E-10
0.2	0.1	2.41708715068498E-10
0.2	0.15	2.53872381704350E-10
0.2	0.2	2.65846554773739E-10
0.2	0.25	2.78149555084794E-10
0.2	0.3	2.90817828645997E-10
0.2	0.35	3.03883946242647E-10
0.2	0.4	3.17377677088877E-10
0.2	0.45	3.31327532229804E-10
0.2	0.5	3.45646072230087E-10
0.2	0.55	3.60632573663767E-10
0.2	0.6	3.76154458772217E-10
0.2	0.65	3.92186981958697E-10
0.2	0.7	4.08839580310380E-10
0.2	0.75	4.26130678096886E-10
0.2	0.8	4.44048924013172E-10
0.2	0.85	4.62646296662505E-10
0.2	0.9	4.81953812712219E-10
0.2	0.95	5.02004175914882E-10
0.2	1.0	5.22819087886839E-10
0.2	1.05	5.44438754323041E-10
0.2	1.1	5.66897708518217E-10
0.2	1.15	5.90231068640887E-10
0.2	1.2	6.14476204854453E-10
0.3	0.0	7.05980560624903E-17
0.3	0.05	7.17010447244706E-09
0.3	0.1	8.13179909863900E-09
0.3	0.15	8.55884887432218E-09
0.3	0.2	8.97401280931123E-09
0.3	0.25	9.39759850919972E-09
0.3	0.3	9.83124926307392E-09
0.3	0.35	1.02762676490420E-08
0.3	0.4	1.07337880957752E-08
0.3	0.45	1.12048312165801E-08
0.3	0.5	1.16874612785889E-08
0.3	0.55	1.21890882232268E-08
0.3	0.6	1.27073490349488E-08
0.3	0.65	1.32421570547888E-08
0.3	0.7	1.37942878558372E-08
0.3	0.75	1.43650942224525E-08
0.3	0.8	1.49554930563065E-08
0.3	0.85	1.55662288700248E-08
0.3	0.9	1.61981490787723E-08
0.3	0.95	1.68521321516150E-08
0.3	1.0	1.75290532667617E-08
0.3	1.05	1.82298109532003E-08
0.3	1.1	1.89553207252983E-08
0.3	1.15	1.97065243595800E-08
0.3	1.2	2.04843930860517E-08
0.4	0.0	5.50580203892899E-17
0.4	0.05	2.31675210668324E-07
0.4	0.1	2.65270827823456E-07
0.4	0.15	2.79843478794358E-07
0.4	0.2	2.93634182130597E-07
0.4	0.25	3.07515056912072E-07
0.4	0.3	3.21577427292485E-07
0.4	0.35	3.35882266299524E-07
0.4	0.4	3.50475753649206E-07
0.4	0.45	3.65373704987618E-07
0.4	0.5	3.80666211926132E-07
0.4	0.55	3.96332971101320E-07
0.4	0.6	4.12409692037079E-07
0.4	0.65	4.28921168431843E-07
0.4	0.7	4.45889159275584E-07
0.4	0.75	4.63334099426552E-07
0.4	0.8	4.81275790919733E-07
0.4	0.85	4.99734134774780E-07
0.4	0.9	5.18728299830114E-07
0.4	0.95	5.38277012844404E-07
0.4	1.0	5.58398833375200E-07
0.4	1.05	5.79112347618941E-07
0.4	1.1	6.00435999873667E-07
0.4	1.15	6.22388387474036E-07
0.4	1.2	6.44988305177515E-07
0.5	0.0	-9.81279544553048E-17
0.5	0.05	4.78229751557470E-06
0.5	0.1	5.78737380948621E-06
0.5	0.15	6.11064441829268E-06
0.5	0.2	6.36851723382763E-06
0.5	0.25	6.61631161557837E-06
0.5	0.3	6.85951565680518E-06
0.5	0.35	7.10046231306640E-06
0.5	0.4	7.34041877084874E-06
0.5	0.45	7.58088761420861E-06
0.5	0.5	7.82212099885217E-06
0.5	0.55	8.06477171353539E-06
0.5	0.6	8.30923212977600E-06
0.5	0.65	8.55583426133114E-06
0.5	0.7	8.80483453216001E-06
0.5	0.75	9.05644261119366E-06
0.5	0.8	9.31084408472353E-06
0.5	0.85	9.56817187296981E-06
0.5	0.9	9.82856416702131E-06
0.5	0.95	1.00921262599842E-05
0.5	1.0	1.03589408488512E-05
0.5	1.05	1.06291027601283E-05
0.5	1.1	1.09026726173750E-05
0.5	1.15	1.11797089241065E-05
0.5	1.2	1.14602771748002E-05
0.6	0.0	8.40701442127742E-17
0.6	0.05	2.35504358735088E-05
0.6	0.1	3.44702281491892E-05
0.6	0.15	3.83541437134717E-05
0.6	0.2	3.99444022951356E-05
0.6	0.25	4.10938613908972E-05
0.6	0.3	4.21344513902979E-05
0.6	0.35	4.31184652912177E-05
0.6	0.4	4.40655518452093E-05
0.6	0.45	4.49877491665727E-05
0.6	0.5	4.58916878145853E-05
0.6	0.55	4.67820383315649E-05
0.6	0.6	4.76622792676300E-05
0.6	0.65	4.85346039706381E-05
0.6	0.7	4.94009851000182E-05
0.6	0.75	5.02627150490511E-05
0.6	0.8	5.11209225283506E-05
0.6	0.85	5.19765404880361E-05
0.6	0.9	5.28302461338373E-05
0.6	0.95	5.36826426394662E-05
0.6	1.0	5.45342198833307E-05
0.6	1.05	5.53854164506314E-05
0.6	1.1	5.62365130559325E-05
0.6	1.15	5.70878518222364E-05
0.6	1.2	5.79397032523500E-05
0.7	0.0	-7.02373850978721E-17
0.7	0.05	4.67690982429396E-05
0.7	0.1	7.77563913578664E-05
0.7	0.15	9.56263507951185E-05
0.7	0.2	1.04402103920544E-04
0.7	0.25	1.08553864792447E-04
0.7	0.3	1.11158482652583E-04
0.7	0.35	1.13312575193826E-04
0.7	0.4	1.15264850570925E-04
0.7	0.45	1.17095965931850E-04
0.7	0.5	1.18846048744932E-04
0.7	0.55	1.20538685051457E-04
0.7	0.6	1.22187560751348E-04
0.7	0.65	1.23801846915614E-04
0.7	0.7	1.25388164701970E-04
0.7	0.75	1.26951024684087E-04
0.7	0.8	1.28494057149514E-04
0.7	0.85	1.30020165985826E-04
0.7	0.9	1.31531370628125E-04
0.7	0.95	1.33029607223792E-04
0.7	1.0	1.34516349907260E-04
0.7	1.05	1.35992867614601E-04
0.7	1.1	1.37460018190752E-04
0.7	1.15	1.38918906793700E-04
0.7	1.2	1.40370282554871E-04
0.8	0.0	7.47518884719135E-17
0.8	0.05	6.77938269533227E-05
0.8	0.1	1.19422045393609E-04
0.8	0.15	1.56132352787237E-04
0.8	0.2	1.80054451192256E-04
0.8	0.25	1.94101726153401E-04
0.8	0.3	2.01817913806747E-04
0.8	0.35	2.06482364958702E-04
0.8	0.4	2.09994770576201E-04
0.8	0.45	2.13019123321283E-04
0.8	0.5	2.15772865522415E-04
0.8	0.55	2.18359616052237E-04
0.8	0.6	2.20832725573447E-04
0.8	0.65	2.23222398515938E-04
0.8	0.7	2.25546521749897E-04
0.8	0.75	2.27817499724467E-04
0.8	0.8	2.30044141701280E-04
0.8	0.85	2.32232258656953E-04
0.8	0.9	2.34387381835127E-04
0.8	0.95	2.36513394248403E-04
0.8	1.0	2.38613215230464E-04
0.8	1.05	2.40689355898720E-04
0.8	1.1	2.42744417398822E-04
0.8	1.15	2.44779931051385E-04
0.8	1.2	2.46797188870510E-04
0.9	0.0	-4.31454692689917E-17
0.9	0.05	8.57236820314569E-05
0.9	0.1	1.55726922462966E-04
0.9	0.15	2.10628677486493E-04
0.9	0.2	2.51655542436839E-04
0.9	0.25	2.80490778346125E-04
0.9	0.3	2.99346688946548E-04
0.9	0.35	3.10954144084456E-04
0.9	0.4	3.18214280831473E-04
0.9	0.45	3.23378416503709E-04
0.9	0.5	3.27591236775128E-04
0.9	0.55	3.31304155275340E-04
0.9	0.6	3.34721955988573E-04
0.9	0.65	3.37951211835472E-04
0.9	0.7	3.41047291408739E-04
0.9	0.75	3.44041906640362E-04
0.9	0.8	3.46954791834476E-04
0.9	0.85	3.49799906722192E-04
0.9	0.9	3.52586891298591E-04
0.9	0.95	3.55323548112614E-04
0.9	1.0	3.58015890248460E-04
0.9	1.05	3.60668156015440E-04
0.9	1.1	3.63284749829106E-04
0.9	1.15	3.65868088078077E-04
0.9	1.2	3.68421064045733E-04
1.0	0.0	3.07704345954213E-17
1.0	0.05	1.00765792363524E-04
1.0	0.1	1.86515329761309E-04
1.0	0.15	2.57559211147822E-04
1.0	0.2	3.14685917773117E-04
1.0	0.25	3.58958795261645E-04
1.0	0.3	3.91740343113313E-04
1.0	0.35	4.14753300316770E-04
1.0	0.4	4.30125666608141E-04
1.0	0.45	4.40264128136535E-04
1.0	0.5	4.47379644090879E-04
1.0	0.55	4.52939866534474E-04
1.0	0.6	4.57678243995715E-04
1.0	0.65	4.61944511710550E-04
1.0	0.7	4.65918938756422E-04
1.0	0.75	4.69697595779356E-04
1.0	0.8	4.73330486225728E-04
1.0	0.85	4.76850086112283E-04
1.0	0.9	4.80274865132142E-04
1.0	0.95	4.83621334530196E-04
1.0	1.0	4.86898561185309E-04
1.0	1.05	4.90115162135738E-04
1.0	1.1	4.93278326885344E-04
1.0	1.15	4.96392323465640E-04
1.0	1.2	4.99461306648995E-04
1.1	0.0	7.43987823927357E-20
1.1	0.05	1.13351149993217E-04
1.1	0.1	2.12427956535649E-04
1.1	0.15	2.97390061694540E-04
1.1	0.2	3.68806566529990E-04
1.1	0.25	4.27425464563608E-04
1.1	0.3	4.74159137867947E-04
1.1	0.35	5.10117363063373E-04
1.1	0.4	5.36668854252782E-04
1.1	0.45	5.55495680983566E-04
1.1	0.5	5.68558784171451E-04
1.1	0.55	5.77844173101570E-04
1.1	0.6	5.84933206775781E-04
1.1	0.65	5.90795314024946E-04
1.1	0.7	5.95952626348276E-04
1.1	0.75	6.00683966150282E-04
1.1	0.8	6.05136596442777E-04
1.1	0.85	6.09390865541386E-04
1.1	0.9	6.13491883645345E-04
1.1	0.95	6.17470002765490E-04
1.1	1.0	6.21344322529569E-04
1.1	1.05	6.25129991769182E-04
1.1	1.1	6.28838684245410E-04
1.1	1.15	6.32478084195431E-04
1.1	1.2	6.36055056687760E-04
1.2	0.0	9.06392605789052E-17
1.2	0.05	1.23918584467736E-04
1.2	0.1	2.34252785141589E-04
1.2	0.15	3.31092871062423E-04
1.2	0.2	4.14901133353175E-04
1.2	0.25	4.86265854740006E-04
1.2	0.3	5.45864742300172E-04
1.2	0.35	5.94473441102863E-04
1.2	0.4	6.33004245639734E-04
1.2	0.45	6.62559923645967E-04
1.2	0.5	6.84486196227119E-04
1.2	0.55	7.00375212452297E-04
1.2	0.6	7.11939289770705E-04
1.2	0.65	7.20718288934827E-04
1.2	0.7	7.27823479478703E-04
1.2	0.75	7.33938540128221E-04
1.2	0.8	7.39456010551538E-04
1.2	0.85	7.44592614193114E-04
1.2	0.9	7.49463278990426E-04
1.2	0.95	7.54133658750033E-04
1.2	1.0	7.58646437401861E-04
1.2	1.05	7.63028460927611E-04
1.2	1.1	7.67300415564131E-04
1.2	1.15	7.71474413872696E-04
1.2	1.2	7.75565823229943E-04