vg	vd	ids
0.0	0.0	-4.50010564774182E-18
0.0	0.05	2.14507120866241E-13
0.0	0.1	2.48789755628491E-13
0.0	0.15	2.62106508736676E-13
0.0	0.2	2.74179068000942E-13
0.0	0.25	2.86604839478171E-13
0.0	0.3	2.99412547389036E-13
0.0	0.35	3.12779536261019E-13
0.0	0.4	3.26491553416468E-13
0.0	0.45	3.40727957154138E-13
0.0	0.5	3.55549868839339E-13
0.0	0.55	3.70977636960726E-13
0.0	0.6	3.86948879539669E-13
0.0	0.65	4.03577879013366E-13
0.0	0.7	4.20926772396061E-13
0.0	0.75	4.39051977918876E-13
0.0	0.8	4.57862658422348E-13
0.0	0.85	4.77597240665203E-13
0.0	0.9	4.98123430904606E-13
0.0	0.95	5.19640064795484E-13
0.0	1.0	5.42019594520533E-13
0.0	1.05	5.65472241556958E-13
0.0	1.1	5.90019260963810E-13
0.0	1.15	6.15645211000672E-13
0.0	1.2	6.42759860858866E-13
0.1	0.0	3.87017922784732E-18
0.1	0.05	7.39926597690607E-12
0.1	0.1	8.60563166199639E-12
0.1	0.15	9.07850870820010E-12
0.1	0.2	9.50220542851724E-12
0.1	0.25	9.93506344006712E-12
0.1	0.3	1.03802691654041E-11
0.1	0.35	1.08387505230836E-11
0.1	0.4	1.13115295636076E-11
0.1	0.45	1.17995188790246E-11
0.1	0.5	1.23036442507965E-11
0.1	0.55	1.28249327398380E-11
0.1	0.6	1.33643529648052E-11
0.1	0.65	1.39229542954242E-11
0.1	0.7	1.45018525162451E-11
0.1	0.75	1.51020035872702E-11
0.1	0.8	1.57245447136897E-11
0.1	0.85	1.63707632932486E-11
0.1	0.9	1.70419020564706E-11
0.1	0.95	1.77390157096403E-11
0.1	1.0	1.84638216754939E-11
0.1	1.05	1.92173287041746E-11
0.1	1.1	2.00013786452826E-11
0.1	1.15	2.08173292323409E-11
0.1	1.2	2.16668319153467E-11
0.2	0.0	-4.92569939446447E-18
0.2	0.05	2.57179527739849E-10
0.2	0.1	3.00079703312724E-10
0.2	0.15	3.17053026719935E-10
0.2	0.2	3.32118974874527E-10
0.2	0.25	3.47406706869357E-10
0.2	0.3	3.63041313612762E-10
0.2	0.35	3.79057316963367E-10
0.2	0.4	3.95487005275541E-10
0.2	0.45	4.12362169762709E-10
0.2	0.5	4.29713839689086E-10
0.2	0.55	4.47570598673781E-10
0.2	0.6	4.65964250055736E-10
0.2	0.65	4.84922273264765E-10
0.2	0.7	5.04474480729895E-10
0.2	0.75	5.24651277067479E-10
0.2	0.8	5.45490226873429E-10
0.2	0.85	5.67011855279327E-10
0.2	0.9	5.89264355571207E-10
0.2	0.95	6.12265412215823E-10
0.2	1.0	6.36068613297041E-10
0.2	1.05	6.60691563214053E-10
0.2	1.1	6.86192979181984E-10
0.2	1.15	7.12590705814074E-10
0.2	1.2	7.39946679758163E-10
0.3	0.0	-9.79482509541572E-18
0.3	0.05	8.92088338443146E-09
0.3	0.1	1.04536911670232E-08
0.3	0.15	1.10668123293931E-08
0.3	0.2	1.16045144530042E-08
0.3	0.25	1.21453969799399E-08
0.3	0.3	1.26946471410162E-08
0.3	0.35	1.32536822582490E-08
0.3	0.4	1.38238334160847E-08
0.3	0.45	1.44062947722391E-08
0.3	0.5	1.50020553640187E-08
0.3	0.55	1.56121286546327E-08
0.3	0.6	1.62374205488556E-08
0.3	0.65	1.68785558821208E-08
0.3	0.7	1.75369259038515E-08
0.3	0.75	1.82129558743080E-08
0.3	0.8	1.89079493518263E-08
0.3	0.85	1.96223644334113E-08
0.3	0.9	2.03575032684621E-08
0.3	0.95	2.11139773356948E-08
0.3	1.0	2.18928921380607E-08
0.3	1.05	2.26952136125723E-08
0.3	1.1	2.35217804547723E-08
0.3	1.15	2.43737380513698E-08
0.3	1.2	2.52520425500958E-08
0.4	0.0	2.55587454191532E-17
0.4	0.05	2.90712692263543E-07
0.4	0.1	3.44351045033817E-07
0.4	0.15	3.65350390213500E-07
0.4	0.2	3.83108694580000E-07
0.4	0.25	4.00660770716403E-07
0.4	0.3	4.18254452215689E-07
0.4	0.35	4.35965279019213E-07
0.4	0.4	4.53850975415018E-07
0.4	0.45	4.71954228659908E-07
0.4	0.5	4.90305832110677E-07
0.4	0.55	5.08934624649891E-07
0.4	0.6	5.27873709909283E-07
0.4	0.65	5.47142263445025E-07
0.4	0.7	5.66765572506741E-07
0.4	0.75	5.86764378350336E-07
0.4	0.8	6.07157072685065E-07
0.4	0.85	6.27966031038505E-07
0.4	0.9	6.49206926372134E-07
0.4	0.95	6.70900456231627E-07
0.4	1.0	6.93064116098167E-07
0.4	1.05	7.15715633266112E-07
0.4	1.1	7.38873503354426E-07
0.4	1.15	7.62555067884827E-07
0.4	1.2	7.86778100136180E-07
0.5	0.0	-4.00079217775150E-17
0.5	0.05	4.76752737636225E-06
0.5	0.1	6.17021077759963E-06
0.5	0.15	6.61298050618322E-06
0.5	0.2	6.88911262810783E-06
0.5	0.25	7.13905679872396E-06
0.5	0.3	7.37997350899325E-06
0.5	0.35	7.61543330538753E-06
0.5	0.4	7.84701519541724E-06
0.5	0.45	8.07582767016885E-06
0.5	0.5	8.30267072248987E-06
0.5	0.55	8.52820952927359E-06
0.5	0.6	8.75292285348902E-06
0.5	0.65	8.97720081559431E-06
0.5	0.7	9.20138257274589E-06
0.5	0.75	9.42573388788857E-06
0.5	0.8	9.65050407142614E-06
0.5	0.85	9.87588585540744E-06
0.5	0.9	1.01020669117656E-05
0.5	0.95	1.03292226528971E-05
0.5	1.0	1.05574801706243E-05
0.5	1.05	1.07869824526681E-05
0.5	1.1	1.10178641211948E-05
0.5	1.15	1.12502194425046E-05
0.5	1.2	1.14841573590633E-05
0.6	0.0	4.30451171121827E-18
0.6	0.05	1.80047892481639E-05
0.6	0.1	2.82030718171044E-05
0.6	0.15	3.29379978482582E-05
0.6	0.2	3.49653002162327E-05
0.6	0.25	3.61275565702331E-05
0.6	0.3	3.70760899238847E-05
0.6	0.35	3.79478123373415E-05
0.6	0.4	3.87730297919494E-05
0.6	0.45	3.95646153792777E-05
0.6	0.5	4.03306070872380E-05
0.6	0.55	4.10761413656789E-05
0.6	0.6	4.18053519494672E-05
0.6	0.65	4.25209114145349E-05
0.6	0.7	4.32252010862121E-05
0.6	0.75	4.39199468954156E-05
0.6	0.8	4.46066351681383E-05
0.6	0.85	4.52864667995793E-05
0.6	0.9	4.59604916973947E-05
0.6	0.95	4.66295974834654E-05
0.6	1.0	4.72944490208703E-05
0.6	1.05	4.79558453647202E-05
0.6	1.1	4.86143456349523E-05
0.6	1.15	4.92703898487792E-05
0.6	1.2	4.99245290507137E-05
0.7	0.0	2.96080580143135E-17
0.7	0.05	3.32572654692660E-05
0.7	0.1	5.75712798528330E-05
0.7	0.15	7.37954117856802E-05
0.7	0.2	8.34486435456509E-05
0.7	0.25	8.86526665250569E-05
0.7	0.3	9.15969126175305E-05
0.7	0.35	9.37031941132368E-05
0.7	0.4	9.55086158385649E-05
0.7	0.45	9.71581735249007E-05
0.7	0.5	9.87032913808548E-05
0.7	0.55	1.00171928643696E-04
0.7	0.6	1.01581520099963E-04
0.7	0.65	1.02943843358111E-04
0.7	0.7	1.04267660122822E-04
0.7	0.75	1.05558936833514E-04
0.7	0.8	1.06822654300662E-04
0.7	0.85	1.08062783636908E-04
0.7	0.9	1.09282258258173E-04
0.7	0.95	1.10483774844980E-04
0.7	1.0	1.11669492027332E-04
0.7	1.05	1.12841343405124E-04
0.7	1.1	1.14000823031143E-04
0.7	1.15	1.15149310234297E-04
0.7	1.2	1.16288345411412E-04
0.8	0.0	2.56480924843363E-18
0.8	0.05	4.74605614083111E-05
0.8	0.1	8.60252289121282E-05
0.8	0.15	1.15938093924022E-04
0.8	0.2	1.37819657145819E-04
0.8	0.25	1.52699734973800E-04
0.8	0.3	1.62076137573326E-04
0.8	0.35	1.67810567778903E-04
0.8	0.4	1.71656150498291E-04
0.8	0.45	1.74687984127447E-04
0.8	0.5	1.77335514107987E-04
0.8	0.55	1.79750180831049E-04
0.8	0.6	1.82002794716306E-04
0.8	0.65	1.84136567996587E-04
0.8	0.7	1.86177733642559E-04
0.8	0.75	1.88144908848329E-04
0.8	0.8	1.90051154178042E-04
0.8	0.85	1.91905739381236E-04
0.8	0.9	1.93716339617278E-04
0.8	0.95	1.95488606149956E-04
0.8	1.0	1.97227629161218E-04
0.8	1.05	1.98937324712470E-04
0.8	1.1	2.00620533144990E-04
0.8	1.15	2.02280848753317E-04
0.8	1.2	2.03920348536457E-04
0.9	0.0	-4.84384607613839E-18
0.9	0.05	6.00064691744151E-05
0.9	0.1	1.11541129982937E-04
0.9	0.15	1.54575858234684E-04
0.9	0.2	1.89334142429922E-04
0.9	0.25	2.16269891168073E-04
0.9	0.3	2.36114097049013E-04
0.9	0.35	2.49936099805869E-04
0.9	0.4	2.59161332279659E-04
0.9	0.45	2.65406610580307E-04
0.9	0.5	2.70051550984676E-04
0.9	0.55	2.73894510106187E-04
0.9	0.6	2.77285652988766E-04
0.9	0.65	2.80383090940392E-04
0.9	0.7	2.83273746792938E-04
0.9	0.75	2.86010439480978E-04
0.9	0.8	2.88627702174937E-04
0.9	0.85	2.91148455868807E-04
0.9	0.9	2.93589397029653E-04
0.9	0.95	2.95961797819182E-04
0.9	1.0	2.98276439185358E-04
0.9	1.05	3.00540320583879E-04
0.9	1.1	3.02759656975765E-04
0.9	1.15	3.04938656100672E-04
0.9	1.2	3.07083417563346E-04
1.0	0.0	-5.24357049455810E-19
1.0	0.05	7.08599741458668E-05
1.0	0.1	1.33791254958195E-04
1.0	0.15	1.88635895004824E-04
1.0	0.2	2.35428296623135E-04
1.0	0.25	2.74345529254155E-04
1.0	0.3	3.05723174955055E-04
1.0	0.35	3.30094089297099E-04
1.0	0.4	3.48240664018994E-04
1.0	0.45	3.61234697786531E-04
1.0	0.5	3.70402128781045E-04
1.0	0.55	3.77110889472749E-04
1.0	0.6	3.82422410657645E-04
1.0	0.65	3.86937355246896E-04
1.0	0.7	3.90954864908000E-04
1.0	0.75	3.94638412126849E-04
1.0	0.8	3.98084576760529E-04
1.0	0.85	4.01351752205538E-04
1.0	0.9	4.04480123661197E-04
1.0	0.95	4.07494674434877E-04
1.0	1.0	4.10414049789392E-04
1.0	1.05	4.13253746404091E-04
1.0	1.1	4.16023265429708E-04
1.0	1.15	4.18731923730853E-04
1.0	1.2	4.21387359296899E-04
1.1	0.0	1.11717830498161E-17
1.1	0.05	8.01682044252674E-05
1.1	0.1	1.52959540291435E-04
1.1	0.15	2.18158953006855E-04
1.1	0.2	2.75711767734801E-04
1.1	0.25	3.25659185380465E-04
1.1	0.3	3.68137034080420E-04
1.1	0.35	4.03394440521517E-04
1.1	0.4	4.31826714871639E-04
1.1	0.45	4.54015669817005E-04
1.1	0.5	4.70769249368339E-04
1.1	0.55	4.83133325554761E-04
1.1	0.6	4.92305311467081E-04
1.1	0.65	4.99407110187309E-04
1.1	0.7	5.05251317475910E-04
1.1	0.75	5.10308986416669E-04
1.1	0.8	5.14846588491698E-04
1.1	0.85	5.19027817370632E-04
1.1	0.9	5.22953090703030E-04
1.1	0.95	5.26684177746237E-04
1.1	1.0	5.30261901475719E-04
1.1	1.05	5.33715176492119E-04
1.1	1.1	5.37061417825906E-04
1.1	1.15	5.40318745612058E-04
1.1	1.2	5.43498632667777E-04
1.2	0.0	2.55578249861332E-17
1.2	0.05	8.81369967589176E-05
1.2	0.1	1.69406814580445E-04
1.2	0.15	2.43576283983528E-04
1.2	0.2	3.10555199221715E-04
1.2	0.25	3.70322763184169E-04
1.2	0.3	4.22916525873485E-04
1.2	0.35	4.68439277045889E-04
1.2	0.4	5.07077636632924E-04
1.2	0.45	5.39126817816713E-04
1.2	0.5	5.65022113554687E-04
1.2	0.55	5.85377300487083E-04
1.2	0.6	6.01006033377470E-04
1.2	0.65	6.12899361347843E-04
1.2	0.7	6.22102396563281E-04
1.2	0.75	6.29517405677378E-04
1.2	0.8	6.35777112234025E-04
1.2	0.85	6.41271448843543E-04
1.2	0.9	6.46242582276948E-04
1.2	0.95	6.50848478343570E-04
1.2	1.0	6.55189913201038E-04
1.2	1.05	6.59327439799343E-04
1.2	1.1	6.63302646386061E-04
1.2	1.15	6.67145924913066E-04
1.2	1.2	6.70874346669571E-04