vg	vd	ids
0.0	0.0	-1.56335420532505E-17
0.0	0.05	3.96896443037140E-12
0.0	0.1	4.66782126261021E-12
0.0	0.15	5.33808590187928E-12
0.0	0.2	6.12481742475483E-12
0.0	0.25	7.05641487512395E-12
0.0	0.3	8.16908678086372E-12
0.0	0.35	9.51047331379635E-12
0.0	0.4	1.11429126878509E-11
0.0	0.45	1.31509380617464E-11
0.0	0.5	1.56452357194245E-11
0.0	0.55	1.87680640417121E-11
0.0	0.6	2.27171720917065E-11
0.0	0.65	2.77482854579300E-11
0.0	0.7	3.42299128919200E-11
0.0	0.75	4.26116571849626E-11
0.0	0.8	5.35148049904872E-11
0.0	0.85	6.79075576813419E-11
0.0	0.9	8.67047044563571E-11
0.0	0.95	1.11669748562217E-10
0.0	1.0	1.44505018781202E-10
0.0	1.05	1.88639663368414E-10
0.0	1.1	2.47466159324204E-10
0.0	1.15	3.25927717248446E-10
0.0	1.2	4.30892349529588E-10
0.1	0.0	-4.07189795597214E-17
0.1	0.05	1.08354523839629E-10
0.1	0.1	1.25801835078234E-10
0.1	0.15	1.40910413974904E-10
0.1	0.2	1.57858932772308E-10
0.1	0.25	1.76979936126987E-10
0.1	0.3	1.98660746007369E-10
0.1	0.35	2.23337846850857E-10
0.1	0.4	2.51633159716445E-10
0.1	0.45	2.84488164304434E-10
0.1	0.5	3.22515894968134E-10
0.1	0.55	3.66907347562105E-10
0.1	0.6	4.19168895332300E-10
0.1	0.65	4.80538323802145E-10
0.1	0.7	5.54518326647724E-10
0.1	0.75	6.44489050676230E-10
0.1	0.8	7.52345007856013E-10
0.1	0.85	8.84193904012090E-10
0.1	0.9	1.04537491374417E-09
0.1	0.95	1.24385917613821E-09
0.1	1.0	1.49469041340466E-09
0.1	1.05	1.80594353825148E-09
0.1	1.1	2.19701798035329E-09
0.1	1.15	2.69037926420111E-09
0.1	1.2	3.31516074318867E-09
0.2	0.0	3.72881868810800E-17
0.2	0.05	3.12424896300571E-09
0.2	0.1	3.61286798892542E-09
0.2	0.15	4.00345524572735E-09
0.2	0.2	4.42851598132091E-09
0.2	0.25	4.89346690099400E-09
0.2	0.3	5.40276377574855E-09
0.2	0.35	5.96590103961105E-09
0.2	0.4	6.58645213295412E-09
0.2	0.45	7.27198235984713E-09
0.2	0.5	8.03880064053270E-09
0.2	0.55	8.89583786536005E-09
0.2	0.6	9.85289479917583E-09
0.2	0.65	1.09280084834335E-08
0.2	0.7	1.21399744054921E-08
0.2	0.75	1.34944940974619E-08
0.2	0.8	1.50936955993417E-08
0.2	0.85	1.68990346591877E-08
0.2	0.9	1.89610497916572E-08
0.2	0.95	2.13611260908648E-08
0.2	1.0	2.41381180297902E-08
0.2	1.05	2.73792795648794E-08
0.2	1.1	3.11808434782466E-08
0.2	1.15	3.56613585075091E-08
0.2	1.2	4.09663823461503E-08
0.3	0.0	5.45093336545805E-17
0.3	0.05	9.12374944539385E-08
0.3	0.1	1.05724192145685E-07
0.3	0.15	1.16461344481663E-07
0.3	0.2	1.27819912701981E-07
0.3	0.25	1.39921186065037E-07
0.3	0.3	1.52855370139048E-07
0.3	0.35	1.66730171395259E-07
0.3	0.4	1.81617756462406E-07
0.3	0.45	1.97636633242370E-07
0.3	0.5	2.15026918499737E-07
0.3	0.55	2.33948372584639E-07
0.3	0.6	2.54447922692090E-07
0.3	0.65	2.76617864465177E-07
0.3	0.7	3.00894540945930E-07
0.3	0.75	3.27186573674624E-07
0.3	0.8	3.55939676241585E-07
0.3	0.85	3.87330352393323E-07
0.3	0.9	4.21724253818255E-07
0.3	0.95	4.59495908777533E-07
0.3	1.0	5.01068821153246E-07
0.3	1.05	5.46931889942560E-07
0.3	1.1	5.97647120830072E-07
0.3	1.15	6.53861083951786E-07
0.3	1.2	7.16330971781284E-07
0.4	0.0	-5.24444746465871E-18
0.4	0.05	2.33875935100040E-06
0.4	0.1	2.74705103451618E-06
0.4	0.15	3.00093624159731E-06
0.4	0.2	3.25476017984185E-06
0.4	0.25	3.51468979182156E-06
0.4	0.3	3.78277173573088E-06
0.4	0.35	4.06048372216100E-06
0.4	0.4	4.34885336483936E-06
0.4	0.45	4.64848478767736E-06
0.4	0.5	4.96030284804648E-06
0.4	0.55	5.28717975939786E-06
0.4	0.6	5.62876067865536E-06
0.4	0.65	5.98519520256869E-06
0.4	0.7	6.35767764364121E-06
0.4	0.75	6.74713235097743E-06
0.4	0.8	7.15460443364889E-06
0.4	0.85	7.58107202227254E-06
0.4	0.9	8.02757444583687E-06
0.4	0.95	8.49521771633005E-06
0.4	1.0	8.98519801099743E-06
0.4	1.05	9.49877829902802E-06
0.4	1.1	1.00373278905738E-05
0.4	1.15	1.06023569657110E-05
0.4	1.2	1.11954490875914E-05
0.5	0.0	7.81022698080872E-17
0.5	0.05	2.34745752772732E-05
0.5	0.1	3.04814851699986E-05
0.5	0.15	3.29376810465502E-05
0.5	0.2	3.48180978237892E-05
0.5	0.25	3.65781311486999E-05
0.5	0.3	3.82775228569066E-05
0.5	0.35	3.99431370063891E-05
0.5	0.4	4.15902396647400E-05
0.5	0.45	4.32281322308371E-05
0.5	0.5	4.48635592316202E-05
0.5	0.55	4.65006041824200E-05
0.5	0.6	4.81439089535268E-05
0.5	0.65	4.97963112715080E-05
0.5	0.7	5.14587857153789E-05
0.5	0.75	5.31339974786263E-05
0.5	0.8	5.48233505612333E-05
0.5	0.85	5.65282914005832E-05
0.5	0.9	5.82503234401244E-05
0.5	0.95	5.99906552266276E-05
0.5	1.0	6.17503378050758E-05
0.5	1.05	6.35309172828748E-05
0.5	1.1	6.53334427444914E-05
0.5	1.15	6.71591881867019E-05
0.5	1.2	6.90097778946626E-05
0.6	0.0	-7.13559960724696E-17
0.6	0.05	6.44791118541713E-05
0.6	0.1	9.94483188911242E-05
0.6	0.15	1.14710838563440E-04
0.6	0.2	1.21445572603555E-04
0.6	0.25	1.26025268340888E-04
0.6	0.3	1.29990938546419E-04
0.6	0.35	1.33653367394270E-04
0.6	0.4	1.37132640712721E-04
0.6	0.45	1.40489919522542E-04
0.6	0.5	1.43759490371800E-04
0.6	0.55	1.46963997283645E-04
0.6	0.6	1.50117722191253E-04
0.6	0.65	1.53232536582381E-04
0.6	0.7	1.56316028848992E-04
0.6	0.75	1.59374341519763E-04
0.6	0.8	1.62412928139719E-04
0.6	0.85	1.65435896177144E-04
0.6	0.9	1.68446753014122E-04
0.6	0.95	1.71448873607477E-04
0.6	1.0	1.74444582944908E-04
0.6	1.05	1.77436441062508E-04
0.6	1.1	1.80427279617763E-04
0.6	1.15	1.83418489074235E-04
0.6	1.2	1.86413024922387E-04
0.7	0.0	1.10450681246588E-16
0.7	0.05	1.03273322165402E-04
0.7	0.1	1.74567913910768E-04
0.7	0.15	2.18521079120731E-04
0.7	0.2	2.42319183938374E-04
0.7	0.25	2.54634307593848E-04
0.7	0.3	2.62424599140665E-04
0.7	0.35	2.68640314789534E-04
0.7	0.4	2.74137500220882E-04
0.7	0.45	2.79239237683104E-04
0.7	0.5	2.84089733768996E-04
0.7	0.55	2.88760993079353E-04
0.7	0.6	2.93297457215583E-04
0.7	0.65	2.97726327866583E-04
0.7	0.7	3.02068648611548E-04
0.7	0.75	3.06338504021847E-04
0.7	0.8	3.10546746258029E-04
0.7	0.85	3.14703245219820E-04
0.7	0.9	3.18814729990577E-04
0.7	0.95	3.22885654750351E-04
0.7	1.0	3.26923309039697E-04
0.7	1.05	3.30931897591245E-04
0.7	1.1	3.34913731956478E-04
0.7	1.15	3.38872629843181E-04
0.7	1.2	3.42814828413610E-04
0.8	0.0	-8.29845236308505E-17
0.8	0.05	1.34929019522762E-04
0.8	0.1	2.38808936510567E-04
0.8	0.15	3.14002336357723E-04
0.8	0.2	3.64459716872313E-04
0.8	0.25	3.95558191698956E-04
0.8	0.3	4.13746916011482E-04
0.8	0.35	4.25247074055488E-04
0.8	0.4	4.33853956242294E-04
0.8	0.45	4.41135121818129E-04
0.8	0.5	4.47725201801624E-04
0.8	0.55	4.53903084118291E-04
0.8	0.6	4.59801203439289E-04
0.8	0.65	4.65490339029325E-04
0.8	0.7	4.71016217126416E-04
0.8	0.75	4.76407227221180E-04
0.8	0.8	4.81688490802517E-04
0.8	0.85	4.86872828522557E-04
0.8	0.9	4.91974555082591E-04
0.8	0.95	4.97006572404689E-04
0.8	1.0	5.01970693003402E-04
0.8	1.05	5.06880931182616E-04
0.8	1.1	5.11741512370464E-04
0.8	1.15	5.16554853171371E-04
0.8	1.2	5.21330856473364E-04
0.9	0.0	-4.98661634487279E-17
0.9	0.05	1.59972802673596E-04
0.9	0.1	2.90682448149067E-04
0.9	0.15	3.93515239227210E-04
0.9	0.2	4.70935626073357E-04
0.9	0.25	5.26135552564852E-04
0.9	0.3	5.63126281279058E-04
0.9	0.35	5.86814130827150E-04
0.9	0.4	6.02320015328797E-04
0.9	0.45	6.13567132023653E-04
0.9	0.5	6.22713846915844E-04
0.9	0.55	6.30777872454426E-04
0.9	0.6	6.38219450589923E-04
0.9	0.65	6.45254530885400E-04
0.9	0.7	6.51996914158087E-04
0.9	0.75	6.58510108497805E-04
0.9	0.8	6.64843741453112E-04
0.9	0.85	6.71021471083158E-04
0.9	0.9	6.77071693746614E-04
0.9	0.95	6.83010909795056E-04
0.9	1.0	6.88851007064867E-04
0.9	1.05	6.94606671185096E-04
0.9	1.1	7.00285174406463E-04
0.9	1.15	7.05895011426388E-04
0.9	1.2	7.11444003553022E-04
1.0	0.0	-7.36768150902231E-17
1.0	0.05	1.79755249080567E-04
1.0	0.1	3.32048937019785E-04
1.0	0.15	4.57872751536077E-04
1.0	0.2	5.59030632146713E-04
1.0	0.25	6.37672093930258E-04
1.0	0.3	6.96327698542284E-04
1.0	0.35	7.38080489837265E-04
1.0	0.4	7.66668634218303E-04
1.0	0.45	7.86205475764589E-04
1.0	0.5	8.00325266732287E-04
1.0	0.55	8.11493456972862E-04
1.0	0.6	8.21092353981642E-04
1.0	0.65	8.29806007636386E-04
1.0	0.7	8.37955122917858E-04
1.0	0.75	8.45703351373073E-04
1.0	0.8	8.53152801312277E-04
1.0	0.85	8.60361241710836E-04
1.0	0.9	8.67375836593000E-04
1.0	0.95	8.74221658066735E-04
1.0	1.0	8.80927219187949E-04
1.0	1.05	8.87508715750997E-04
1.0	1.1	8.93982171044063E-04
1.0	1.15	9.00360802170518E-04
1.0	1.2	9.06651529470014E-04
1.1	0.0	7.13286998029548E-18
1.1	0.05	1.95538214711199E-04
1.1	0.1	3.65171672535129E-04
1.1	0.15	5.09756825136630E-04
1.1	0.2	6.30827635174287E-04
1.1	0.25	7.30071304759829E-04
1.1	0.3	8.09291349069265E-04
1.1	0.35	8.70509722479361E-04
1.1	0.4	9.16116262433329E-04
1.1	0.45	9.48991294657900E-04
1.1	0.5	9.72403612920332E-04
1.1	0.55	9.89533158755064E-04
1.1	0.6	1.00289446888395E-03
1.1	0.65	1.01413128624566E-03
1.1	0.7	1.02416327927764E-03
1.1	0.75	1.03344106405344E-03
1.1	0.8	1.04219265639985E-03
1.1	0.85	1.05055673045958E-03
1.1	0.9	1.05861438893918E-03
1.1	0.95	1.06642456955067E-03
1.1	1.0	1.07402952560195E-03
1.1	1.05	1.08145668699010E-03
1.1	1.1	1.08873618808102E-03
1.1	1.15	1.09588163851560E-03
1.1	1.2	1.10291054076324E-03
1.2	0.0	-5.61532075806776E-17
1.2	0.05	2.08317713089515E-04
1.2	0.1	3.91998686289167E-04
1.2	0.15	5.51873316909028E-04
1.2	0.2	6.89384152890900E-04
1.2	0.25	8.06032326134676E-04
1.2	0.3	9.03297303665475E-04
1.2	0.35	9.82682232010965E-04
1.2	0.4	1.04580962519577E-03
1.2	0.45	1.09455560489544E-03
1.2	0.5	1.13115659003775E-03
1.2	0.55	1.15819765348254E-03
1.2	0.6	1.17837405178908E-03
1.2	0.65	1.19407058536099E-03
1.2	0.7	1.20706465856961E-03
1.2	0.75	1.21848753818957E-03
1.2	0.8	1.22892854839736E-03
1.2	0.85	1.23870338560919E-03
1.2	0.9	1.24798627394761E-03
1.2	0.95	1.25688777977292E-03
1.2	1.0	1.26547755146081E-03
1.2	1.05	1.27381786542864E-03
1.2	1.1	1.28194341388663E-03
1.2	1.15	1.28989132806836E-03
1.2	1.2	1.29767861775820E-03