vg	vd	ids
0.0	0.0	2.29438245062283E-17
0.0	0.05	1.69934373701468E-13
0.0	0.1	1.91796484161575E-13
0.0	0.15	1.99499254145876E-13
0.0	0.2	2.06750305532902E-13
0.0	0.25	2.14081741097128E-13
0.0	0.3	2.21736430618787E-13
0.0	0.35	2.29692484324333E-13
0.0	0.4	2.37750102052224E-13
0.0	0.45	2.46080216531124E-13
0.0	0.5	2.54708732407655E-13
0.0	0.55	2.63595682359237E-13
0.0	0.6	2.72882371966705E-13
0.0	0.65	2.82282610446642E-13
0.0	0.7	2.92192558147448E-13
0.0	0.75	3.02396119701459E-13
0.0	0.8	3.12924422463677E-13
0.0	0.85	3.23819700211859E-13
0.0	0.9	3.35103855215363E-13
0.0	0.95	3.46858030016103E-13
0.0	1.0	3.58986214897525E-13
0.0	1.05	3.71616519360265E-13
0.0	1.1	3.84650387590777E-13
0.0	1.15	3.98232021684110E-13
0.0	1.2	4.12309811921436E-13
0.1	0.0	5.54803351251324E-18
0.1	0.05	5.84737486709101E-12
0.1	0.1	6.62245617461956E-12
0.1	0.15	6.89987555604577E-12
0.1	0.2	7.15841464287193E-12
0.1	0.25	7.42307397270858E-12
0.1	0.3	7.69452397816546E-12
0.1	0.35	7.97342867754700E-12
0.1	0.4	8.26009576054353E-12
0.1	0.45	8.55510031830120E-12
0.1	0.5	8.85888887454120E-12
0.1	0.55	9.17196720243668E-12
0.1	0.6	9.49512669616371E-12
0.1	0.65	9.82757128097330E-12
0.1	0.7	1.01707990746386E-11
0.1	0.75	1.05255963037609E-11
0.1	0.8	1.08913029371517E-11
0.1	0.85	1.12692531748574E-11
0.1	0.9	1.16599547493650E-11
0.1	0.95	1.20634972225590E-11
0.1	1.0	1.24806937115291E-11
0.1	1.05	1.29120802274422E-11
0.1	1.1	1.33582193427689E-11
0.1	1.15	1.38197517040410E-11
0.1	1.2	1.42969747921037E-11
0.2	0.0	-5.61507161354737E-18
0.2	0.05	2.03903264420722E-10
0.2	0.1	2.31766799205531E-10
0.2	0.15	2.41879751278440E-10
0.2	0.2	2.51225189865572E-10
0.2	0.25	2.60749606067676E-10
0.2	0.3	2.70487691660015E-10
0.2	0.35	2.80459164141961E-10
0.2	0.4	2.90682164469550E-10
0.2	0.45	3.01190269730488E-10
0.2	0.5	3.11964874779300E-10
0.2	0.55	3.23017954460978E-10
0.2	0.6	3.34408845182256E-10
0.2	0.65	3.46125007465713E-10
0.2	0.7	3.58177615159145E-10
0.2	0.75	3.70584267695400E-10
0.2	0.8	3.83369495487996E-10
0.2	0.85	3.96542739546597E-10
0.2	0.9	4.10116269279925E-10
0.2	0.95	4.24108625082512E-10
0.2	1.0	4.38535368986238E-10
0.2	1.05	4.53412083222353E-10
0.2	1.1	4.68755639894853E-10
0.2	1.15	4.84583131275706E-10
0.2	1.2	5.00911869219731E-10
0.3	0.0	-1.27098525593651E-17
0.3	0.05	7.13962334519381E-09
0.3	0.1	8.15068597297742E-09
0.3	0.15	8.52226202809804E-09
0.3	0.2	8.86151404774072E-09
0.3	0.25	9.20501050695633E-09
0.3	0.3	9.55446999668793E-09
0.3	0.35	9.91080911821288E-09
0.3	0.4	1.02756976323027E-08
0.3	0.45	1.06478357395927E-08
0.3	0.5	1.10287364809706E-08
0.3	0.55	1.14189910481594E-08
0.3	0.6	1.18191915940865E-08
0.3	0.65	1.22298605023963E-08
0.3	0.7	1.26514800193063E-08
0.3	0.75	1.30844615706976E-08
0.3	0.8	1.35292281480513E-08
0.3	0.85	1.39862323782390E-08
0.3	0.9	1.44559405360690E-08
0.3	0.95	1.49388193183120E-08
0.3	1.0	1.54353319963328E-08
0.3	1.05	1.59459531230431E-08
0.3	1.1	1.64711648673145E-08
0.3	1.15	1.70114545678937E-08
0.3	1.2	1.75673192632388E-08
0.4	0.0	-1.50548333245170E-17
0.4	0.05	2.40526108444295E-07
0.4	0.1	2.77147464674089E-07
0.4	0.15	2.90432120565837E-07
0.4	0.2	3.02171628109629E-07
0.4	0.25	3.13888164834788E-07
0.4	0.3	3.25690391184283E-07
0.4	0.35	3.37648126472725E-07
0.4	0.4	3.49750178683996E-07
0.4	0.45	3.62060492767342E-07
0.4	0.5	3.74597734467646E-07
0.4	0.55	3.87377848593165E-07
0.4	0.6	4.00416605321469E-07
0.4	0.65	4.13728497039748E-07
0.4	0.7	4.27326971205391E-07
0.4	0.75	4.41224610941245E-07
0.4	0.8	4.55433493694950E-07
0.4	0.85	4.69965153805886E-07
0.4	0.9	4.84830808652631E-07
0.4	0.95	5.00041492460720E-07
0.4	1.0	5.15607943066536E-07
0.4	1.05	5.31540917869936E-07
0.4	1.1	5.47851066212693E-07
0.4	1.15	5.64548901751216E-07
0.4	1.2	5.81645016626238E-07
0.5	0.0	2.33876132328287E-17
0.5	0.05	4.78377661940089E-06
0.5	0.1	5.90467306544763E-06
0.5	0.15	6.22268189626816E-06
0.5	0.2	6.44090287129127E-06
0.5	0.25	6.64553908738384E-06
0.5	0.3	6.84516809272279E-06
0.5	0.35	7.04208850006495E-06
0.5	0.4	7.23769016285981E-06
0.5	0.45	7.43296078835363E-06
0.5	0.5	7.62841469637642E-06
0.5	0.55	7.82443485209801E-06
0.5	0.6	8.02131842935778E-06
0.5	0.65	8.21928827390129E-06
0.5	0.7	8.41853891429900E-06
0.5	0.75	8.61920759656137E-06
0.5	0.8	8.82143259203819E-06
0.5	0.85	9.02531722500104E-06
0.5	0.9	9.23094936561817E-06
0.5	0.95	9.43842156000553E-06
0.5	1.0	9.64779373279004E-06
0.5	1.05	9.85913421360100E-06
0.5	1.1	1.00725056460156E-05
0.5	1.15	1.02879506109188E-05
0.5	1.2	1.05055195403810E-05
0.6	0.0	5.66521696764432E-17
0.6	0.05	2.15365641375281E-05
0.6	0.1	3.24322368734556E-05
0.6	0.15	3.67044126838565E-05
0.6	0.2	3.83353106207902E-05
0.6	0.25	3.93341372310677E-05
0.6	0.3	4.01936042932425E-05
0.6	0.35	4.09973931280727E-05
0.6	0.4	4.17692800369847E-05
0.6	0.45	4.25208437455147E-05
0.6	0.5	4.32580756895076E-05
0.6	0.55	4.39845565719800E-05
0.6	0.6	4.47027214585517E-05
0.6	0.65	4.54143273179327E-05
0.6	0.7	4.61206022279628E-05
0.6	0.75	4.68226566649940E-05
0.6	0.8	4.75212039558600E-05
0.6	0.85	4.82169495452542E-05
0.6	0.9	4.89104182981696E-05
0.6	0.95	4.96020839482354E-05
0.6	1.0	5.02922956115869E-05
0.6	1.05	5.09814456800223E-05
0.6	1.1	5.16698121810169E-05
0.6	1.15	5.23575920517926E-05
0.6	1.2	5.30451094393494E-05
0.7	0.0	6.09411719360318E-18
0.7	0.05	4.16578544412364E-05
0.7	0.1	7.05358757866783E-05
0.7	0.15	8.83237651388885E-05
0.7	0.2	9.77776914157482E-05
0.7	0.25	1.02321062441271E-04
0.7	0.3	1.04840765556275E-04
0.7	0.35	1.06728546248010E-04
0.7	0.4	1.08386127044632E-04
0.7	0.45	1.09931157470624E-04
0.7	0.5	1.11409255242340E-04
0.7	0.55	1.12840769399968E-04
0.7	0.6	1.14237314076254E-04
0.7	0.65	1.15605905561945E-04
0.7	0.7	1.16951396781332E-04
0.7	0.75	1.18277472153957E-04
0.7	0.8	1.19586459043346E-04
0.7	0.85	1.20880864128140E-04
0.7	0.9	1.22162130910984E-04
0.7	0.95	1.23431677227668E-04
0.7	1.0	1.24690802078159E-04
0.7	1.05	1.25940531691438E-04
0.7	1.1	1.27181537823191E-04
0.7	1.15	1.28414777040262E-04
0.7	1.2	1.29640970990475E-04
0.8	0.0	2.92131353333011E-18
0.8	0.05	6.00360508364091E-05
0.8	0.1	1.07183948812744E-04
0.8	0.15	1.42095282221115E-04
0.8	0.2	1.66072161097057E-04
0.8	0.25	1.81066559892733E-04
0.8	0.3	1.89656320001905E-04
0.8	0.35	1.94601460048280E-04
0.8	0.4	1.97946995839566E-04
0.8	0.45	2.00655589042452E-04
0.8	0.5	2.03076045997009E-04
0.8	0.55	2.05343060424308E-04
0.8	0.6	2.07511785000536E-04
0.8	0.65	2.09608772483731E-04
0.8	0.7	2.11649966473465E-04
0.8	0.75	2.13645070160271E-04
0.8	0.8	2.15601362445329E-04
0.8	0.85	2.17524132626319E-04
0.8	0.9	2.19417030807590E-04
0.8	0.95	2.21283840901488E-04
0.8	1.0	2.23126543542829E-04
0.8	1.05	2.24947697058106E-04
0.8	1.1	2.26749125070432E-04
0.8	1.15	2.28532388011687E-04
0.8	1.2	2.30298829547806E-04
0.9	0.0	-1.81618825783023E-17
0.9	0.05	7.58438912234242E-05
0.9	0.1	1.39317386926683E-04
0.9	0.15	1.90612089208064E-04
0.9	0.2	2.30359633663964E-04
0.9	0.25	2.59565793119178E-04
0.9	0.3	2.79672712483788E-04
0.9	0.35	2.92609742088724E-04
0.9	0.4	3.00664628736222E-04
0.9	0.45	3.05984884970610E-04
0.9	0.5	3.10002100144250E-04
0.9	0.55	3.13417086633548E-04
0.9	0.6	3.16526131774313E-04
0.9	0.65	3.19454425495399E-04
0.9	0.7	3.22258503344361E-04
0.9	0.75	3.24968481855598E-04
0.9	0.8	3.27603279198232E-04
0.9	0.85	3.30175329667116E-04
0.9	0.9	3.32693541403503E-04
0.9	0.95	3.35164688690230E-04
0.9	1.0	3.37593699079084E-04
0.9	1.05	3.39985071742804E-04
0.9	1.1	3.42342484187134E-04
0.9	1.15	3.44668785745543E-04
0.9	1.2	3.46965815607979E-04
1.0	0.0	5.74521691819449E-17
1.0	0.05	8.91794593848789E-05
1.0	0.1	1.66687702871994E-04
1.0	0.15	2.32504254661820E-04
1.0	0.2	2.86946304064814E-04
1.0	0.25	3.30554983740654E-04
1.0	0.3	3.64117162102413E-04
1.0	0.35	3.88726969532248E-04
1.0	0.4	4.05849250628735E-04
1.0	0.45	4.17305125537747E-04
1.0	0.5	4.25039917642322E-04
1.0	0.55	4.30678524456794E-04
1.0	0.6	4.35250264196054E-04
1.0	0.65	4.39280696229405E-04
1.0	0.7	4.43003643315721E-04
1.0	0.75	4.46526420800114E-04
1.0	0.8	4.49904169902402E-04
1.0	0.85	4.53168491410773E-04
1.0	0.9	4.56340057128626E-04
1.0	0.95	4.59433109275355E-04
1.0	1.0	4.62459236281702E-04
1.0	1.05	4.65424926444470E-04
1.0	1.1	4.68338738310567E-04
1.0	1.15	4.71204364441000E-04
1.0	1.2	4.74026799246041E-04
1.1	0.0	-1.16044040820141E-17
1.1	0.05	1.00377238477284E-04
1.1	0.1	1.89785091156663E-04
1.1	0.15	2.68111963246307E-04
1.1	0.2	3.35531599340347E-04
1.1	0.25	3.92362332299227E-04
1.1	0.3	4.39059074576642E-04
1.1	0.35	4.76244119691587E-04
1.1	0.4	5.04761361461084E-04
1.1	0.45	5.25736830997614E-04
1.1	0.5	5.40605659157828E-04
1.1	0.55	5.51020157681595E-04
1.1	0.6	5.58576129508431E-04
1.1	0.65	5.64502608612976E-04
1.1	0.7	5.69560000570004E-04
1.1	0.75	5.74133648132119E-04
1.1	0.8	5.78401535659495E-04
1.1	0.85	5.82455813338179E-04
1.1	0.9	5.86347311060516E-04
1.1	0.95	5.90108768935916E-04
1.1	1.0	5.93762771076391E-04
1.1	1.05	5.97324575445708E-04
1.1	1.1	6.00807993831216E-04
1.1	1.15	6.04220788012284E-04
1.1	1.2	6.07570698544168E-04
1.2	0.0	-2.62235644238418E-17
1.2	0.05	1.09805285888748E-04
1.2	0.1	2.09274707758310E-04
1.2	0.15	2.98266266311060E-04
1.2	0.2	3.76895992498475E-04
1.2	0.25	4.45382334650979E-04
1.2	0.3	5.04020706502504E-04
1.2	0.35	5.53192431586762E-04
1.2	0.4	5.93394886478898E-04
1.2	0.45	6.25286769502945E-04
1.2	0.5	6.49741406678215E-04
1.2	0.55	6.67887334262080E-04
1.2	0.6	6.81085842844112E-04
1.2	0.65	6.90784306252213E-04
1.2	0.7	6.98270289922549E-04
1.2	0.75	7.04483583065942E-04
1.2	0.8	7.09978996964286E-04
1.2	0.85	7.15032969844595E-04
1.2	0.9	7.19784234061412E-04
1.2	0.95	7.24310214404472E-04
1.2	1.0	7.28661340427321E-04
1.2	1.05	7.32868060612651E-04
1.2	1.1	7.36956882713258E-04
1.2	1.15	7.40941413310587E-04
1.2	1.2	7.44837033102129E-04