vg	vd	ids
0.0	0.0	1.47990536385775E-16
0.0	0.05	4.04800603068638E-13
0.0	0.1	4.92672617765382E-13
0.0	0.15	5.48420332390014E-13
0.0	0.2	6.07286748498448E-13
0.0	0.25	6.72360414120313E-13
0.0	0.3	7.44345435109224E-13
0.0	0.35	8.24262084882804E-13
0.0	0.4	9.13692355593523E-13
0.0	0.45	1.01335204709814E-12
0.0	0.5	1.12472891991527E-12
0.0	0.55	1.25005013054589E-12
0.0	0.6	1.39180099980016E-12
0.0	0.65	1.55231556710694E-12
0.0	0.7	1.73507436692893E-12
0.0	0.75	1.94288384549716E-12
0.0	0.8	2.18256881567698E-12
0.0	0.85	2.45815296130380E-12
0.0	0.9	2.77588702918545E-12
0.0	0.95	3.14992380648030E-12
0.0	1.0	3.58581924383459E-12
0.0	1.05	4.09792432582764E-12
0.0	1.1	4.70344313744352E-12
0.0	1.15	5.42287833031323E-12
0.0	1.2	6.28315386035058E-12
0.1	0.0	8.10887642072231E-17
0.1	0.05	1.16461148812474E-11
0.1	0.1	1.41409246785720E-11
0.1	0.15	1.56671326058101E-11
0.1	0.2	1.72388378974065E-11
0.1	0.25	1.89448730348239E-11
0.1	0.3	2.08027912125563E-11
0.1	0.35	2.28295477783277E-11
0.1	0.4	2.50435898623109E-11
0.1	0.45	2.74670071363287E-11
0.1	0.5	3.01236633690159E-11
0.1	0.55	3.30194166334205E-11
0.1	0.6	3.62472076744620E-11
0.1	0.65	3.97488726461641E-11
0.1	0.7	4.36891488157376E-11
0.1	0.75	4.80259379556273E-11
0.1	0.8	5.27754750470527E-11
0.1	0.85	5.81462026106748E-11
0.1	0.9	6.41296966591318E-11
0.1	0.95	7.07948298630059E-11
0.1	1.0	7.82730227738419E-11
0.1	1.05	8.66890232763477E-11
0.1	1.1	9.61845697731865E-11
0.1	1.15	1.06948231312416E-10
0.1	1.2	1.19188353119408E-10
0.2	0.0	9.22412755006311E-17
0.2	0.05	3.40511023067926E-10
0.2	0.1	4.13750112510951E-10
0.2	0.15	4.57354890676712E-10
0.2	0.2	5.01400997480498E-10
0.2	0.25	5.48557881432322E-10
0.2	0.3	5.99222908828498E-10
0.2	0.35	6.53726314785916E-10
0.2	0.4	7.12450570439134E-10
0.2	0.45	7.75422477834012E-10
0.2	0.5	8.44143952502756E-10
0.2	0.55	9.17672823380521E-10
0.2	0.6	9.97260579415637E-10
0.2	0.65	1.08330502848481E-09
0.2	0.7	1.17751389936867E-09
0.2	0.75	1.27970681704567E-09
0.2	0.8	1.38994263142205E-09
0.2	0.85	1.51142016221919E-09
0.2	0.9	1.64258314558172E-09
0.2	0.95	1.78563960528505E-09
0.2	1.0	1.94164269679560E-09
0.2	1.05	2.11264002010116E-09
0.2	1.1	2.29981873642938E-09
0.2	1.15	2.50521921750436E-09
0.2	1.2	2.73099619414643E-09
0.3	0.0	5.90879527174473E-17
0.3	0.05	9.93686537929082E-09
0.3	0.1	1.21153085530239E-08
0.3	0.15	1.33857688693505E-08
0.3	0.2	1.46431191221457E-08
0.3	0.25	1.59700977888082E-08
0.3	0.3	1.73770803307142E-08
0.3	0.35	1.88663172611148E-08
0.3	0.4	2.04510224257797E-08
0.3	0.45	2.21538034692651E-08
0.3	0.5	2.39361878352836E-08
0.3	0.55	2.58607028239345E-08
0.3	0.6	2.79151973302700E-08
0.3	0.65	3.01191730798819E-08
0.3	0.7	3.24599074256340E-08
0.3	0.75	3.49601931892778E-08
0.3	0.8	3.76454450074502E-08
0.3	0.85	4.05190912306944E-08
0.3	0.9	4.35925032913723E-08
0.3	0.95	4.68819578086167E-08
0.3	1.0	5.04079315977910E-08
0.3	1.05	5.41890535685688E-08
0.3	1.1	5.82468063765223E-08
0.3	1.15	6.26041044016808E-08
0.3	1.2	6.72844262817502E-08
0.4	0.0	-4.93990365408920E-17
0.4	0.05	2.70119867331069E-07
0.4	0.1	3.32727377566797E-07
0.4	0.15	3.67395046511013E-07
0.4	0.2	4.00313637241108E-07
0.4	0.25	4.34197420655778E-07
0.4	0.3	4.69301390665057E-07
0.4	0.35	5.05843141686288E-07
0.4	0.4	5.43938696782826E-07
0.4	0.45	5.83954307366260E-07
0.4	0.5	6.25802306811766E-07
0.4	0.55	6.69459934812333E-07
0.4	0.6	7.15201054488694E-07
0.4	0.65	7.63180578550004E-07
0.4	0.7	8.13498777565971E-07
0.4	0.75	8.66222331905619E-07
0.4	0.8	9.21459975109270E-07
0.4	0.85	9.79344945877806E-07
0.4	0.9	1.04002091032207E-06
0.4	0.95	1.10362127064615E-06
0.4	1.0	1.17028366398991E-06
0.4	1.05	1.24015216129982E-06
0.4	1.1	1.31337541286871E-06
0.4	1.15	1.39010695210782E-06
0.4	1.2	1.47050846126819E-06
0.5	0.0	2.76684716660732E-18
0.5	0.05	3.96455913569983E-06
0.5	0.1	5.23236192774154E-06
0.5	0.15	5.76852801821231E-06
0.5	0.2	6.17780678405394E-06
0.5	0.25	6.56597862684274E-06
0.5	0.3	6.94819216150648E-06
0.5	0.35	7.32881081365798E-06
0.5	0.4	7.70996720166052E-06
0.5	0.45	8.09355528613813E-06
0.5	0.5	8.48027207248075E-06
0.5	0.55	8.87099063476186E-06
0.5	0.6	9.26639736793408E-06
0.5	0.65	9.66712396954995E-06
0.5	0.7	1.00735809145414E-05
0.5	0.75	1.04861911198350E-05
0.5	0.8	1.09052546167326E-05
0.5	0.85	1.13311055570196E-05
0.5	0.9	1.17640300333805E-05
0.5	0.95	1.22042637424956E-05
0.5	1.0	1.26520773899483E-05
0.5	1.05	1.31076699704793E-05
0.5	1.1	1.35712581742203E-05
0.5	1.15	1.40430374914267E-05
0.5	1.2	1.45232059656029E-05
0.6	0.0	2.11359027992583E-18
0.6	0.05	1.52438899844017E-05
0.6	0.1	2.37560177092042E-05
0.6	0.15	2.78803504234722E-05
0.6	0.2	2.99994260214209E-05
0.6	0.25	3.14854444060294E-05
0.6	0.3	3.27852431071579E-05
0.6	0.35	3.40044013283503E-05
0.6	0.4	3.51745058583983E-05
0.6	0.45	3.63111925684149E-05
0.6	0.5	3.74243660519391E-05
0.6	0.55	3.85203101161312E-05
0.6	0.6	3.96041057154329E-05
0.6	0.65	4.06790339785524E-05
0.6	0.7	4.17479662619139E-05
0.6	0.75	4.28129263568903E-05
0.6	0.8	4.38756561812897E-05
0.6	0.85	4.49375243502580E-05
0.6	0.9	4.59997890421361E-05
0.6	0.95	4.70632783795516E-05
0.6	1.0	4.81290252089534E-05
0.6	1.05	4.91976547415697E-05
0.6	1.1	5.02697583127125E-05
0.6	1.15	5.13460097923256E-05
0.6	1.2	5.24268214941127E-05
0.7	0.0	4.51332494530587E-17
0.7	0.05	2.88113340000628E-05
0.7	0.1	4.94628094378933E-05
0.7	0.15	6.30607570893624E-05
0.7	0.2	7.12811654791158E-05
0.7	0.25	7.61367355866084E-05
0.7	0.3	7.93774088069920E-05
0.7	0.35	8.19745347054618E-05
0.7	0.4	8.42868669862130E-05
0.7	0.45	8.64351477627080E-05
0.7	0.5	8.84743659112629E-05
0.7	0.55	9.04359030919768E-05
0.7	0.6	9.23398637012021E-05
0.7	0.65	9.41995750806710E-05
0.7	0.7	9.60248472878687E-05
0.7	0.75	9.78222181952963E-05
0.7	0.8	9.95972847176572E-05
0.7	0.85	1.01354167250012E-04
0.7	0.9	1.03096283064749E-04
0.7	0.95	1.04826166503818E-04
0.7	1.0	1.06546318970705E-04
0.7	1.05	1.08258532568669E-04
0.7	1.1	1.09964317722006E-04
0.7	1.15	1.11665148044044E-04
0.7	1.2	1.13362209626867E-04
0.8	0.0	-5.79951313506518E-18
0.8	0.05	4.19457043086621E-05
0.8	0.1	7.53575964092633E-05
0.8	0.15	1.00777994182099E-04
0.8	0.2	1.19114940794522E-04
0.8	0.25	1.31620999597523E-04
0.8	0.3	1.39863240641785E-04
0.8	0.35	1.45481633648732E-04
0.8	0.4	1.49751381442375E-04
0.8	0.45	1.53359137676398E-04
0.8	0.5	1.56598267577115E-04
0.8	0.55	1.59603824061374E-04
0.8	0.6	1.62448529137877E-04
0.8	0.65	1.65177767600281E-04
0.8	0.7	1.67819126427442E-04
0.8	0.75	1.70391816255826E-04
0.8	0.8	1.72909400151434E-04
0.8	0.85	1.75381506149984E-04
0.8	0.9	1.77815755766343E-04
0.8	0.95	1.80218301372504E-04
0.8	1.0	1.82594022147478E-04
0.8	1.05	1.84945984271505E-04
0.8	1.1	1.87278432619208E-04
0.8	1.15	1.89593451891287E-04
0.8	1.2	1.91893493869615E-04
0.9	0.0	-1.33204971165158E-16
0.9	0.05	5.40717250627710E-05
0.9	0.1	9.96025719387840E-05
0.9	0.15	1.36855843879543E-04
0.9	0.2	1.66366145978146E-04
0.9	0.25	1.88886591538370E-04
0.9	0.3	2.05408223852722E-04
0.9	0.35	2.17163547403906E-04
0.9	0.4	2.25540080801867E-04
0.9	0.45	2.31830691018769E-04
0.9	0.5	2.36951285038360E-04
0.9	0.55	2.41398713048116E-04
0.9	0.6	2.45425661069043E-04
0.9	0.65	2.49175020327562E-04
0.9	0.7	2.52729987298140E-04
0.9	0.75	2.56142594663536E-04
0.9	0.8	2.59445008044965E-04
0.9	0.85	2.62660307432963E-04
0.9	0.9	2.65804126293411E-04
0.9	0.95	2.68888056375457E-04
0.9	1.0	2.71921796122713E-04
0.9	1.05	2.74911764264935E-04
0.9	1.1	2.77864615351194E-04
0.9	1.15	2.80784039864864E-04
0.9	1.2	2.83674819618328E-04
1.0	0.0	1.20034880403511E-16
1.0	0.05	6.50641155869537E-05
1.0	0.1	1.21751304140670E-04
1.0	0.15	1.70159177598719E-04
1.0	0.2	2.10615813661833E-04
1.0	0.25	2.43603919904796E-04
1.0	0.3	2.69762029580479E-04
1.0	0.35	2.89900997201025E-04
1.0	0.4	3.05017318984890E-04
1.0	0.45	3.16261388329280E-04
1.0	0.5	3.24808714378110E-04
1.0	0.55	3.31645890134493E-04
1.0	0.6	3.37434872424697E-04
1.0	0.65	3.42558486368039E-04
1.0	0.7	3.47243133913529E-04
1.0	0.75	3.51630140538713E-04
1.0	0.8	3.55805298770616E-04
1.0	0.85	3.59821201621048E-04
1.0	0.9	3.63712548962636E-04
1.0	0.95	3.67503137081569E-04
1.0	1.0	3.71209637651529E-04
1.0	1.05	3.74845854174180E-04
1.0	1.1	3.78420996938803E-04
1.0	1.15	3.81944290088091E-04
1.0	1.2	3.85419950777067E-04
1.1	0.0	-5.10283611407465E-17
1.1	0.05	7.49335692432216E-05
1.1	0.1	1.41740703979404E-04
1.1	0.15	2.00413379747569E-04
1.1	0.2	2.51152501351692E-04
1.1	0.25	2.94279417904453E-04
1.1	0.3	3.30224630768757E-04
1.1	0.35	3.59534812436748E-04
1.1	0.4	3.82888549968292E-04
1.1	0.45	4.01109202879065E-04
1.1	0.5	4.15155692582993E-04
1.1	0.55	4.26055124512219E-04
1.1	0.6	4.34762105332162E-04
1.1	0.65	4.42019660063238E-04
1.1	0.7	4.48326751985266E-04
1.1	0.75	4.53998377766678E-04
1.1	0.8	4.59238505342298E-04
1.1	0.85	4.64178524043547E-04
1.1	0.9	4.68898717790044E-04
1.1	0.95	4.73450051846572E-04
1.1	1.0	4.77868232939474E-04
1.1	1.05	4.82174647312209E-04
1.1	1.1	4.86389444140408E-04
1.1	1.15	4.90524793170377E-04
1.1	1.2	4.94590798191928E-04
1.2	0.0	3.96127059059641E-17
1.2	0.05	8.37478292808322E-05
1.2	0.1	1.59659030269021E-04
1.2	0.15	2.27657419998277E-04
1.2	0.2	2.87862505104875E-04
1.2	0.25	3.40493488406149E-04
1.2	0.3	3.85850813422576E-04
1.2	0.35	4.24316141908397E-04
1.2	0.4	4.56361019264600E-04
1.2	0.45	4.82560806216955E-04
1.2	0.5	5.03606821759741E-04
1.2	0.55	5.20306685707875E-04
1.2	0.6	5.33546282000971E-04
1.2	0.65	5.44203839705823E-04
1.2	0.7	5.53034413591712E-04
1.2	0.75	5.60611213679443E-04
1.2	0.8	5.67329991083904E-04
1.2	0.85	5.73460093412050E-04
1.2	0.9	5.79179884366439E-04
1.2	0.95	5.84606420298106E-04
1.2	1.0	5.89812210925143E-04
1.2	1.05	5.94843878971199E-04
1.2	1.1	5.99736220685709E-04
1.2	1.15	6.04508995946697E-04
1.2	1.2	6.09184643768719E-04