vg	vd	ids
0.0	0.0	3.32806287765908E-17
0.0	0.05	1.10335148814956E-13
0.0	0.1	1.28556517581341E-13
0.0	0.15	1.35618850931665E-13
0.0	0.2	1.41933006829843E-13
0.0	0.25	1.48648964211831E-13
0.0	0.3	1.56062553658228E-13
0.0	0.35	1.62905778640491E-13
0.0	0.4	1.70289134642018E-13
0.0	0.45	1.77816905700943E-13
0.0	0.5	1.86174017954355E-13
0.0	0.55	1.94459424663059E-13
0.0	0.6	2.03587043958138E-13
0.0	0.65	2.12755199440271E-13
0.0	0.7	2.22533219161773E-13
0.0	0.75	2.32767442398117E-13
0.0	0.8	2.43341856682774E-13
0.0	0.85	2.54512508048205E-13
0.0	0.9	2.66091569858028E-13
0.0	0.95	2.78742248938904E-13
0.0	1.0	2.91458924214840E-13
0.0	1.05	3.04965520954779E-13
0.0	1.1	3.19279859751655E-13
0.0	1.15	3.34283167083251E-13
0.0	1.2	3.49923304513811E-13
0.1	0.0	5.29914520645167E-17
0.1	0.05	3.72225514614829E-12
0.1	0.1	4.34233648971174E-12
0.1	0.15	4.58814739329328E-12
0.1	0.2	4.80810088806499E-12
0.1	0.25	5.03424107154366E-12
0.1	0.3	5.26838831579475E-12
0.1	0.35	5.51166643240772E-12
0.1	0.4	5.76382401014398E-12
0.1	0.45	6.02633093595657E-12
0.1	0.5	6.29991040541376E-12
0.1	0.55	6.58386956094171E-12
0.1	0.6	6.88021847056196E-12
0.1	0.65	7.18900929898703E-12
0.1	0.7	7.51081751776567E-12
0.1	0.75	7.84633598668950E-12
0.1	0.8	8.19650050258196E-12
0.1	0.85	8.56145838658009E-12
0.1	0.9	8.94266134135692E-12
0.1	0.95	9.34078185525669E-12
0.1	1.0	9.75605754652811E-12
0.1	1.05	1.01902875903005E-11
0.1	1.1	1.06438216805242E-11
0.1	1.15	1.11176668211050E-11
0.1	1.2	1.16128447111341E-11
0.2	0.0	-1.39470931627793E-16
0.2	0.05	1.26683935959192E-10
0.2	0.1	1.48227091274719E-10
0.2	0.15	1.56860858294725E-10
0.2	0.2	1.64519333307522E-10
0.2	0.25	1.72344009869470E-10
0.2	0.3	1.80414585566156E-10
0.2	0.35	1.88751097975672E-10
0.2	0.4	1.97375900856610E-10
0.2	0.45	2.06310014619320E-10
0.2	0.5	2.15569551632167E-10
0.2	0.55	2.25170027464631E-10
0.2	0.6	2.35132178208193E-10
0.2	0.65	2.45474781417725E-10
0.2	0.7	2.56215399392748E-10
0.2	0.75	2.67373605606097E-10
0.2	0.8	2.78969822585369E-10
0.2	0.85	2.91023928287972E-10
0.2	0.9	3.03557368083461E-10
0.2	0.95	3.16590691552359E-10
0.2	1.0	3.30147672298205E-10
0.2	1.05	3.44251614199371E-10
0.2	1.1	3.58925582958762E-10
0.2	1.15	3.74196305907200E-10
0.2	1.2	3.90088859208074E-10
0.3	0.0	-7.15936619161531E-17
0.3	0.05	4.31348731214658E-09
0.3	0.1	5.06686082325277E-09
0.3	0.15	5.37216141529920E-09
0.3	0.2	5.64006481962409E-09
0.3	0.25	5.91149459796855E-09
0.3	0.3	6.18952924510396E-09
0.3	0.35	6.47526027356703E-09
0.3	0.4	6.76954594749259E-09
0.3	0.45	7.07285198064005E-09
0.3	0.5	7.38577253738735E-09
0.3	0.55	7.70892207405386E-09
0.3	0.6	8.04288994754388E-09
0.3	0.65	8.38822628679999E-09
0.3	0.7	8.74548115690764E-09
0.3	0.75	9.11520850508466E-09
0.3	0.8	9.49796208106936E-09
0.3	0.85	9.89431124362678E-09
0.3	0.9	1.03048280078206E-08
0.3	0.95	1.07301000352584E-08
0.3	1.0	1.11707321220713E-08
0.3	1.05	1.16273363385112E-08
0.3	1.1	1.21005469698486E-08
0.3	1.15	1.25910175974274E-08
0.3	1.2	1.30994158647795E-08
0.4	0.0	-4.38129785075012E-17
0.4	0.05	1.40452748841721E-07
0.4	0.1	1.66490910558606E-07
0.4	0.15	1.76957655182033E-07
0.4	0.2	1.85863810055241E-07
0.4	0.25	1.94727810326613E-07
0.4	0.3	2.03703935390303E-07
0.4	0.35	2.12840858661158E-07
0.4	0.4	2.22162432481011E-07
0.4	0.45	2.31694156517322E-07
0.4	0.5	2.41457494885052E-07
0.4	0.55	2.51470644089563E-07
0.4	0.6	2.61749653333991E-07
0.4	0.65	2.72308936397057E-07
0.4	0.7	2.83162254451613E-07
0.4	0.75	2.94322582957063E-07
0.4	0.8	3.05802423990911E-07
0.4	0.85	3.17614242545652E-07
0.4	0.9	3.29770041607865E-07
0.4	0.95	3.42281923685164E-07
0.4	1.0	3.55161980405249E-07
0.4	1.05	3.68422036572840E-07
0.4	1.1	3.82074211364617E-07
0.4	1.15	3.96130580816468E-07
0.4	1.2	4.10603109733874E-07
0.5	0.0	-9.10824879300408E-17
0.5	0.05	2.70835728727253E-06
0.5	0.1	3.43404172558325E-06
0.5	0.15	3.67504370438287E-06
0.5	0.2	3.83743655915185E-06
0.5	0.25	3.98711370700810E-06
0.5	0.3	4.13299263756421E-06
0.5	0.35	4.27719609407910E-06
0.5	0.4	4.42070990369424E-06
0.5	0.45	4.56425626862110E-06
0.5	0.5	4.70830882355747E-06
0.5	0.55	4.85319156001282E-06
0.5	0.6	4.99916017838278E-06
0.5	0.65	5.14640587381973E-06
0.5	0.7	5.29508479451895E-06
0.5	0.75	5.44532766109415E-06
0.5	0.8	5.59723199182840E-06
0.5	0.85	5.75089693224009E-06
0.5	0.9	5.90639474399523E-06
0.5	0.95	6.06379209586056E-06
0.5	1.0	6.22315681907198E-06
0.5	1.05	6.38453430984697E-06
0.5	1.1	6.54797704601500E-06
0.5	1.15	6.71353307971737E-06
0.5	1.2	6.88123460127385E-06
0.6	0.0	-2.28757918140772E-16
0.6	0.05	1.23128428819276E-05
0.6	0.1	1.88753542176943E-05
0.6	0.15	2.17465622579695E-05
0.6	0.2	2.29940429218047E-05
0.6	0.25	2.37639669029096E-05
0.6	0.3	2.44099591810057E-05
0.6	0.35	2.50093357285001E-05
0.6	0.4	2.55829780104826E-05
0.6	0.45	2.61403846883776E-05
0.6	0.5	2.66866899845205E-05
0.6	0.55	2.72252520378021E-05
0.6	0.6	2.77580922427559E-05
0.6	0.65	2.82868699148632E-05
0.6	0.7	2.88125942243681E-05
0.6	0.75	2.93361986685530E-05
0.6	0.8	2.98583452743516E-05
0.6	0.85	3.03795404621822E-05
0.6	0.9	3.09002820976275E-05
0.6	0.95	3.14208810013391E-05
0.6	1.0	3.19416783527253E-05
0.6	1.05	3.24629126388358E-05
0.6	1.1	3.29848358132617E-05
0.6	1.15	3.35076347463423E-05
0.6	1.2	3.40314490255208E-05
0.7	0.0	2.30447351664448E-17
0.7	0.05	2.44475909116272E-05
0.7	0.1	4.18712997291506E-05
0.7	0.15	5.31438177820346E-05
0.7	0.2	5.96557168709797E-05
0.7	0.25	6.31498822148653E-05
0.7	0.3	6.52003357836005E-05
0.7	0.35	6.67092159637507E-05
0.7	0.4	6.80091367247001E-05
0.7	0.45	6.92067904401856E-05
0.7	0.5	7.03439448195750E-05
0.7	0.55	7.14409331774253E-05
0.7	0.6	7.25093544003375E-05
0.7	0.65	7.35557879254791E-05
0.7	0.7	7.45849730734957E-05
0.7	0.75	7.56001995230983E-05
0.7	0.8	7.66038486031021E-05
0.7	0.85	7.75977839191923E-05
0.7	0.9	7.85836085933467E-05
0.7	0.95	7.95623325182576E-05
0.7	1.0	8.05350318050160E-05
0.7	1.05	8.15025423760332E-05
0.7	1.1	8.24655114917743E-05
0.7	1.15	8.34245059479838E-05
0.7	1.2	8.43800970339993E-05
0.8	0.0	-4.00230859021645E-17
0.8	0.05	3.62538402108782E-05
0.8	0.1	6.52534521702894E-05
0.8	0.15	8.73527596610753E-05
0.8	0.2	1.03213808659486E-04
0.8	0.25	1.13816354564157E-04
0.8	0.3	1.20460675695365E-04
0.8	0.35	1.24595847719863E-04
0.8	0.4	1.27437362788603E-04
0.8	0.45	1.29690575594415E-04
0.8	0.5	1.31660732570022E-04
0.8	0.55	1.33478405796516E-04
0.8	0.6	1.35202796599041E-04
0.8	0.65	1.36862906573049E-04
0.8	0.7	1.38475622900306E-04
0.8	0.75	1.40050787695764E-04
0.8	0.8	1.41595933653527E-04
0.8	0.85	1.43115697913385E-04
0.8	0.9	1.44613770513580E-04
0.8	0.95	1.46093268412302E-04
0.8	1.0	1.47556576721928E-04
0.8	1.05	1.49005270374467E-04
0.8	1.1	1.50441073886039E-04
0.8	1.15	1.51865345217163E-04
0.8	1.2	1.53279116037629E-04
0.9	0.0	-6.75706637350901E-17
0.9	0.05	4.70986250986961E-05
0.9	0.1	8.70612182276184E-05
0.9	0.15	1.19997119821159E-04
0.9	0.2	1.46228579060965E-04
0.9	0.25	1.66268110978216E-04
0.9	0.3	1.80849388616874E-04
0.9	0.35	1.90948772024349E-04
0.9	0.4	1.97744821125893E-04
0.9	0.45	2.02436427520501E-04
0.9	0.5	2.05964873281856E-04
0.9	0.55	2.08888422967799E-04
0.9	0.6	2.11486409155600E-04
0.9	0.65	2.13898041729083E-04
0.9	0.7	2.16189956561384E-04
0.9	0.75	2.18396602619229E-04
0.9	0.8	2.20538420458065E-04
0.9	0.85	2.22628087315512E-04
0.9	0.9	2.24674673489862E-04
0.9	0.95	2.26684805765593E-04
0.9	1.0	2.28663295530071E-04
0.9	1.05	2.30613990621164E-04
0.9	1.1	2.32540085283013E-04
0.9	1.15	2.34443959764502E-04
0.9	1.2	2.36327838918642E-04
1.0	0.0	9.73122218425139E-17
1.0	0.05	5.68337272260248E-05
1.0	0.1	1.06798540590980E-04
1.0	0.15	1.49869268324430E-04
1.0	0.2	1.86190001809449E-04
1.0	0.25	2.16030585931315E-04
1.0	0.3	2.39798414636565E-04
1.0	0.35	2.58061465438525E-04
1.0	0.4	2.71573007497603E-04
1.0	0.45	2.81270556430965E-04
1.0	0.5	2.88201391155486E-04
1.0	0.55	2.93347776198437E-04
1.0	0.6	2.97448043755559E-04
1.0	0.65	3.00959074416642E-04
1.0	0.7	3.04130800100822E-04
1.0	0.75	3.07096140668680E-04
1.0	0.8	3.09921575881219E-04
1.0	0.85	3.12643800536111E-04
1.0	0.9	3.15285425595362E-04
1.0	0.95	3.17861378004641E-04
1.0	1.0	3.20382666415901E-04
1.0	1.05	3.22856930333382E-04
1.0	1.1	3.25288994845724E-04
1.0	1.15	3.27685427583908E-04
1.0	1.2	3.30048786128821E-04
1.1	0.0	-3.22002988573457E-17
1.1	0.05	6.54692286003508E-05
1.1	0.1	1.24398108156058E-04
1.1	0.15	1.76684629360271E-04
1.1	0.2	2.22372560083086E-04
1.1	0.25	2.61596573587864E-04
1.1	0.3	2.94581406787691E-04
1.1	0.35	3.21653674017372E-04
1.1	0.4	3.43262292826064E-04
1.1	0.45	3.60000481600353E-04
1.1	0.5	3.72616829070729E-04
1.1	0.55	3.81989055498077E-04
1.1	0.6	3.89029542582549E-04
1.1	0.65	3.94542618777294E-04
1.1	0.7	3.99124078121956E-04
1.1	0.75	4.03154763740301E-04
1.1	0.8	4.06849382577132E-04
1.1	0.85	4.10325876928524E-04
1.1	0.9	4.13646367592864E-04
1.1	0.95	4.16849181975197E-04
1.1	1.0	4.19956881711557E-04
1.1	1.05	4.22987334140443E-04
1.1	1.1	4.25950778689848E-04
1.1	1.15	4.28858467434479E-04
1.1	1.2	4.31715391189812E-04
1.2	0.0	3.16306630225872E-17
1.2	0.05	7.30831724180208E-05
1.2	0.1	1.39968395876125E-04
1.2	0.15	2.00511662202522E-04
1.2	0.2	2.54700733990541E-04
1.2	0.25	3.02593160822407E-04
1.2	0.3	3.44308482351546E-04
1.2	0.35	3.80032409861812E-04
1.2	0.4	4.10028789029528E-04
1.2	0.45	4.34656560290669E-04
1.2	0.5	4.54388909819976E-04
1.2	0.55	4.69828064199043E-04
1.2	0.6	4.81699869780766E-04
1.2	0.65	4.90807576735379E-04
1.2	0.7	4.97937771182538E-04
1.2	0.75	5.03758022815468E-04
1.2	0.8	5.08759718028371E-04
1.2	0.85	5.13258246299456E-04
1.2	0.9	5.17429219905479E-04
1.2	0.95	5.21375563760748E-04
1.2	1.0	5.25153054503373E-04
1.2	1.05	5.28799992632960E-04
1.2	1.1	5.32340280271370E-04
1.2	1.15	5.35791978979712E-04
1.2	1.2	5.39167224966576E-04