vg	vd	ids
0.0	0.0	-6.66700863079342E-17
0.0	0.05	1.33618189917813E-11
0.0	0.1	1.77339943867793E-11
0.0	0.15	2.33325118800171E-11
0.0	0.2	3.11384949879980E-11
0.0	0.25	4.21532888424306E-11
0.0	0.3	5.78528686949286E-11
0.0	0.35	8.03994831585677E-11
0.0	0.4	1.12914866739683E-10
0.0	0.45	1.60137223222054E-10
0.0	0.5	2.29013145504162E-10
0.0	0.55	3.29690857363867E-10
0.0	0.6	4.76988394911914E-10
0.0	0.65	6.92773035606156E-10
0.0	0.7	1.00811291517590E-09
0.0	0.75	1.46803631615286E-09
0.0	0.8	2.13706553918480E-09
0.0	0.85	3.10949982962627E-09
0.0	0.9	4.51364035977421E-09
0.0	0.95	6.53450676205674E-09
0.0	1.0	9.42980655559722E-09
0.0	1.05	1.35574669909604E-08
0.0	1.1	1.94110144807891E-08
0.0	1.15	2.76662905137850E-08
0.0	1.2	3.92408748103368E-08
0.1	0.0	-3.40623546503081E-17
0.1	0.05	2.43393355989262E-10
0.1	0.1	3.03419515900937E-10
0.1	0.15	3.69384968914380E-10
0.1	0.2	4.52673925265086E-10
0.1	0.25	5.59105980154566E-10
0.1	0.3	6.96751462461627E-10
0.1	0.35	8.76796292927274E-10
0.1	0.4	1.11481811007791E-09
0.1	0.45	1.43246074660413E-09
0.1	0.5	1.86013201231068E-09
0.1	0.55	2.43983204657823E-09
0.1	0.6	3.23086624195184E-09
0.1	0.65	4.31253462232578E-09
0.1	0.7	5.79477564173425E-09
0.1	0.75	7.83306469551939E-09
0.1	0.8	1.06549207261786E-08
0.1	0.85	1.45419161611504E-08
0.1	0.9	1.99028179163272E-08
0.1	0.95	2.72858388233344E-08
0.1	1.0	3.74315128070611E-08
0.1	1.05	5.13321074271346E-08
0.1	1.1	7.03075716043125E-08
0.1	1.15	9.61009966124168E-08
0.1	1.2	1.30994875972849E-07
0.2	0.0	-3.77795351715873E-17
0.2	0.05	5.44255874555030E-09
0.2	0.1	6.60075848286972E-09
0.2	0.15	7.72296152547161E-09
0.2	0.2	9.03952244104324E-09
0.2	0.25	1.05967236659718E-08
0.2	0.3	1.24526787430962E-08
0.2	0.35	1.46814717250316E-08
0.2	0.4	1.73799683857427E-08
0.2	0.45	2.06732965807472E-08
0.2	0.5	2.47245053928734E-08
0.2	0.55	2.97484024806049E-08
0.2	0.6	3.60227860681734E-08
0.2	0.65	4.39133013776481E-08
0.2	0.7	5.38896482415476E-08
0.2	0.75	6.66139287415916E-08
0.2	0.8	8.28696039135074E-08
0.2	0.85	1.03731251397993E-07
0.2	0.9	1.30574955076791E-07
0.2	0.95	1.65166290449658E-07
0.2	1.0	2.09716537230507E-07
0.2	1.05	2.67019911738946E-07
0.2	1.1	3.40754707522623E-07
0.2	1.15	4.35488696353448E-07
0.2	1.2	5.56858844120788E-07
0.3	0.0	1.28976631875926E-17
0.3	0.05	1.31132504588330E-07
0.3	0.1	1.57671132848914E-07
0.3	0.15	1.80756667786382E-07
0.3	0.2	2.06413672758349E-07
0.3	0.25	2.35176609009075E-07
0.3	0.3	2.67538251899999E-07
0.3	0.35	3.04109636581845E-07
0.3	0.4	3.45598540016318E-07
0.3	0.45	3.92841061871338E-07
0.3	0.5	4.46841024030367E-07
0.3	0.55	5.08804310043842E-07
0.3	0.6	5.80181301892359E-07
0.3	0.65	6.62725878636696E-07
0.3	0.7	7.58565205507394E-07
0.3	0.75	8.70262853991386E-07
0.3	0.8	1.00091227951144E-06
0.3	0.85	1.15424147594365E-06
0.3	0.9	1.33470757596876E-06
0.3	0.95	1.54762289997656E-06
0.3	1.0	1.79928612007782E-06
0.3	1.05	2.09707126453739E-06
0.3	1.1	2.44957750849202E-06
0.3	1.15	2.86666141126745E-06
0.3	1.2	3.35949266846245E-06
0.4	0.0	-1.13416031777617E-17
0.4	0.05	2.76661792576335E-06
0.4	0.1	3.35186592286403E-06
0.4	0.15	3.76610236674802E-06
0.4	0.2	4.19180645729354E-06
0.4	0.25	4.63887536311390E-06
0.4	0.3	5.11165982357843E-06
0.4	0.35	5.61360556076588E-06
0.4	0.4	6.14780784888695E-06
0.4	0.45	6.71726217938186E-06
0.4	0.5	7.32500428755782E-06
0.4	0.55	7.97433142058061E-06
0.4	0.6	8.66870484956432E-06
0.4	0.65	9.41198504629832E-06
0.4	0.7	1.02083862188205E-05
0.4	0.75	1.10625767638891E-05
0.4	0.8	1.19797531186512E-05
0.4	0.85	1.29656485577815E-05
0.4	0.9	1.40266081256027E-05
0.4	0.95	1.51696176547483E-05
0.4	1.0	1.64023030722969E-05
0.4	1.05	1.77329732389758E-05
0.4	1.1	1.91704358112526E-05
0.4	1.15	2.07242415913110E-05
0.4	1.2	2.24041987568860E-05
0.5	0.0	3.21350475226270E-17
0.5	0.05	2.33088455170792E-05
0.5	0.1	3.08263563125594E-05
0.5	0.15	3.39159367696309E-05
0.5	0.2	3.63792094170412E-05
0.5	0.25	3.87067553226484E-05
0.5	0.3	4.09832256636793E-05
0.5	0.35	4.32440259206186E-05
0.5	0.4	4.55085088321289E-05
0.5	0.45	4.77879512140610E-05
0.5	0.5	5.00903892928113E-05
0.5	0.55	5.24221335278619E-05
0.5	0.6	5.47887085593724E-05
0.5	0.65	5.71945647168652E-05
0.5	0.7	5.96448626133629E-05
0.5	0.75	6.21441027171064E-05
0.5	0.8	6.46970335400515E-05
0.5	0.85	6.73092832653257E-05
0.5	0.9	6.99858181985631E-05
0.5	0.95	7.27331614856168E-05
0.5	1.0	7.55572932404455E-05
0.5	1.05	7.84649084311774E-05
0.5	1.1	8.14632821060881E-05
0.5	1.15	8.45600100944324E-05
0.5	1.2	8.77625579743081E-05
0.6	0.0	-3.60891039488830E-18
0.6	0.05	6.15116606544179E-05
0.6	0.1	9.45087485040010E-05
0.6	0.15	1.09446818980149E-04
0.6	0.2	1.16892272805614E-04
0.6	0.25	1.22305336054897E-04
0.6	0.3	1.27068537907682E-04
0.6	0.35	1.31534990475303E-04
0.6	0.4	1.35838198612908E-04
0.6	0.45	1.40039618237136E-04
0.6	0.5	1.44174239149330E-04
0.6	0.55	1.48263627478752E-04
0.6	0.6	1.52323217188777E-04
0.6	0.65	1.56366149726715E-04
0.6	0.7	1.60401735857468E-04
0.6	0.75	1.64439193731676E-04
0.6	0.8	1.68487200292685E-04
0.6	0.85	1.72552820633312E-04
0.6	0.9	1.76644808802995E-04
0.6	0.95	1.80769772943135E-04
0.6	1.0	1.84936065257630E-04
0.6	1.05	1.89151328001515E-04
0.6	1.1	1.93424118663110E-04
0.6	1.15	1.97761193483779E-04
0.6	1.2	2.02172689915055E-04
0.7	0.0	1.54982841219410E-16
0.7	0.05	9.90049803012516E-05
0.7	0.1	1.65552976599596E-04
0.7	0.15	2.05744259600375E-04
0.7	0.2	2.27740728148529E-04
0.7	0.25	2.40076371503978E-04
0.7	0.3	2.48601059162123E-04
0.7	0.35	2.55680653151304E-04
0.7	0.4	2.62105936681325E-04
0.7	0.45	2.68179063787834E-04
0.7	0.5	2.74027482291540E-04
0.7	0.55	2.79718121058230E-04
0.7	0.6	2.85290258663799E-04
0.7	0.65	2.90772772086633E-04
0.7	0.7	2.96185664135320E-04
0.7	0.75	3.01546402410708E-04
0.7	0.8	3.06868912377804E-04
0.7	0.85	3.12165573128492E-04
0.7	0.9	3.17447717330328E-04
0.7	0.95	3.22725259535024E-04
0.7	1.0	3.28011918524435E-04
0.7	1.05	3.33311186827687E-04
0.7	1.1	3.38638905811450E-04
0.7	1.15	3.44003922090078E-04
0.7	1.2	3.49410838501556E-04
0.8	0.0	-1.27896060713299E-16
0.8	0.05	1.30991590041770E-04
0.8	0.1	2.29080686122531E-04
0.8	0.15	2.98040985456631E-04
0.8	0.2	3.43205166859838E-04
0.8	0.25	3.70924374340718E-04
0.8	0.3	3.87932817229931E-04
0.8	0.35	3.99631006844485E-04
0.8	0.4	4.08970508092130E-04
0.8	0.45	4.17216925760220E-04
0.8	0.5	4.24880364171415E-04
0.8	0.55	4.32179754655832E-04
0.8	0.6	4.39223542973865E-04
0.8	0.65	4.46074595602401E-04
0.8	0.7	4.52776901882880E-04
0.8	0.75	4.59359826668442E-04
0.8	0.8	4.65850926307082E-04
0.8	0.85	4.72264305159928E-04
0.8	0.9	4.78624942930881E-04
0.8	0.95	4.84939989416157E-04
0.8	1.0	4.91229272260993E-04
0.8	1.05	4.97502904500679E-04
0.8	1.1	5.03775161004336E-04
0.8	1.15	5.10055214238144E-04
0.8	1.2	5.16356189051721E-04
0.9	0.0	-7.45492604460047E-17
0.9	0.05	1.57314494357142E-04
0.9	0.1	2.82601822901572E-04
0.9	0.15	3.78390816454305E-04
0.9	0.2	4.48400577651321E-04
0.9	0.25	4.97007342131097E-04
0.9	0.3	5.29217285004368E-04
0.9	0.35	5.50376872972005E-04
0.9	0.4	5.65193701249909E-04
0.9	0.45	5.76791879515056E-04
0.9	0.5	5.86808707430453E-04
0.9	0.55	5.95982154445165E-04
0.9	0.6	6.04630087983158E-04
0.9	0.65	6.12912822930905E-04
0.9	0.7	6.20924688064284E-04
0.9	0.75	6.28724327440255E-04
0.9	0.8	6.36358616221684E-04
0.9	0.85	6.43856882838244E-04
0.9	0.9	6.51250197465577E-04
0.9	0.95	6.58557190893350E-04
0.9	1.0	6.65798538171412E-04
0.9	1.05	6.72993193897772E-04
0.9	1.1	6.80155465906347E-04
0.9	1.15	6.87300069085942E-04
0.9	1.2	6.94440334526090E-04
1.0	0.0	4.53986362428864E-17
1.0	0.05	1.78776267868425E-04
1.0	0.1	3.26829669293123E-04
1.0	0.15	4.46023888445150E-04
1.0	0.2	5.39184075919976E-04
1.0	0.25	6.09507921005729E-04
1.0	0.3	6.60556639888863E-04
1.0	0.35	6.96318975757514E-04
1.0	0.4	7.21083945596286E-04
1.0	0.45	7.38870292649613E-04
1.0	0.5	7.52722484295217E-04
1.0	0.55	7.64500281198255E-04
1.0	0.6	7.75147799351006E-04
1.0	0.65	7.85095668557709E-04
1.0	0.7	7.94558126875056E-04
1.0	0.75	8.03664419348495E-04
1.0	0.8	8.12493316287552E-04
1.0	0.85	8.21109059649898E-04
1.0	0.9	8.29547155255708E-04
1.0	0.95	8.37847762465430E-04
1.0	1.0	8.46034556977426E-04
1.0	1.05	8.54134382803584E-04
1.0	1.1	8.62171165207237E-04
1.0	1.15	8.70159165349118E-04
1.0	1.2	8.78112671675860E-04
1.1	0.0	-9.30876784755284E-18
1.1	0.05	1.96314582375917E-04
1.1	0.1	3.63245356474748E-04
1.1	0.15	5.02311851662671E-04
1.1	0.2	6.15854509825681E-04
1.1	0.25	7.06408409479865E-04
1.1	0.3	7.76651938479238E-04
1.1	0.35	8.29482833204063E-04
1.1	0.4	8.68110614391081E-04
1.1	0.45	8.96006926212292E-04
1.1	0.5	9.16576675973930E-04
1.1	0.55	9.32654321146735E-04
1.1	0.6	9.46195302317051E-04
1.1	0.65	9.58306907213175E-04
1.1	0.7	9.69530522773712E-04
1.1	0.75	9.80143124900750E-04
1.1	0.8	9.90308590190614E-04
1.1	0.85	1.00013684942625E-03
1.1	0.9	1.00969066955003E-03
1.1	0.95	1.01902855996933E-03
1.1	1.0	1.02819380892506E-03
1.1	1.05	1.03721910768692E-03
1.1	1.1	1.04613827740772E-03
1.1	1.15	1.05497223421646E-03
1.1	1.2	1.06374478619034E-03
1.2	0.0	4.46572504234658E-17
1.2	0.05	2.10759934047777E-04
1.2	0.1	3.93353526927510E-04
1.2	0.15	5.49129964391835E-04
1.2	0.2	6.80174439378524E-04
1.2	0.25	7.88660957773412E-04
1.2	0.3	8.76767834921061E-04
1.2	0.35	9.46719633550724E-04
1.2	0.4	1.00088904453386E-03
1.2	0.45	1.04187658421868E-03
1.2	0.5	1.07251471814959E-03
1.2	0.55	1.09567698394101E-03
1.2	0.6	1.11393446405278E-03
1.2	0.65	1.12923861536267E-03
1.2	0.7	1.14281463515566E-03
1.2	0.75	1.15530617947612E-03
1.2	0.8	1.16705693546696E-03
1.2	0.85	1.17827248248428E-03
1.2	0.9	1.18907603418876E-03
1.2	0.95	1.19955033217374E-03
1.2	1.0	1.20976078190981E-03
1.2	1.05	1.21976906172202E-03
1.2	1.1	1.22960701114373E-03
1.2	1.15	1.23931986890054E-03
1.2	1.2	1.24893052399795E-03