vg	vd	ids
0.0	0.0	-2.07593703265839E-17
0.0	0.05	3.86952998029983E-13
0.0	0.1	4.32609937181575E-13
0.0	0.15	4.50744398361670E-13
0.0	0.2	4.68541908828231E-13
0.0	0.25	4.86988842866658E-13
0.0	0.3	5.06035288704321E-13
0.0	0.35	5.25660706142904E-13
0.0	0.4	5.46073305342117E-13
0.0	0.45	5.67180413530419E-13
0.0	0.5	5.88998898626064E-13
0.0	0.55	6.11794905041324E-13
0.0	0.6	6.35379326931997E-13
0.0	0.65	6.59938766064545E-13
0.0	0.7	6.85353779030746E-13
0.0	0.75	7.11910023737453E-13
0.0	0.8	7.39457755851682E-13
0.0	0.85	7.68162754644932E-13
0.0	0.9	7.98113391436158E-13
0.0	0.95	8.29247947092916E-13
0.0	1.0	8.61722632318595E-13
0.0	1.05	8.95545292140662E-13
0.0	1.1	9.30759555823047E-13
0.0	1.15	9.67522725011192E-13
0.0	1.2	1.00586203319038E-12
0.1	0.0	4.11815188986751E-19
0.1	0.05	1.36572273721872E-11
0.1	0.1	1.53265554840527E-11
0.1	0.15	1.59859289686704E-11
0.1	0.2	1.66292915722320E-11
0.1	0.25	1.72899642864708E-11
0.1	0.3	1.79696294093282E-11
0.1	0.35	1.86697076095152E-11
0.1	0.4	1.93916190425142E-11
0.1	0.45	2.01369102736255E-11
0.1	0.5	2.09060803129559E-11
0.1	0.55	2.17030584126528E-11
0.1	0.6	2.25258335421830E-11
0.1	0.65	2.33782544174966E-11
0.1	0.7	2.42606416288555E-11
0.1	0.75	2.51739477445607E-11
0.1	0.8	2.61215694694270E-11
0.1	0.85	2.71029090507440E-11
0.1	0.9	2.81201094606714E-11
0.1	0.95	2.91757904095783E-11
0.1	1.0	3.02706108362716E-11
0.1	1.05	3.14065564231029E-11
0.1	1.1	3.25853867315722E-11
0.1	1.15	3.38094327126948E-11
0.1	1.2	3.50801375951377E-11
0.2	0.0	-9.99420295596559E-18
0.2	0.05	4.86708308675474E-10
0.2	0.1	5.48344347177962E-10
0.2	0.15	5.72672656427485E-10
0.2	0.2	5.96140917464941E-10
0.2	0.25	6.20099047929768E-10
0.2	0.3	6.44617353979878E-10
0.2	0.35	6.69755419688226E-10
0.2	0.4	6.95566199680064E-10
0.2	0.45	7.22083169135841E-10
0.2	0.5	7.49389667498280E-10
0.2	0.55	7.77539724111712E-10
0.2	0.6	8.06503758263528E-10
0.2	0.65	8.36357599272661E-10
0.2	0.7	8.67186741257381E-10
0.2	0.75	8.98993320754227E-10
0.2	0.8	9.31821768760658E-10
0.2	0.85	9.65728151220921E-10
0.2	0.9	1.00075698142241E-09
0.2	0.95	1.03694988516862E-09
0.2	1.0	1.07435562942883E-09
0.2	1.05	1.11302158888406E-09
0.2	1.1	1.15299768842558E-09
0.2	1.15	1.19433462982197E-09
0.2	1.2	1.23708591389920E-09
0.3	0.0	8.41377135008061E-18
0.3	0.05	1.73379042635687E-08
0.3	0.1	1.96321838456390E-08
0.3	0.15	2.05374981425242E-08
0.3	0.2	2.13971839613737E-08
0.3	0.25	2.22673402877927E-08
0.3	0.3	2.31517174785880E-08
0.3	0.35	2.40530802600603E-08
0.3	0.4	2.49736997700639E-08
0.3	0.45	2.59158918194572E-08
0.3	0.5	2.68801647909962E-08
0.3	0.55	2.78696595067448E-08
0.3	0.6	2.88851734380747E-08
0.3	0.65	2.99278616151973E-08
0.3	0.7	3.09992592794081E-08
0.3	0.75	3.21008019106153E-08
0.3	0.8	3.32338044618383E-08
0.3	0.85	3.43995208411139E-08
0.3	0.9	3.55992363576607E-08
0.3	0.95	3.68342368268341E-08
0.3	1.0	3.81058365221560E-08
0.3	1.05	3.94153496508531E-08
0.3	1.1	4.07641170927414E-08
0.3	1.15	4.21535130458472E-08
0.3	1.2	4.35849314610258E-08
0.4	0.0	-3.08156893289924E-17
0.4	0.05	5.80114083098573E-07
0.4	0.1	6.64799955505294E-07
0.4	0.15	6.96739119627472E-07
0.4	0.2	7.25858844514413E-07
0.4	0.25	7.54812219745607E-07
0.4	0.3	7.83849440674993E-07
0.4	0.35	8.13120410308751E-07
0.4	0.4	8.42761232192606E-07
0.4	0.45	8.72781282571472E-07
0.4	0.5	9.03294539558117E-07
0.4	0.55	9.34350681495827E-07
0.4	0.6	9.65994355281193E-07
0.4	0.65	9.98264745823803E-07
0.4	0.7	1.03119734006730E-06
0.4	0.75	1.06482476654012E-06
0.4	0.8	1.09917736860221E-06
0.4	0.85	1.13428443851376E-06
0.4	0.9	1.17017323382437E-06
0.4	0.95	1.20686994648862E-06
0.4	1.0	1.24440039587357E-06
0.4	1.05	1.28278895102159E-06
0.4	1.1	1.32205978925084E-06
0.4	1.15	1.36223702337357E-06
0.4	1.2	1.40334379094926E-06
0.5	0.0	-6.18589863464286E-18
0.5	0.05	9.58279181793199E-06
0.5	0.1	1.20272882694181E-05
0.5	0.15	1.26852363281953E-05
0.5	0.2	1.31211213544598E-05
0.5	0.25	1.35254306697942E-05
0.5	0.3	1.39152837443743E-05
0.5	0.35	1.42964603608746E-05
0.5	0.4	1.46723662554909E-05
0.5	0.45	1.50449124138810E-05
0.5	0.5	1.54156830112679E-05
0.5	0.55	1.57856570557183E-05
0.5	0.6	1.61556032720336E-05
0.5	0.65	1.65261118140035E-05
0.5	0.7	1.68976105425159E-05
0.5	0.75	1.72705113424445E-05
0.5	0.8	1.76450775677149E-05
0.5	0.85	1.80215741184688E-05
0.5	0.9	1.84002267017341E-05
0.5	0.95	1.87811865242171E-05
0.5	1.0	1.91646225262795E-05
0.5	1.05	1.95506604871479E-05
0.5	1.1	1.99394069661449E-05
0.5	1.15	2.03309600851902E-05
0.5	1.2	2.07254014354793E-05
0.6	0.0	1.92892598377350E-18
0.6	0.05	3.49435722805495E-05
0.6	0.1	5.36544273677040E-05
0.6	0.15	6.13980092626109E-05
0.6	0.2	6.42803166843787E-05
0.6	0.25	6.59387593946747E-05
0.6	0.3	6.73347520567550E-05
0.6	0.35	6.86212956473736E-05
0.6	0.4	6.98432584627504E-05
0.6	0.45	7.10222469816483E-05
0.6	0.5	7.21705077494252E-05
0.6	0.55	7.32956646772336E-05
0.6	0.6	7.44027363141641E-05
0.6	0.65	7.54953722361565E-05
0.6	0.7	7.65762337700413E-05
0.6	0.75	7.76474612721136E-05
0.6	0.8	7.87105759532595E-05
0.6	0.85	7.97669409397348E-05
0.6	0.9	8.08176980945446E-05
0.6	0.95	8.18635473424738E-05
0.6	1.0	8.29054136626942E-05
0.6	1.05	8.39438589734979E-05
0.6	1.1	8.49793947593586E-05
0.6	1.15	8.60124717446099E-05
0.6	1.2	8.70435451451912E-05
0.7	0.0	-1.29200874714948E-18
0.7	0.05	6.17860403036125E-05
0.7	0.1	1.05548574570124E-04
0.7	0.15	1.33214619728553E-04
0.7	0.2	1.48281598699407E-04
0.7	0.25	1.55502659221401E-04
0.7	0.3	1.59349857144215E-04
0.7	0.35	1.62149521958708E-04
0.7	0.4	1.64565344931911E-04
0.7	0.45	1.66787064684567E-04
0.7	0.5	1.68891599660584E-04
0.7	0.55	1.70915406094685E-04
0.7	0.6	1.72879087717523E-04
0.7	0.65	1.74795007582603E-04
0.7	0.7	1.76672480389287E-04
0.7	0.75	1.78517485377120E-04
0.7	0.8	1.80334755690154E-04
0.7	0.85	1.82128151068793E-04
0.7	0.9	1.83900297862277E-04
0.7	0.95	1.85653636093562E-04
0.7	1.0	1.87390423870611E-04
0.7	1.05	1.89111877783011E-04
0.7	1.1	1.90819759363274E-04
0.7	1.15	1.92515032535674E-04
0.7	1.2	1.94198754430680E-04
0.8	0.0	1.10986925647043E-17
0.8	0.05	8.46186938410216E-05
0.8	0.1	1.51862804733964E-04
0.8	0.15	2.02318419692708E-04
0.8	0.2	2.37470394712863E-04
0.8	0.25	2.59721447523449E-04
0.8	0.3	2.72472892650436E-04
0.8	0.35	2.79657138257988E-04
0.8	0.4	2.84379711658923E-04
0.8	0.45	2.88122874860258E-04
0.8	0.5	2.91414127749285E-04
0.8	0.55	2.94463113983324E-04
0.8	0.6	2.97358093786910E-04
0.8	0.65	3.00142731011994E-04
0.8	0.7	3.02842462018659E-04
0.8	0.75	3.05473478428528E-04
0.8	0.8	3.08047097656813E-04
0.8	0.85	3.10572116169654E-04
0.8	0.9	3.13054283938988E-04
0.8	0.95	3.15498889379872E-04
0.8	1.0	3.17909716103094E-04
0.8	1.05	3.20290369339656E-04
0.8	1.1	3.22642560772538E-04
0.8	1.15	3.24970049891284E-04
0.8	1.2	3.27274388445854E-04
0.9	0.0	5.11402050543034E-17
0.9	0.05	1.03133995227893E-04
0.9	0.1	1.90125818218186E-04
0.9	0.15	2.61044920512208E-04
0.9	0.2	3.16533976035353E-04
0.9	0.25	3.57710200793353E-04
0.9	0.3	3.86281896463393E-04
0.9	0.35	4.04686432558622E-04
0.9	0.4	4.16009749121359E-04
0.9	0.45	4.23316089605270E-04
0.9	0.5	4.28703129953323E-04
0.9	0.55	4.33192008249425E-04
0.9	0.6	4.37224261208414E-04
0.9	0.65	4.40989626772290E-04
0.9	0.7	4.44575363926251E-04
0.9	0.75	4.48027041859036E-04
0.9	0.8	4.51373848134114E-04
0.9	0.85	4.54633488486798E-04
0.9	0.9	4.57820800841729E-04
0.9	0.95	4.60944128284289E-04
0.9	1.0	4.64011419054801E-04
0.9	1.05	4.67029876506134E-04
0.9	1.1	4.70002459061648E-04
0.9	1.15	4.72934985999409E-04
0.9	1.2	4.75830647302471E-04
1.0	0.0	-1.98181530009967E-17
1.0	0.05	1.17999932696895E-04
1.0	0.1	2.21102113046338E-04
1.0	0.15	3.09197385752104E-04
1.0	0.2	3.82599935830983E-04
1.0	0.25	4.41872898476035E-04
1.0	0.3	4.87864008178759E-04
1.0	0.35	5.21814091817791E-04
1.0	0.4	5.45490401862546E-04
1.0	0.45	5.61233150168959E-04
1.0	0.5	5.71683971402579E-04
1.0	0.55	5.79127921784445E-04
1.0	0.6	5.85026591658891E-04
1.0	0.65	5.90139161473184E-04
1.0	0.7	5.94810605278510E-04
1.0	0.75	5.99201538511516E-04
1.0	0.8	6.03394253209302E-04
1.0	0.85	6.07432220890063E-04
1.0	0.9	6.11348843409697E-04
1.0	0.95	6.15160839573373E-04
1.0	1.0	6.18887693171774E-04
1.0	1.05	6.22538751816405E-04
1.0	1.1	6.26121282909431E-04
1.0	1.15	6.29645184294119E-04
1.0	1.2	6.33115397441297E-04
1.1	0.0	2.16153334750982E-17
1.1	0.05	1.29988232127453E-04
1.1	0.1	2.46159395015200E-04
1.1	0.15	3.48366740380430E-04
1.1	0.2	4.36818291370869E-04
1.1	0.25	5.11863772498437E-04
1.1	0.3	5.73979710957597E-04
1.1	0.35	6.23817899351285E-04
1.1	0.4	6.62294363001338E-04
1.1	0.45	6.90702157959490E-04
1.1	0.5	7.10795710842699E-04
1.1	0.55	7.24714864687656E-04
1.1	0.6	7.34616677822050E-04
1.1	0.65	7.42200400282682E-04
1.1	0.7	7.48538327895091E-04
1.1	0.75	7.54193351760803E-04
1.1	0.8	7.59424564997979E-04
1.1	0.85	7.64366521145026E-04
1.1	0.9	7.69092713480026E-04
1.1	0.95	7.73650256230869E-04
1.1	1.0	7.78070993654971E-04
1.1	1.05	7.82375392372475E-04
1.1	1.1	7.86580376970082E-04
1.1	1.15	7.90699158766352E-04
1.1	1.2	7.94740889200524E-04
1.2	0.0	-5.60378759662642E-18
1.2	0.05	1.39759702317440E-04
1.2	0.1	2.66588797075609E-04
1.2	0.15	3.80356228788973E-04
1.2	0.2	4.81256460991299E-04
1.2	0.25	5.69577485559728E-04
1.2	0.3	6.45658005051292E-04
1.2	0.35	7.09899952031216E-04
1.2	0.4	7.62812073104720E-04
1.2	0.45	8.05079844866758E-04
1.2	0.5	8.37657084445077E-04
1.2	0.55	8.61853086514735E-04
1.2	0.6	8.79345562263856E-04
1.2	0.65	8.92009065106653E-04
1.2	0.7	9.01568285928111E-04
1.2	0.75	9.09320043218241E-04
1.2	0.8	9.16061755683535E-04
1.2	0.85	9.22193925562204E-04
1.2	0.9	9.27916842829846E-04
1.2	0.95	9.33344890778846E-04
1.2	1.0	9.38549281443096E-04
1.2	1.05	9.43569657693181E-04
1.2	1.1	9.48439978435170E-04
1.2	1.15	9.53183228917622E-04
1.2	1.2	9.57814055924392E-04