vg	vd	ids
0.0	0.0	2.89496603523411E-17
0.0	0.05	4.63978449521225E-13
0.0	0.1	5.32071769567907E-13
0.0	0.15	5.85978871714173E-13
0.0	0.2	6.44786081428261E-13
0.0	0.25	7.09165261458660E-13
0.0	0.3	7.79539702120816E-13
0.0	0.35	8.56925957447188E-13
0.0	0.4	9.41748177210201E-13
0.0	0.45	1.03512461447109E-12
0.0	0.5	1.13795437384939E-12
0.0	0.55	1.25142659530866E-12
0.0	0.6	1.37670719262224E-12
0.0	0.65	1.51561959521825E-12
0.0	0.7	1.66962127594132E-12
0.0	0.75	1.84079008753073E-12
0.0	0.8	2.03147313089493E-12
0.0	0.85	2.24443829910290E-12
0.0	0.9	2.48287723820691E-12
0.0	0.95	2.75049179868646E-12
0.0	1.0	3.05185479519991E-12
0.0	1.05	3.39212422138842E-12
0.0	1.1	3.77771381593884E-12
0.0	1.15	4.21614806160372E-12
0.0	1.2	4.71637252248081E-12
0.1	0.0	-5.31447886976071E-18
0.1	0.05	1.30982346986906E-11
0.1	0.1	1.50467674207496E-11
0.1	0.15	1.65345817923583E-11
0.1	0.2	1.81371696528676E-11
0.1	0.25	1.98708462948946E-11
0.1	0.3	2.17484031648718E-11
0.1	0.35	2.37837782407171E-11
0.1	0.4	2.59923299099493E-11
0.1	0.45	2.83909361840502E-11
0.1	0.5	3.09983457012988E-11
0.1	0.55	3.38351626473989E-11
0.1	0.6	3.69242825218570E-11
0.1	0.65	4.02913377213808E-11
0.1	0.7	4.39642199686174E-11
0.1	0.75	4.79769020142249E-11
0.1	0.8	5.23640231360748E-11
0.1	0.85	5.71647457302051E-11
0.1	0.9	6.24269146883431E-11
0.1	0.95	6.82042625727427E-11
0.1	1.0	7.45470116674615E-11
0.1	1.05	8.15310394441401E-11
0.1	1.1	8.92302684211452E-11
0.1	1.15	9.77334049381331E-11
0.1	1.2	1.07139084477280E-10
0.2	0.0	-1.69236612095121E-17
0.2	0.05	3.73763151702993E-10
0.2	0.1	4.30898466300393E-10
0.2	0.15	4.73132209389875E-10
0.2	0.2	5.18118745351638E-10
0.2	0.25	5.66316585563117E-10
0.2	0.3	6.18018982195888E-10
0.2	0.35	6.73536459371687E-10
0.2	0.4	7.33200585758647E-10
0.2	0.45	7.97366749487423E-10
0.2	0.5	8.66418479319780E-10
0.2	0.55	9.40770706533582E-10
0.2	0.6	1.02087144839000E-09
0.2	0.65	1.10721214530448E-09
0.2	0.7	1.20032297282135E-09
0.2	0.75	1.30078773147060E-09
0.2	0.8	1.40924408769455E-09
0.2	0.85	1.52638338209056E-09
0.2	0.9	1.65297533370660E-09
0.2	0.95	1.78986263730536E-09
0.2	1.0	1.93797073690488E-09
0.2	1.05	2.09835829458903E-09
0.2	1.1	2.27211286606797E-09
0.2	1.15	2.46041318962851E-09
0.2	1.2	2.66479615250106E-09
0.3	0.0	-4.06126748105079E-18
0.3	0.05	1.06342914228078E-08
0.3	0.1	1.23303413733014E-08
0.3	0.15	1.35451568965118E-08
0.3	0.2	1.48223098460799E-08
0.3	0.25	1.61762926113391E-08
0.3	0.3	1.76144175153815E-08
0.3	0.35	1.91440085879293E-08
0.3	0.4	2.07725619366172E-08
0.3	0.45	2.25079277606773E-08
0.3	0.5	2.43581319194878E-08
0.3	0.55	2.63316911271641E-08
0.3	0.6	2.84378606157094E-08
0.3	0.65	3.06862113035994E-08
0.3	0.7	3.30869683405907E-08
0.3	0.75	3.56510527586327E-08
0.3	0.8	3.83902183354399E-08
0.3	0.85	4.13169187869303E-08
0.3	0.9	4.44446020459170E-08
0.3	0.95	4.77876453926211E-08
0.3	1.0	5.13614992601117E-08
0.3	1.05	5.51827619617284E-08
0.3	1.1	5.92693013822914E-08
0.3	1.15	6.36405146432659E-08
0.3	1.2	6.83167761406009E-08
0.4	0.0	1.06026344565182E-17
0.4	0.05	2.89296113510096E-07
0.4	0.1	3.38834369891400E-07
0.4	0.15	3.72332106273772E-07
0.4	0.2	4.06720456521174E-07
0.4	0.25	4.42549106345271E-07
0.4	0.3	4.80010628088014E-07
0.4	0.35	5.19269771298730E-07
0.4	0.4	5.60477571792033E-07
0.4	0.45	6.03779583551766E-07
0.4	0.5	6.49310307436712E-07
0.4	0.55	6.97214995544552E-07
0.4	0.6	7.47630466380702E-07
0.4	0.65	8.00697989363325E-07
0.4	0.7	8.56561417899735E-07
0.4	0.75	9.15367109720690E-07
0.4	0.8	9.77264943830683E-07
0.4	0.85	1.04240949136827E-06
0.4	0.9	1.11095882563802E-06
0.4	0.95	1.18307687262878E-06
0.4	1.0	1.25893199321691E-06
0.4	1.05	1.33869744558036E-06
0.4	1.1	1.42255327508016E-06
0.4	1.15	1.51068355313065E-06
0.4	1.2	1.60327919364502E-06
0.5	0.0	-8.91772100953562E-18
0.5	0.05	5.21684082972261E-06
0.5	0.1	6.35625672836470E-06
0.5	0.15	6.91196147567091E-06
0.5	0.2	7.42644776053038E-06
0.5	0.25	7.93566422643945E-06
0.5	0.3	8.44523479683866E-06
0.5	0.35	8.95806420301873E-06
0.5	0.4	9.47611850033748E-06
0.5	0.45	1.00008638486487E-05
0.5	0.5	1.05334061450052E-05
0.5	0.55	1.10746110440324E-05
0.5	0.6	1.16251577806781E-05
0.5	0.65	1.21856736534783E-05
0.5	0.7	1.27564354715044E-05
0.5	0.75	1.33380368307933E-05
0.5	0.8	1.39306700571179E-05
0.5	0.85	1.45346758060395E-05
0.5	0.9	1.51502934761010E-05
0.5	0.95	1.57776957835717E-05
0.5	1.0	1.64171241446518E-05
0.5	1.05	1.70686958686584E-05
0.5	1.1	1.77325678048031E-05
0.5	1.15	1.84088959964151E-05
0.5	1.2	1.90977641439550E-05
0.6	0.0	1.08452286966504E-17
0.6	0.05	2.58451859726176E-05
0.6	0.1	3.67919461792991E-05
0.6	0.15	4.08007719504976E-05
0.6	0.2	4.30696774509178E-05
0.6	0.25	4.50144193966570E-05
0.6	0.3	4.68394504349741E-05
0.6	0.35	4.85896106022882E-05
0.6	0.4	5.02865758353790E-05
0.6	0.45	5.19447246106608E-05
0.6	0.5	5.35745994176311E-05
0.6	0.55	5.51833398929890E-05
0.6	0.6	5.67765690507395E-05
0.6	0.65	5.83580799678480E-05
0.6	0.7	5.99312685160571E-05
0.6	0.75	6.14984045731543E-05
0.6	0.8	6.30615833767288E-05
0.6	0.85	6.46223846035590E-05
0.6	0.9	6.61821634632659E-05
0.6	0.95	6.77418650043681E-05
0.6	1.0	6.93026269010855E-05
0.6	1.05	7.08650578250693E-05
0.6	1.1	7.24297997842925E-05
0.6	1.15	7.39975867172495E-05
0.6	1.2	7.55687274569647E-05
0.7	0.0	-1.48124193304852E-17
0.7	0.05	5.22482401525792E-05
0.7	0.1	8.44983916286405E-05
0.7	0.15	1.01632602282381E-04
0.7	0.2	1.09883307846087E-04
0.7	0.25	1.14605577560419E-04
0.7	0.3	1.18306116498425E-04
0.7	0.35	1.21619495932374E-04
0.7	0.4	1.24700085395911E-04
0.7	0.45	1.27617393870550E-04
0.7	0.5	1.30414835730673E-04
0.7	0.55	1.33122370567250E-04
0.7	0.6	1.35759990658090E-04
0.7	0.65	1.38341665660137E-04
0.7	0.7	1.40878085414524E-04
0.7	0.75	1.43376549870892E-04
0.7	0.8	1.45843517936235E-04
0.7	0.85	1.48283439870915E-04
0.7	0.9	1.50700261230105E-04
0.7	0.95	1.53096962422504E-04
0.7	1.0	1.55476510397080E-04
0.7	1.05	1.57840761248019E-04
0.7	1.1	1.60191510654986E-04
0.7	1.15	1.62530652076457E-04
0.7	1.2	1.64859284541433E-04
0.8	0.0	1.08237776652012E-17
0.8	0.05	7.64316263929300E-05
0.8	0.1	1.31493378113275E-04
0.8	0.15	1.68096216536261E-04
0.8	0.2	1.90274621029894E-04
0.8	0.25	2.02814724670561E-04
0.8	0.3	2.10366543261653E-04
0.8	0.35	2.15954034801994E-04
0.8	0.4	2.20741846676423E-04
0.8	0.45	2.25075254787450E-04
0.8	0.5	2.29098735539398E-04
0.8	0.55	2.32903723672424E-04
0.8	0.6	2.36547355406390E-04
0.8	0.65	2.40068033544717E-04
0.8	0.7	2.43490989693768E-04
0.8	0.75	2.46833971629878E-04
0.8	0.8	2.50110343207865E-04
0.8	0.85	2.53329877623554E-04
0.8	0.9	2.56500405833452E-04
0.8	0.95	2.59628282322119E-04
0.8	1.0	2.62718488565837E-04
0.8	1.05	2.65774602632889E-04
0.8	1.1	2.68800796762769E-04
0.8	1.15	2.71799670664732E-04
0.8	1.2	2.74773762057401E-04
0.9	0.0	-8.40543494638279E-18
0.9	0.05	9.73085800257670E-05
0.9	0.1	1.73112190974743E-04
0.9	0.15	2.29367935045507E-04
0.9	0.2	2.68855501903620E-04
0.9	0.25	2.94871393806617E-04
0.9	0.3	3.11167426225742E-04
0.9	0.35	3.21594797674832E-04
0.9	0.4	3.29158026820482E-04
0.9	0.45	3.35407906843938E-04
0.9	0.5	3.40932711109495E-04
0.9	0.55	3.45977200544353E-04
0.9	0.6	3.50686296852663E-04
0.9	0.65	3.55156903676089E-04
0.9	0.7	3.59449386463749E-04
0.9	0.75	3.63602917528611E-04
0.9	0.8	3.67643172748088E-04
0.9	0.85	3.71589914456609E-04
0.9	0.9	3.75456727981742E-04
0.9	0.95	3.79253923742933E-04
0.9	1.0	3.82990869153627E-04
0.9	1.05	3.86674007910727E-04
0.9	1.1	3.90308402330485E-04
0.9	1.15	3.93899416734453E-04
0.9	1.2	3.97450898251007E-04
1.0	0.0	-2.16982989396132E-17
1.0	0.05	1.15085333192981E-04
1.0	0.1	2.09022391683930E-04
1.0	0.15	2.83234347478390E-04
1.0	0.2	3.39828409252644E-04
1.0	0.25	3.81224175707512E-04
1.0	0.3	4.10131797641464E-04
1.0	0.35	4.29570309174155E-04
1.0	0.4	4.42700229160425E-04
1.0	0.45	4.52261129702315E-04
1.0	0.5	4.59976260539971E-04
1.0	0.55	4.66655148535033E-04
1.0	0.6	4.72666575505207E-04
1.0	0.65	4.78217201027396E-04
1.0	0.7	4.83442514256162E-04
1.0	0.75	4.88431595348506E-04
1.0	0.8	4.93239096575952E-04
1.0	0.85	4.97901417821404E-04
1.0	0.9	5.02443888535482E-04
1.0	0.95	5.06884144871241E-04
1.0	1.0	5.11236693534899E-04
1.0	1.05	5.15512008125082E-04
1.0	1.1	5.19718307777227E-04
1.0	1.15	5.23863613638482E-04
1.0	1.2	5.27952586515671E-04
1.1	0.0	1.29444212205114E-17
1.1	0.05	1.30188225705753E-04
1.1	0.1	2.39779943653261E-04
1.1	0.15	3.29879302511890E-04
1.1	0.2	4.02199622905127E-04
1.1	0.25	4.58656411346449E-04
1.1	0.3	5.01315934340794E-04
1.1	0.35	5.32429903051537E-04
1.1	0.4	5.54468858074825E-04
1.1	0.45	5.70041325823991E-04
1.1	0.5	5.81551370879975E-04
1.1	0.55	5.90733403907322E-04
1.1	0.6	5.98552560786662E-04
1.1	0.65	6.05499065846328E-04
1.1	0.7	6.11852955997131E-04
1.1	0.75	6.17790136598631E-04
1.1	0.8	6.23428145279391E-04
1.1	0.85	6.28839305757008E-04
1.1	0.9	6.34072404946419E-04
1.1	0.95	6.39158658809135E-04
1.1	1.0	6.44122534885282E-04
1.1	1.05	6.48978742391648E-04
1.1	1.1	6.53742120865940E-04
1.1	1.15	6.58423315558862E-04
1.1	1.2	6.63028728877578E-04
1.2	0.0	-1.99670986568488E-18
1.2	0.05	1.43052871745294E-04
1.2	0.1	2.66113998742961E-04
1.2	0.15	3.70094050606451E-04
1.2	0.2	4.56466522972900E-04
1.2	0.25	5.26842509277753E-04
1.2	0.3	5.82899772804403E-04
1.2	0.35	6.26397963952917E-04
1.2	0.4	6.59221924668525E-04
1.2	0.45	6.83420044135965E-04
1.2	0.5	7.01161978949448E-04
1.2	0.55	7.14527267647144E-04
1.2	0.6	7.25164011734197E-04
1.2	0.65	7.34120796612415E-04
1.2	0.7	7.41991744366088E-04
1.2	0.75	7.49126922543364E-04
1.2	0.8	7.55749847242361E-04
1.2	0.85	7.62007580037353E-04
1.2	0.9	7.67990067039676E-04
1.2	0.95	7.73759990804844E-04
1.2	1.0	7.79356041847534E-04
1.2	1.05	7.84805366073584E-04
1.2	1.1	7.90130865263456E-04
1.2	1.15	7.95345890199490E-04
1.2	1.2	8.00463806431596E-04