vg	vd	ids
0.0	0.0	1.05639402529883E-18
0.0	0.05	6.08249146775967E-11
0.0	0.1	9.05015719125681E-11
0.0	0.15	1.33312747667638E-10
0.0	0.2	1.97465539751335E-10
0.0	0.25	2.93877137108472E-10
0.0	0.3	4.38758647700617E-10
0.0	0.35	6.56349352199099E-10
0.0	0.4	9.82363084595936E-10
0.0	0.45	1.46931086722753E-09
0.0	0.5	2.19402318398181E-09
0.0	0.55	3.26791362179605E-09
0.0	0.6	4.85166900354761E-09
0.0	0.65	7.17513467413356E-09
0.0	0.7	1.05648563059156E-08
0.0	0.75	1.54805021129338E-08
0.0	0.8	2.25654406566399E-08
0.0	0.85	3.27093586467476E-08
0.0	0.9	4.71349860336868E-08
0.0	0.95	6.75038291269850E-08
0.0	1.0	9.60515459169540E-08
0.0	1.05	1.35755412722577E-07
0.0	1.1	1.90528125522579E-07
0.0	1.15	2.65458809259749E-07
0.0	1.2	3.67061074158555E-07
0.1	0.0	1.30381469529709E-17
0.1	0.05	6.65913380765780E-10
0.1	0.1	9.11428751586472E-10
0.1	0.15	1.22819853321103E-09
0.1	0.2	1.66466737148642E-09
0.1	0.25	2.26994887183614E-09
0.1	0.3	3.11328924707851E-09
0.1	0.35	4.29134805898894E-09
0.1	0.4	5.93495693054766E-09
0.1	0.45	8.23904453359817E-09
0.1	0.5	1.14713818747797E-08
0.1	0.55	1.60084838659904E-08
0.1	0.6	2.23631819272000E-08
0.1	0.65	3.12537555519774E-08
0.1	0.7	4.36380351419834E-08
0.1	0.75	6.08287057178565E-08
0.1	0.8	8.45814025826437E-08
0.1	0.85	1.17234990272572E-07
0.1	0.9	1.61869975260859E-07
0.1	0.95	2.22501872536462E-07
0.1	1.0	3.04302737402803E-07
0.1	1.05	4.13847875499989E-07
0.1	1.1	5.59393708755891E-07
0.1	1.15	7.51112219889731E-07
0.1	1.2	1.00133568949375E-06
0.2	0.0	-3.48520882904017E-17
0.2	0.05	1.00587508680581E-08
0.2	0.1	1.30538628262505E-08
0.2	0.15	1.64533730168071E-08
0.2	0.2	2.07349778377514E-08
0.2	0.25	2.61623115196976E-08
0.2	0.3	3.30833707652392E-08
0.2	0.35	4.19589205458448E-08
0.2	0.4	5.33947896083000E-08
0.2	0.45	6.81920172975304E-08
0.2	0.5	8.74089091712826E-08
0.2	0.55	1.12428143542635E-07
0.2	0.6	1.45041804195783E-07
0.2	0.65	1.87564227715519E-07
0.2	0.7	2.42837584228290E-07
0.2	0.75	3.14622087088460E-07
0.2	0.8	4.07845559599145E-07
0.2	0.85	5.28561937288447E-07
0.2	0.9	6.84319337367260E-07
0.2	0.95	8.84400447813249E-07
0.2	1.0	1.13988286798569E-06
0.2	1.05	1.46392345500494E-06
0.2	1.1	1.87184064558795E-06
0.2	1.15	2.38109087097454E-06
0.2	1.2	3.01111308090927E-06
0.3	0.0	1.19561242430042E-17
0.3	0.05	1.77569823463486E-07
0.3	0.1	2.25118912392463E-07
0.3	0.15	2.72989697109116E-07
0.3	0.2	3.28823121054046E-07
0.3	0.25	3.94212046809743E-07
0.3	0.3	4.71028688559864E-07
0.3	0.35	5.61527557349947E-07
0.3	0.4	6.68434687715963E-07
0.3	0.45	7.95049897504231E-07
0.3	0.5	9.45365680677444E-07
0.3	0.55	1.12416088858081E-06
0.3	0.6	1.33719763332771E-06
0.3	0.65	1.59133720023833E-06
0.3	0.7	1.89469671518556E-06
0.3	0.75	2.25672778992326E-06
0.3	0.8	2.68843598765595E-06
0.3	0.85	3.20237085308725E-06
0.3	0.9	3.81267017040579E-06
0.3	0.95	4.53490836367840E-06
0.3	1.0	5.38595015255415E-06
0.3	1.05	6.38361088737497E-06
0.3	1.1	7.54639505599928E-06
0.3	1.15	8.89310151529854E-06
0.3	1.2	1.04404587193934E-05
0.4	0.0	-3.80093447745548E-18
0.4	0.05	2.86596331217199E-06
0.4	0.1	3.61551676268778E-06
0.4	0.15	4.23524269677426E-06
0.4	0.2	4.89342845142737E-06
0.4	0.25	5.59989562006313E-06
0.4	0.3	6.36033410647354E-06
0.4	0.35	7.18000053273963E-06
0.4	0.4	8.06424148380646E-06
0.4	0.45	9.01882815749767E-06
0.4	0.5	1.00500857772876E-05
0.4	0.55	1.11648191270946E-05
0.4	0.6	1.23707137098630E-05
0.4	0.65	1.36759827186340E-05
0.4	0.7	1.50896905300092E-05
0.4	0.75	1.66216061612167E-05
0.4	0.8	1.82820340499779E-05
0.4	0.85	2.00821085823511E-05
0.4	0.9	2.20330014666189E-05
0.4	0.95	2.41465129666860E-05
0.4	1.0	2.64343126969873E-05
0.4	1.05	2.89077074072887E-05
0.4	1.1	3.15781027656063E-05
0.4	1.15	3.44555613399605E-05
0.4	1.2	3.75499359783801E-05
0.5	0.0	-1.52234584382763E-17
0.5	0.05	2.09852811245734E-05
0.5	0.1	2.80605313050804E-05
0.5	0.15	3.16202404654384E-05
0.5	0.2	3.47237273546734E-05
0.5	0.25	3.77247562021034E-05
0.5	0.3	4.06844643615236E-05
0.5	0.35	4.36302754306161E-05
0.5	0.4	4.65800459216490E-05
0.5	0.45	4.95487882062041E-05
0.5	0.5	5.25484975751120E-05
0.5	0.55	5.55903268588584E-05
0.5	0.6	5.86846163870730E-05
0.5	0.65	6.18418509943915E-05
0.5	0.7	6.50717170258867E-05
0.5	0.75	6.83846967024836E-05
0.5	0.8	7.17910192541691E-05
0.5	0.85	7.53011530294270E-05
0.5	0.9	7.89253227144203E-05
0.5	0.95	8.26741362843904E-05
0.5	1.0	8.65573146372296E-05
0.5	1.05	9.05846185162247E-05
0.5	1.1	9.47662022100695E-05
0.5	1.15	9.91096779067453E-05
0.5	1.2	1.03623857855416E-04
0.6	0.0	1.76750389286024E-17
0.6	0.05	5.44001629449488E-05
0.6	0.1	8.30012385461440E-05
0.6	0.15	9.63335735859765E-05
0.6	0.2	1.03835443250965E-04
0.6	0.25	1.10342169749509E-04
0.6	0.3	1.16097923602201E-04
0.6	0.35	1.21526021404982E-04
0.6	0.4	1.26729529392667E-04
0.6	0.45	1.31773371777759E-04
0.6	0.5	1.36704621720297E-04
0.6	0.55	1.41559098975265E-04
0.6	0.6	1.46365121868345E-04
0.6	0.65	1.51145794237350E-04
0.6	0.7	1.55922318941345E-04
0.6	0.75	1.60712666099073E-04
0.6	0.8	1.65533315090081E-04
0.6	0.85	1.70400343997464E-04
0.6	0.9	1.75328134797805E-04
0.6	0.95	1.80330779766111E-04
0.6	1.0	1.85419924377401E-04
0.6	1.05	1.90608996752014E-04
0.6	1.1	1.95908693899143E-04
0.6	1.15	2.01328734938537E-04
0.6	1.2	2.06878792473474E-04
0.7	0.0	1.24281847169145E-18
0.7	0.05	8.75397640960833E-05
0.7	0.1	1.45336730856866E-04
0.7	0.15	1.79663858784417E-04
0.7	0.2	1.98792255704569E-04
0.7	0.25	2.10703006714395E-04
0.7	0.3	2.20000903020544E-04
0.7	0.35	2.28184815477957E-04
0.7	0.4	2.35698064018231E-04
0.7	0.45	2.42747091916755E-04
0.7	0.5	2.49460392191522E-04
0.7	0.55	2.55928709131197E-04
0.7	0.6	2.62217936631650E-04
0.7	0.65	2.68377320401507E-04
0.7	0.7	2.74445978071188E-04
0.7	0.75	2.80455818125129E-04
0.7	0.8	2.86431814404621E-04
0.7	0.85	2.92399688489636E-04
0.7	0.9	2.98379734733818E-04
0.7	0.95	3.04389077172329E-04
0.7	1.0	3.10446202183318E-04
0.7	1.05	3.16566406898253E-04
0.7	1.1	3.22761351605868E-04
0.7	1.15	3.29045471590319E-04
0.7	1.2	3.35430562503579E-04
0.8	0.0	-3.90767245771401E-17
0.8	0.05	1.16315590762138E-04
0.8	0.1	2.02104951109493E-04
0.8	0.15	2.61378284626811E-04
0.8	0.2	2.99687815233191E-04
0.8	0.25	3.23509072944029E-04
0.8	0.3	3.39251801113541E-04
0.8	0.35	3.51337470180385E-04
0.8	0.4	3.61698638098026E-04
0.8	0.45	3.71017378669556E-04
0.8	0.5	3.79618937601551E-04
0.8	0.55	3.87712376732836E-04
0.8	0.6	3.95438043181935E-04
0.8	0.65	4.02895454270880E-04
0.8	0.7	4.10155895896597E-04
0.8	0.75	4.17273077882348E-04
0.8	0.8	4.24289369878351E-04
0.8	0.85	4.31239448860266E-04
0.8	0.9	4.38153842974014E-04
0.8	0.95	4.45055319209564E-04
0.8	1.0	4.51967161206462E-04
0.8	1.05	4.58909702299041E-04
0.8	1.1	4.65898275218656E-04
0.8	1.15	4.72945826406762E-04
0.8	1.2	4.80069445698395E-04
0.9	0.0	5.76203921394612E-18
0.9	0.05	1.40683809162184E-04
0.9	0.1	2.51184635103557E-04
0.9	0.15	3.34320202813403E-04
0.9	0.2	3.94097138681749E-04
0.9	0.25	4.35158630686267E-04
0.9	0.3	4.62663839408813E-04
0.9	0.35	4.81767269743695E-04
0.9	0.4	4.96431860301204E-04
0.9	0.45	5.08782908981661E-04
0.9	0.5	5.19732932905942E-04
0.9	0.55	5.29719265906409E-04
0.9	0.6	5.39021825025991E-04
0.9	0.65	5.47837514371787E-04
0.9	0.7	5.56304618891214E-04
0.9	0.75	5.64516722102667E-04
0.9	0.8	5.72544181495293E-04
0.9	0.85	5.80435490672255E-04
0.9	0.9	5.88239112903467E-04
0.9	0.95	5.95983614222369E-04
0.9	1.0	6.03700645767072E-04
0.9	1.05	6.11414122411869E-04
0.9	1.1	6.19144761044196E-04
0.9	1.15	6.26909055246031E-04
0.9	1.2	6.34726290120979E-04
1.0	0.0	1.29895956629304E-16
1.0	0.05	1.61226551802782E-04
1.0	0.1	2.93050771704473E-04
1.0	0.15	3.97597677440609E-04
1.0	0.2	4.77991737220586E-04
1.0	0.25	5.37756223344961E-04
1.0	0.3	5.80751566040701E-04
1.0	0.35	6.11155196536319E-04
1.0	0.4	6.33149706023657E-04
1.0	0.45	6.50185232740983E-04
1.0	0.5	6.64396158202884E-04
1.0	0.55	6.76860101663529E-04
1.0	0.6	6.88129745413286E-04
1.0	0.65	6.98550825547781E-04
1.0	0.7	7.08368396577794E-04
1.0	0.75	7.17756179049669E-04
1.0	0.8	7.26835743440435E-04
1.0	0.85	7.35691161706780E-04
1.0	0.9	7.44387083395418E-04
1.0	0.95	7.52969827402955E-04
1.0	1.0	7.61479955661430E-04
1.0	1.05	7.69948005411408E-04
1.0	1.1	7.78400924530783E-04
1.0	1.15	7.86860931864159E-04
1.0	1.2	7.95344379186308E-04
1.1	0.0	-1.49272240223131E-17
1.1	0.05	1.78574036692381E-04
1.1	0.1	3.28669936843347E-04
1.1	0.15	4.51993050869902E-04
1.1	0.2	5.51133208859008E-04
1.1	0.25	6.28937836776063E-04
1.1	0.3	6.88423190424298E-04
1.1	0.35	7.32811922638713E-04
1.1	0.4	7.65524540214768E-04
1.1	0.45	7.90000622714951E-04
1.1	0.5	8.09203297510605E-04
1.1	0.55	8.25171422578090E-04
1.1	0.6	8.39077006599818E-04
1.1	0.65	8.51564593491503E-04
1.1	0.7	8.63053922911296E-04
1.1	0.75	8.73830589464098E-04
1.1	0.8	8.84096700771265E-04
1.1	0.85	8.94002165268802E-04
1.1	0.9	9.03646201557280E-04
1.1	0.95	9.13103722862971E-04
1.1	1.0	9.22427227770304E-04
1.1	1.05	9.31663450653253E-04
1.1	1.1	9.40845560785596E-04
1.1	1.15	9.49997325318187E-04
1.1	1.2	9.59150183926965E-04
1.2	0.0	1.80343568773698E-16
1.2	0.05	1.93291138150201E-04
1.2	0.1	3.59033031007522E-04
1.2	0.15	4.98673130448911E-04
1.2	0.2	6.14468391344414E-04
1.2	0.25	7.08844826471902E-04
1.2	0.3	7.84287156325600E-04
1.2	0.35	8.43369632302467E-04
1.2	0.4	8.88785531819226E-04
1.2	0.45	9.23375802130615E-04
1.2	0.5	9.49992057771520E-04
1.2	0.55	9.71172194030491E-04
1.2	0.6	9.88809252696366E-04
1.2	0.65	1.00410712016332E-03
1.2	0.7	1.01778308842312E-03
1.2	0.75	1.03030992273651E-03
1.2	0.8	1.04202083958929E-03
1.2	0.85	1.05315071080645E-03
1.2	0.9	1.06386369969707E-03
1.2	0.95	1.07427806015432E-03
1.2	1.0	1.08447760042426E-03
1.2	1.05	1.09452447341054E-03
1.2	1.1	1.10446310454282E-03
1.2	1.15	1.11433586662592E-03
1.2	1.2	1.12416870193568E-03