vg	vd	ids
0.0	0.0	4.69290732984815E-17
0.0	0.05	1.88584309787244E-12
0.0	0.1	2.17356499155364E-12
0.0	0.15	2.39373642500762E-12
0.0	0.2	2.63532930754209E-12
0.0	0.25	2.90181350901953E-12
0.0	0.3	3.19707537691788E-12
0.0	0.35	3.52526610308461E-12
0.0	0.4	3.89136499292959E-12
0.0	0.45	4.30166568732634E-12
0.0	0.5	4.76346608124268E-12
0.0	0.55	5.28567859114466E-12
0.0	0.6	5.87922292979028E-12
0.0	0.65	6.55740375732273E-12
0.0	0.7	7.33627432270130E-12
0.0	0.75	8.23620985963990E-12
0.0	0.8	9.28190997854262E-12
0.0	0.85	1.05042084690796E-11
0.0	0.9	1.19412153286979E-11
0.0	0.95	1.36410595529393E-11
0.0	1.0	1.56637822143561E-11
0.0	1.05	1.80846661850977E-11
0.0	1.1	2.09975817228053E-11
0.0	1.15	2.45276034493201E-11
0.0	1.2	2.88181415843245E-11
0.1	0.0	3.97299942416973E-17
0.1	0.05	5.66783273324493E-11
0.1	0.1	6.51970278983386E-11
0.1	0.15	7.12750938748057E-11
0.1	0.2	7.77926608220244E-11
0.1	0.25	8.48275318032710E-11
0.1	0.3	9.24378938155074E-11
0.1	0.35	1.00688899931594E-10
0.1	0.4	1.09654781038514E-10
0.1	0.45	1.19420076906067E-10
0.1	0.5	1.30082242018903E-10
0.1	0.55	1.41753222841333E-10
0.1	0.6	1.54562569655931E-10
0.1	0.65	1.68664098326418E-10
0.1	0.7	1.84233132262588E-10
0.1	0.75	2.01478828904066E-10
0.1	0.8	2.20643697689581E-10
0.1	0.85	2.42026533814221E-10
0.1	0.9	2.65960620552541E-10
0.1	0.95	2.92867952986181E-10
0.1	1.0	3.23218872508478E-10
0.1	1.05	3.57652130802832E-10
0.1	1.1	3.96830522608486E-10
0.1	1.15	4.41605859536411E-10
0.1	1.2	4.93055248877319E-10
0.2	0.0	1.45029276238403E-17
0.2	0.05	1.74373505504837E-09
0.2	0.1	2.00868185580219E-09
0.2	0.15	2.18750358003666E-09
0.2	0.2	2.37571525471153E-09
0.2	0.25	2.57555832797980E-09
0.2	0.3	2.78815644759403E-09
0.2	0.35	3.01471070769983E-09
0.2	0.4	3.25651165016054E-09
0.2	0.45	3.51497604829951E-09
0.2	0.5	3.79164967224960E-09
0.2	0.55	4.08825761266725E-09
0.2	0.6	4.40663071507657E-09
0.2	0.65	4.74912508343919E-09
0.2	0.7	5.11784933840123E-09
0.2	0.75	5.51580920784460E-09
0.2	0.8	5.94566585036098E-09
0.2	0.85	6.41132150388408E-09
0.2	0.9	6.91607822265099E-09
0.2	0.95	7.46482619538997E-09
0.2	1.0	8.06266870438109E-09
0.2	1.05	8.71484040410172E-09
0.2	1.1	9.42871393907043E-09
0.2	1.15	1.02117629498642E-08
0.2	1.2	1.10728509031914E-08
0.3	0.0	1.73072344324284E-17
0.3	0.05	5.37298579201938E-08
0.3	0.1	6.21822506650891E-08
0.3	0.15	6.75977865623397E-08
0.3	0.2	7.31835516876858E-08
0.3	0.25	7.90205571730868E-08
0.3	0.3	8.51356984520974E-08
0.3	0.35	9.15545919490080E-08
0.3	0.4	9.83026221838059E-08
0.3	0.45	1.05405847284454E-07
0.3	0.5	1.12891236682121E-07
0.3	0.55	1.20787326575450E-07
0.3	0.6	1.29124426781713E-07
0.3	0.65	1.37936676540344E-07
0.3	0.7	1.47253865300504E-07
0.3	0.75	1.57120417097147E-07
0.3	0.8	1.67573643266577E-07
0.3	0.85	1.78655546418955E-07
0.3	0.9	1.90421141731477E-07
0.3	0.95	2.02919546532647E-07
0.3	1.0	2.16208323300458E-07
0.3	1.05	2.30353848085841E-07
0.3	1.1	2.45424759544071E-07
0.3	1.15	2.61498674521811E-07
0.3	1.2	2.78660400041851E-07
0.4	0.0	-1.22410781771746E-17
0.4	0.05	1.49070881616870E-06
0.4	0.1	1.74913242669293E-06
0.4	0.15	1.89442803259219E-06
0.4	0.2	2.03779121398709E-06
0.4	0.25	2.18343490110325E-06
0.4	0.3	2.33219569449782E-06
0.4	0.35	2.48463465750594E-06
0.4	0.4	2.64119739406850E-06
0.4	0.45	2.80225072778420E-06
0.4	0.5	2.96813128899729E-06
0.4	0.55	3.13913689205971E-06
0.4	0.6	3.31557359127020E-06
0.4	0.65	3.49768957657554E-06
0.4	0.7	3.68581364511507E-06
0.4	0.75	3.88017193167262E-06
0.4	0.8	4.08106840009872E-06
0.4	0.85	4.28880531686696E-06
0.4	0.9	4.50366104684397E-06
0.4	0.95	4.72595773619383E-06
0.4	1.0	4.95600411119154E-06
0.4	1.05	5.19412904307655E-06
0.4	1.1	5.44067671609691E-06
0.4	1.15	5.69600026260111E-06
0.4	1.2	5.96047324059156E-06
0.5	0.0	9.86761331399793E-18
0.5	0.05	1.74084409934108E-05
0.5	0.1	2.25160383411665E-05
0.5	0.15	2.42501839542724E-05
0.5	0.2	2.55585121901664E-05
0.5	0.25	2.67914431213002E-05
0.5	0.3	2.79847440484142E-05
0.5	0.35	2.91519221567026E-05
0.5	0.4	3.03007829038274E-05
0.5	0.45	3.14370512086391E-05
0.5	0.5	3.25644086433868E-05
0.5	0.55	3.36861519091434E-05
0.5	0.6	3.48042336677525E-05
0.5	0.65	3.59208941733752E-05
0.5	0.7	3.70375106573691E-05
0.5	0.75	3.81554497914495E-05
0.5	0.8	3.92758330760301E-05
0.5	0.85	4.03997633203159E-05
0.5	0.9	4.15280519806060E-05
0.5	0.95	4.26616039537097E-05
0.5	1.0	4.38012169009102E-05
0.5	1.05	4.49474819495694E-05
0.5	1.1	4.61011970419136E-05
0.5	1.15	4.72629707403364E-05
0.5	1.2	4.84333833222235E-05
0.6	0.0	7.02294532578147E-19
0.6	0.05	5.17837023362272E-05
0.6	0.1	8.01991718146743E-05
0.6	0.15	9.26642884292326E-05
0.6	0.2	9.80364493837674E-05
0.6	0.25	1.01632397449160E-04
0.6	0.3	1.04784871250603E-04
0.6	0.35	1.07709035911920E-04
0.6	0.4	1.10475777769885E-04
0.6	0.45	1.13126509266055E-04
0.6	0.5	1.15687353359874E-04
0.6	0.55	1.18176536238904E-04
0.6	0.6	1.20607101320362E-04
0.6	0.65	1.22988582764794E-04
0.6	0.7	1.25329081461560E-04
0.6	0.75	1.27634475711277E-04
0.6	0.8	1.29909800583449E-04
0.6	0.85	1.32159443886239E-04
0.6	0.9	1.34386846363174E-04
0.6	0.95	1.36595117139773E-04
0.6	1.0	1.38787325297326E-04
0.6	1.05	1.40965481018767E-04
0.6	1.1	1.43132150053838E-04
0.6	1.15	1.45288738594908E-04
0.6	1.2	1.47437623920870E-04
0.7	0.0	-2.05378416736734E-17
0.7	0.05	8.52407344218053E-05
0.7	0.1	1.45259348764324E-04
0.7	0.15	1.83085026804122E-04
0.7	0.2	2.03915732180971E-04
0.7	0.25	2.14585221008858E-04
0.7	0.3	2.21180286551975E-04
0.7	0.35	2.26480101987065E-04
0.7	0.4	2.31194255562768E-04
0.7	0.45	2.35535281225658E-04
0.7	0.5	2.39611223431602E-04
0.7	0.55	2.43489536818781E-04
0.7	0.6	2.47213024778347E-04
0.7	0.65	2.50811342563746E-04
0.7	0.7	2.54305730403238E-04
0.7	0.75	2.57712453168679E-04
0.7	0.8	2.61043477413469E-04
0.7	0.85	2.64309608177827E-04
0.7	0.9	2.67518644475601E-04
0.7	0.95	2.70677739792909E-04
0.7	1.0	2.73792107449365E-04
0.7	1.05	2.76868179404130E-04
0.7	1.1	2.79909936841345E-04
0.7	1.15	2.82920056797568E-04
0.7	1.2	2.85903359697847E-04
0.8	0.0	1.78018923583813E-17
0.8	0.05	1.12857895581444E-04
0.8	0.1	2.01442845313203E-04
0.8	0.15	2.67025296022843E-04
0.8	0.2	3.12138364565873E-04
0.8	0.25	3.40553119085608E-04
0.8	0.3	3.57225168046937E-04
0.8	0.35	3.67556597154426E-04
0.8	0.4	3.75258784993552E-04
0.8	0.45	3.81787635468101E-04
0.8	0.5	3.87630518451271E-04
0.8	0.55	3.93015374875190E-04
0.8	0.6	3.98071815077337E-04
0.8	0.65	4.02881017055782E-04
0.8	0.7	4.07494422199615E-04
0.8	0.75	4.11947368262607E-04
0.8	0.8	4.16267654067954E-04
0.8	0.85	4.20474027387281E-04
0.8	0.9	4.24580675915804E-04
0.8	0.95	4.28603237221822E-04
0.8	1.0	4.32549227340539E-04
0.8	1.05	4.36428940171258E-04
0.8	1.1	4.40248820232639E-04
0.8	1.15	4.44017959109648E-04
0.8	1.2	4.47737373653512E-04
0.9	0.0	1.25603525149417E-17
0.9	0.05	1.34939427722290E-04
0.9	0.1	2.47173138312665E-04
0.9	0.15	3.37268843335848E-04
0.9	0.2	4.06644311564822E-04
0.9	0.25	4.57339614010377E-04
0.9	0.3	4.92122865893564E-04
0.9	0.35	5.14667146020913E-04
0.9	0.4	5.29285483021309E-04
0.9	0.45	5.39759925497817E-04
0.9	0.5	5.48234781777391E-04
0.9	0.55	5.55589651175241E-04
0.9	0.6	5.62224993498525E-04
0.9	0.65	5.68370947097397E-04
0.9	0.7	5.74163225018560E-04
0.9	0.75	5.79683587528665E-04
0.9	0.8	5.84987712517306E-04
0.9	0.85	5.90113348632491E-04
0.9	0.9	5.95087689930436E-04
0.9	0.95	5.99933401748155E-04
0.9	1.0	6.04667894912740E-04
0.9	1.05	6.09300898365677E-04
0.9	1.1	6.13849551764131E-04
0.9	1.15	6.18322514202245E-04
0.9	1.2	6.22724008036462E-04
1.0	0.0	2.94431806945420E-17
1.0	0.05	1.52554639856413E-04
1.0	0.1	2.83944049809490E-04
1.0	0.15	3.94467188059621E-04
1.0	0.2	4.85073726383724E-04
1.0	0.25	5.57038778763406E-04
1.0	0.3	6.11988548423413E-04
1.0	0.35	6.52035893757010E-04
1.0	0.4	6.79926263361781E-04
1.0	0.45	6.99003549859774E-04
1.0	0.5	7.12635919382892E-04
1.0	0.55	7.23279250512814E-04
1.0	0.6	7.32242526409909E-04
1.0	0.65	7.40153798063250E-04
1.0	0.7	7.47363330200819E-04
1.0	0.75	7.54084966973697E-04
1.0	0.8	7.60449621706543E-04
1.0	0.85	7.66535352422946E-04
1.0	0.9	7.72394092177472E-04
1.0	0.95	7.78068148595454E-04
1.0	1.0	7.83580848664323E-04
1.0	1.05	7.88955318301954E-04
1.0	1.1	7.94212394340799E-04
1.0	1.15	7.99362478254741E-04
1.0	1.2	8.04418309646564E-04
1.1	0.0	-2.50713524407780E-18
1.1	0.05	1.66725708748097E-04
1.1	0.1	3.13613100900511E-04
1.1	0.15	4.40878779918927E-04
1.1	0.2	5.49291471094150E-04
1.1	0.25	6.39801874707473E-04
1.1	0.3	7.13509784777820E-04
1.1	0.35	7.71729142795923E-04
1.1	0.4	8.16094538258465E-04
1.1	0.45	8.48694084297826E-04
1.1	0.5	8.72103528082835E-04
1.1	0.55	8.89137252893621E-04
1.1	0.6	9.02219688958514E-04
1.1	0.65	9.12953030046893E-04
1.1	0.7	9.22221164875798E-04
1.1	0.75	9.30527542297190E-04
1.1	0.8	9.38178434289404E-04
1.1	0.85	9.45361911706889E-04
1.1	0.9	9.52192956834083E-04
1.1	0.95	9.58748085622826E-04
1.1	1.0	9.65071377884815E-04
1.1	1.05	9.71206627018411E-04
1.1	1.1	9.77175577372784E-04
1.1	1.15	9.83004167986728E-04
1.1	1.2	9.88709012219939E-04
1.2	0.0	6.34116922598883E-18
1.2	0.05	1.78274387108967E-04
1.2	0.1	3.37795494552038E-04
1.2	0.15	4.78775279635393E-04
1.2	0.2	6.01929897998266E-04
1.2	0.25	7.08086356876039E-04
1.2	0.3	7.98118252080837E-04
1.2	0.35	8.72968381584492E-04
1.2	0.4	9.33702256461760E-04
1.2	0.45	9.81607833672201E-04
1.2	0.5	1.01828906191859E-03
1.2	0.55	1.04573834403993E-03
1.2	0.6	1.06624031635115E-03
1.2	0.65	1.08198690509097E-03
1.2	0.7	1.09468832014938E-03
1.2	0.75	1.10544508606561E-03
1.2	0.8	1.11491997079094E-03
1.2	0.85	1.12353565015571E-03
1.2	0.9	1.13154892441295E-03
1.2	0.95	1.13911962078971E-03
1.2	1.0	1.14635285330318E-03
1.2	1.05	1.15330506409469E-03
1.2	1.1	1.16003318792090E-03
1.2	1.15	1.16656956636458E-03
1.2	1.2	1.17293545067874E-03