vg	vd	ids
0.0	0.0	1.33375941576030E-16
0.0	0.05	8.58659832641045E-14
0.0	0.1	9.66759467335750E-14
0.0	0.15	1.00439224563136E-13
0.0	0.2	1.03525113806931E-13
0.0	0.25	1.06852346207691E-13
0.0	0.3	1.10095063603601E-13
0.0	0.35	1.13460659679408E-13
0.0	0.4	1.16671102245305E-13
0.0	0.45	1.20622534546257E-13
0.0	0.5	1.24106176076249E-13
0.0	0.55	1.27567474868890E-13
0.0	0.6	1.31468906712682E-13
0.0	0.65	1.35194879212710E-13
0.0	0.7	1.39001508697555E-13
0.0	0.75	1.43129091169723E-13
0.0	0.8	1.47609816350176E-13
0.0	0.85	1.51700061329331E-13
0.0	0.9	1.55741473042832E-13
0.0	0.95	1.60769772512988E-13
0.0	1.0	1.65047910149638E-13
0.0	1.05	1.70240663652532E-13
0.0	1.1	1.74691793487024E-13
0.0	1.15	1.80209573259577E-13
0.0	1.2	1.84810537420902E-13
0.1	0.0	-8.01665076223233E-17
0.1	0.05	2.81589251890593E-12
0.1	0.1	3.18845869887888E-12
0.1	0.15	3.31302572886685E-12
0.1	0.2	3.42543067316645E-12
0.1	0.25	3.53904147083025E-12
0.1	0.3	3.65425121702461E-12
0.1	0.35	3.77122618872828E-12
0.1	0.4	3.89087314291013E-12
0.1	0.45	4.01257192353125E-12
0.1	0.5	4.13641971763576E-12
0.1	0.55	4.26398491021301E-12
0.1	0.6	4.39190724766656E-12
0.1	0.65	4.52185111901499E-12
0.1	0.7	4.66141113391982E-12
0.1	0.75	4.80030789939976E-12
0.1	0.8	4.94493632255718E-12
0.1	0.85	5.08973985721656E-12
0.1	0.9	5.24196382906164E-12
0.1	0.95	5.39455507554814E-12
0.1	1.0	5.55506160569546E-12
0.1	1.05	5.71483874088074E-12
0.1	1.1	5.88561770414608E-12
0.1	1.15	6.05126673686230E-12
0.1	1.2	6.23281283052993E-12
0.2	0.0	-1.16946541965812E-16
0.2	0.05	9.38472385534293E-11
0.2	0.1	1.06710113026043E-10
0.2	0.15	1.11150034776404E-10
0.2	0.2	1.15132052791254E-10
0.2	0.25	1.19144788139023E-10
0.2	0.3	1.23207374152927E-10
0.2	0.35	1.27327002544794E-10
0.2	0.4	1.31512316074962E-10
0.2	0.45	1.35769914966325E-10
0.2	0.5	1.40105509957309E-10
0.2	0.55	1.44527652505608E-10
0.2	0.6	1.49034068231672E-10
0.2	0.65	1.53652566125806E-10
0.2	0.7	1.58360987133052E-10
0.2	0.75	1.63129510502649E-10
0.2	0.8	1.68117854694257E-10
0.2	0.85	1.73040603092849E-10
0.2	0.9	1.78348780126661E-10
0.2	0.95	1.83652351495851E-10
0.2	1.0	1.89051715437931E-10
0.2	1.05	1.94677519598538E-10
0.2	1.1	2.00404557810296E-10
0.2	1.15	2.06234948059275E-10
0.2	1.2	2.12321467902025E-10
0.3	0.0	7.32999805512901E-17
0.3	0.05	3.14900704937579E-09
0.3	0.1	3.59774476641270E-09
0.3	0.15	3.75719741938993E-09
0.3	0.2	3.89918295371661E-09
0.3	0.25	4.04146045687059E-09
0.3	0.3	4.18485641687542E-09
0.3	0.35	4.32974524177094E-09
0.3	0.4	4.47643463020768E-09
0.3	0.45	4.62511827776660E-09
0.3	0.5	4.77627339488377E-09
0.3	0.55	4.93001362900524E-09
0.3	0.6	5.08653718260798E-09
0.3	0.65	5.24307798981184E-09
0.3	0.7	5.40864743668719E-09
0.3	0.75	5.57018619708261E-09
0.3	0.8	5.74176801441511E-09
0.3	0.85	5.91767622370001E-09
0.3	0.9	6.09252826779935E-09
0.3	0.95	6.27532983217050E-09
0.3	1.0	6.46191402784189E-09
0.3	1.05	6.65193541632067E-09
0.3	1.1	6.84656381817383E-09
0.3	1.15	7.04579550739286E-09
0.3	1.2	7.25005505879415E-09
0.4	0.0	-1.10478464051054E-16
0.4	0.05	1.03566574744036E-07
0.4	0.1	1.19241095585934E-07
0.4	0.15	1.24887361692525E-07
0.4	0.2	1.29819679405347E-07
0.4	0.25	1.34711682354581E-07
0.4	0.3	1.39604831820496E-07
0.4	0.35	1.44517515687788E-07
0.4	0.4	1.49461771000242E-07
0.4	0.45	1.54454947248973E-07
0.4	0.5	1.59505030997047E-07
0.4	0.55	1.64372195651312E-07
0.4	0.6	1.69617843027643E-07
0.4	0.65	1.74928929589121E-07
0.4	0.7	1.80367334748563E-07
0.4	0.75	1.85801388870709E-07
0.4	0.8	1.91399245931390E-07
0.4	0.85	1.97026163959559E-07
0.4	0.9	2.02784000683609E-07
0.4	0.95	2.08656837481181E-07
0.4	1.0	2.14637597441759E-07
0.4	1.05	2.20741834980620E-07
0.4	1.1	2.26975820300204E-07
0.4	1.15	2.33343351288255E-07
0.4	1.2	2.39847204514539E-07
0.5	0.0	-1.42239806237885E-16
0.5	0.05	2.40807606875963E-06
0.5	0.1	2.90266020545252E-06
0.5	0.15	3.05178572536922E-06
0.5	0.2	3.16274513031875E-06
0.5	0.25	3.26852324868254E-06
0.5	0.3	3.37196436968859E-06
0.5	0.35	3.47389535940324E-06
0.5	0.4	3.57177006489120E-06
0.5	0.45	3.67165657064995E-06
0.5	0.5	3.77311836370303E-06
0.5	0.55	3.87471260044833E-06
0.5	0.6	3.97496758065916E-06
0.5	0.65	4.07522060659905E-06
0.5	0.7	4.17620848160620E-06
0.5	0.75	4.27785873554081E-06
0.5	0.8	4.37991159241035E-06
0.5	0.85	4.48263401417798E-06
0.5	0.9	4.58611159267237E-06
0.5	0.95	4.69048425585442E-06
0.5	1.0	4.79578777872604E-06
0.5	1.05	4.90209092890839E-06
0.5	1.1	5.00945155292543E-06
0.5	1.15	5.11791981931073E-06
0.5	1.2	5.22753503452880E-06
0.6	0.0	1.44559969424950E-17
0.6	0.05	1.41341813348043E-05
0.6	0.1	2.05510138925191E-05
0.6	0.15	2.27948019391352E-05
0.6	0.2	2.36868614711649E-05
0.6	0.25	2.43089977678692E-05
0.6	0.3	2.48692269132165E-05
0.6	0.35	2.53953700010049E-05
0.6	0.4	2.59093139959783E-05
0.6	0.45	2.64048579111473E-05
0.6	0.5	2.68905620889701E-05
0.6	0.55	2.73660794978240E-05
0.6	0.6	2.78333479265996E-05
0.6	0.65	2.82937725092080E-05
0.6	0.7	2.87485021020013E-05
0.6	0.75	2.91987719326741E-05
0.6	0.8	2.96456937498442E-05
0.6	0.85	3.00898504212200E-05
0.6	0.9	3.05314721403525E-05
0.6	0.95	3.09712930947623E-05
0.6	1.0	3.14097013190790E-05
0.6	1.05	3.18470311015361E-05
0.6	1.1	3.22836358091608E-05
0.6	1.15	3.27197751075866E-05
0.6	1.2	3.31556903238883E-05
0.7	0.0	-7.53417257074398E-17
0.7	0.05	3.02653276417482E-05
0.7	0.1	5.04598460220814E-05
0.7	0.15	6.22095001161114E-05
0.7	0.2	6.80319147761183E-05
0.7	0.25	7.07607251901844E-05
0.7	0.3	7.24015758942013E-05
0.7	0.35	7.37337317510947E-05
0.7	0.4	7.49490469763404E-05
0.7	0.45	7.60870377314068E-05
0.7	0.5	7.71680388723236E-05
0.7	0.55	7.82073682666450E-05
0.7	0.6	7.92125003753385E-05
0.7	0.65	8.01902264753792E-05
0.7	0.7	8.11453263039162E-05
0.7	0.75	8.20817037925393E-05
0.7	0.8	8.30019636637954E-05
0.7	0.85	8.39081840109116E-05
0.7	0.9	8.48021685445242E-05
0.7	0.95	8.56857412041576E-05
0.7	1.0	8.65600970688783E-05
0.7	1.05	8.74264084856894E-05
0.7	1.1	8.82857260167606E-05
0.7	1.15	8.91387415741258E-05
0.7	1.2	8.99862531825044E-05
0.8	0.0	9.09754188421229E-18
0.8	0.05	4.55879803947514E-05
0.8	0.1	8.07536816051926E-05
0.8	0.15	1.06168435291505E-04
0.8	0.2	1.23056485220188E-04
0.8	0.25	1.33187101628700E-04
0.8	0.3	1.38802615587136E-04
0.8	0.35	1.42102861398084E-04
0.8	0.4	1.44507649298342E-04
0.8	0.45	1.46570650966735E-04
0.8	0.5	1.48445664842434E-04
0.8	0.55	1.50193330182145E-04
0.8	0.6	1.51848488695445E-04
0.8	0.65	1.53432632859302E-04
0.8	0.7	1.54960458543741E-04
0.8	0.75	1.56442378300652E-04
0.8	0.8	1.57885870187807E-04
0.8	0.85	1.59297140291894E-04
0.8	0.9	1.60680428053783E-04
0.8	0.95	1.62039131741185E-04
0.8	1.0	1.63376522247075E-04
0.8	1.05	1.64695057078236E-04
0.8	1.1	1.65996766414069E-04
0.8	1.15	1.67283449476963E-04
0.8	1.2	1.68556783150510E-04
0.9	0.0	7.43980643136796E-17
0.9	0.05	5.91488849058697E-05
0.9	0.1	1.08108133689705E-04
0.9	0.15	1.47141588681017E-04
0.9	0.2	1.76879217673366E-04
0.9	0.25	1.98262863402854E-04
0.9	0.3	2.12603902652920E-04
0.9	0.35	2.21600855774695E-04
0.9	0.4	2.27180609267364E-04
0.9	0.45	2.31023214208020E-04
0.9	0.5	2.34106849583618E-04
0.9	0.55	2.36809790975676E-04
0.9	0.6	2.39274074653118E-04
0.9	0.65	2.41572599016879E-04
0.9	0.7	2.43748402572242E-04
0.9	0.75	2.45830464487379E-04
0.9	0.8	2.47837560742305E-04
0.9	0.85	2.49783023083947E-04
0.9	0.9	2.51676827459755E-04
0.9	0.95	2.53526565036942E-04
0.9	1.0	2.55337842408458E-04
0.9	1.05	2.57115452295836E-04
0.9	1.1	2.58863430527475E-04
0.9	1.15	2.60585122112204E-04
0.9	1.2	2.62282834393093E-04
1.0	0.0	-5.26587659536836E-17
1.0	0.05	7.08996826501016E-05
1.0	0.1	1.32040236055517E-04
1.0	0.15	1.83482970829876E-04
1.0	0.2	2.25574372111512E-04
1.0	0.25	2.58853339176959E-04
1.0	0.3	2.84071901354597E-04
1.0	0.35	3.02236920148191E-04
1.0	0.4	3.14651911811880E-04
1.0	0.45	3.22885331243415E-04
1.0	0.5	3.28544554258852E-04
1.0	0.55	3.32864605332415E-04
1.0	0.6	3.36503736785543E-04
1.0	0.65	3.39739408112041E-04
1.0	0.7	3.42704490983184E-04
1.0	0.75	3.45478600470812E-04
1.0	0.8	3.48110690256581E-04
1.0	0.85	3.50632825070629E-04
1.0	0.9	3.53066271846599E-04
1.0	0.95	3.55426682800110E-04
1.0	1.0	3.57725166845675E-04
1.0	1.05	3.59970169912032E-04
1.0	1.1	3.62168405822258E-04
1.0	1.15	3.64325672869058E-04
1.0	1.2	3.66446457915262E-04
1.1	0.0	2.31020576219405E-18
1.1	0.05	8.10088020417183E-05
1.1	0.1	1.52740919828359E-04
1.1	0.15	2.15153363073005E-04
1.1	0.2	2.68447176647155E-04
1.1	0.25	3.12955569776874E-04
1.1	0.3	3.49139641481317E-04
1.1	0.35	3.77608395751449E-04
1.1	0.4	3.99156332907106E-04
1.1	0.45	4.14803645439630E-04
1.1	0.5	4.25806769350259E-04
1.1	0.55	4.33566317041687E-04
1.1	0.6	4.39363893725768E-04
1.1	0.65	4.44074712377751E-04
1.1	0.7	4.48154891119868E-04
1.1	0.75	4.51824747976101E-04
1.1	0.8	4.55209744827535E-04
1.1	0.85	4.58391210291488E-04
1.1	0.9	4.61419854731654E-04
1.1	0.95	4.64328392445863E-04
1.1	1.0	4.67139603395815E-04
1.1	1.05	4.69869478443836E-04
1.1	1.1	4.72529508732416E-04
1.1	1.15	4.75129305230804E-04
1.1	1.2	4.77676360297408E-04
1.2	0.0	-3.57916254512765E-17
1.2	0.05	8.96983633394989E-05
1.2	0.1	1.70589690481064E-04
1.2	0.15	2.42579254053725E-04
1.2	0.2	3.05793987635966E-04
1.2	0.25	3.60459520711769E-04
1.2	0.3	4.06882556210117E-04
1.2	0.35	4.45455996429377E-04
1.2	0.4	4.76679658266653E-04
1.2	0.45	5.01192057730127E-04
1.2	0.5	5.19804897759156E-04
1.2	0.55	5.33526664160146E-04
1.2	0.6	5.43533200156598E-04
1.2	0.65	5.51020091352694E-04
1.2	0.7	5.56962951950557E-04
1.2	0.75	5.61980392022889E-04
1.2	0.8	5.66408101141519E-04
1.2	0.85	5.70433288615467E-04
1.2	0.9	5.74173243784187E-04
1.2	0.95	5.77706854620387E-04
1.2	1.0	5.81082076386544E-04
1.2	1.05	5.84332466796892E-04
1.2	1.1	5.87479107567971E-04
1.2	1.15	5.90538869363445E-04
1.2	1.2	5.93523782699351E-04