vg	vd	ids
0.0	0.0	-3.16080229967993E-17
0.0	0.05	1.42984179659229E-13
0.0	0.1	1.57295053219718E-13
0.0	0.15	1.62136591459801E-13
0.0	0.2	1.66815474375586E-13
0.0	0.25	1.71466214650844E-13
0.0	0.3	1.76263554770240E-13
0.0	0.35	1.81281593260958E-13
0.0	0.4	1.86241412415652E-13
0.0	0.45	1.91426733547043E-13
0.0	0.5	1.96599607287380E-13
0.0	0.55	2.01631083419589E-13
0.0	0.6	2.07029931083700E-13
0.0	0.65	2.12778582723287E-13
0.0	0.7	2.18338057207571E-13
0.0	0.75	2.24331594045319E-13
0.0	0.8	2.29870829222706E-13
0.0	0.85	2.36278518390762E-13
0.0	0.9	2.42308411838956E-13
0.0	0.95	2.48720255947758E-13
0.0	1.0	2.55317434149310E-13
0.0	1.05	2.62124200950264E-13
0.0	1.1	2.68950847211007E-13
0.0	1.15	2.75973435092559E-13
0.0	1.2	2.83516865721809E-13
0.1	0.0	-7.60219886047443E-18
0.1	0.05	4.79769756630093E-12
0.1	0.1	5.30499897183729E-12
0.1	0.15	5.47872947576526E-12
0.1	0.2	5.64571302727119E-12
0.1	0.25	5.81478759814577E-12
0.1	0.3	5.98640507492923E-12
0.1	0.35	6.16067756074721E-12
0.1	0.4	6.33783545474933E-12
0.1	0.45	6.51851928296323E-12
0.1	0.5	6.70241804340874E-12
0.1	0.55	6.89009932322563E-12
0.1	0.6	7.08081390971330E-12
0.1	0.65	7.27798814398326E-12
0.1	0.7	7.47462952359912E-12
0.1	0.75	7.68352232717734E-12
0.1	0.8	7.88475207075346E-12
0.1	0.85	8.10519151106486E-12
0.1	0.9	8.32831559116660E-12
0.1	0.95	8.55083187101554E-12
0.1	1.0	8.78506527361482E-12
0.1	1.05	9.02209633551842E-12
0.1	1.1	9.26306747505427E-12
0.1	1.15	9.51314462037118E-12
0.1	1.2	9.76994090006306E-12
0.2	0.0	-1.03526944299607E-17
0.2	0.05	1.63810144285295E-10
0.2	0.1	1.81935234262544E-10
0.2	0.15	1.88296063064091E-10
0.2	0.2	1.94357441894474E-10
0.2	0.25	2.00471559733165E-10
0.2	0.3	2.06654527492693E-10
0.2	0.35	2.12919549991111E-10
0.2	0.4	2.19274118907321E-10
0.2	0.45	2.25737912429160E-10
0.2	0.5	2.32313858456864E-10
0.2	0.55	2.39017427311117E-10
0.2	0.6	2.45656533960843E-10
0.2	0.65	2.52816335063112E-10
0.2	0.7	2.59666282374338E-10
0.2	0.75	2.67091917508366E-10
0.2	0.8	2.74630985849946E-10
0.2	0.85	2.82228081811339E-10
0.2	0.9	2.89955796757197E-10
0.2	0.95	2.97953837847719E-10
0.2	1.0	3.06095198326899E-10
0.2	1.05	3.14431298582930E-10
0.2	1.1	3.22962732267118E-10
0.2	1.15	3.31713933729808E-10
0.2	1.2	3.40674234900543E-10
0.3	0.0	8.56429895121546E-17
0.3	0.05	5.63360863931039E-09
0.3	0.1	6.28900374199193E-09
0.3	0.15	6.52379124529031E-09
0.3	0.2	6.74514564335254E-09
0.3	0.25	6.96713013530952E-09
0.3	0.3	7.19057706927686E-09
0.3	0.35	7.41583517982593E-09
0.3	0.4	7.64407328813905E-09
0.3	0.45	7.87540431408943E-09
0.3	0.5	8.11012409873795E-09
0.3	0.55	8.34864435618882E-09
0.3	0.6	8.58287499902952E-09
0.3	0.65	8.83527555398042E-09
0.3	0.7	9.09011472292047E-09
0.3	0.75	9.34680674518884E-09
0.3	0.8	9.60872554237820E-09
0.3	0.85	9.87608896872849E-09
0.3	0.9	1.01491305085244E-08
0.3	0.95	1.04280857106614E-08
0.3	1.0	1.07130954814189E-08
0.3	1.05	1.10044943527048E-08
0.3	1.1	1.13025622419259E-08
0.3	1.15	1.16074137186383E-08
0.3	1.2	1.19193089307941E-08
0.4	0.0	-9.25942452355422E-18
0.4	0.05	1.89488855934052E-07
0.4	0.1	2.13318044058602E-07
0.4	0.15	2.21848527774463E-07
0.4	0.2	2.29706100450559E-07
0.4	0.25	2.37499423129219E-07
0.4	0.3	2.45273275285584E-07
0.4	0.35	2.53072236560940E-07
0.4	0.4	2.60914211609948E-07
0.4	0.45	2.68837346307103E-07
0.4	0.5	2.76752139613092E-07
0.4	0.55	2.84857535216462E-07
0.4	0.6	2.93124651670411E-07
0.4	0.65	3.01444674371063E-07
0.4	0.7	3.09894144459481E-07
0.4	0.75	3.18481912969873E-07
0.4	0.8	3.27216227252677E-07
0.4	0.85	3.36103481951256E-07
0.4	0.9	3.45153953602357E-07
0.4	0.95	3.54373144487080E-07
0.4	1.0	3.63767022946466E-07
0.4	1.05	3.73342731727843E-07
0.4	1.1	3.83106166142572E-07
0.4	1.15	3.93063184164618E-07
0.4	1.2	4.03220000751080E-07
0.5	0.0	-5.96410755118906E-18
0.5	0.05	4.32778536921037E-06
0.5	0.1	5.12158455794302E-06
0.5	0.15	5.33980415532696E-06
0.5	0.2	5.51042804781399E-06
0.5	0.25	5.67355054675080E-06
0.5	0.3	5.83249840062548E-06
0.5	0.35	5.98860701846015E-06
0.5	0.4	6.14327682027346E-06
0.5	0.45	6.29565141363823E-06
0.5	0.5	6.44900273077343E-06
0.5	0.55	6.60200377277353E-06
0.5	0.6	6.75492908727665E-06
0.5	0.65	6.90808485210867E-06
0.5	0.7	7.06177392490278E-06
0.5	0.75	7.21616038146016E-06
0.5	0.8	7.37142548603027E-06
0.5	0.85	7.52768289189226E-06
0.5	0.9	7.68504566895011E-06
0.5	0.95	7.84360500991413E-06
0.5	1.0	8.00344733628017E-06
0.5	1.05	8.16464935842050E-06
0.5	1.1	8.32727128808316E-06
0.5	1.15	8.49137499956216E-06
0.5	1.2	8.65701662498019E-06
0.6	0.0	4.11809534510180E-17
0.6	0.05	2.35163727760806E-05
0.6	0.1	3.38282753794155E-05
0.6	0.15	3.71065156545076E-05
0.6	0.2	3.83108037117652E-05
0.6	0.25	3.91765741257518E-05
0.6	0.3	3.99633732833229E-05
0.6	0.35	4.07064560739956E-05
0.6	0.4	4.14192321933722E-05
0.6	0.45	4.21079454150417E-05
0.6	0.5	4.27824031237938E-05
0.6	0.55	4.34435381407257E-05
0.6	0.6	4.40940080497847E-05
0.6	0.65	4.47359124839071E-05
0.6	0.7	4.53708576118749E-05
0.6	0.75	4.59999614995003E-05
0.6	0.8	4.66244829897787E-05
0.6	0.85	4.72451542991941E-05
0.6	0.9	4.78627014823996E-05
0.6	0.95	4.84777258305044E-05
0.6	1.0	4.90907040066508E-05
0.6	1.05	4.97020654447742E-05
0.6	1.1	5.03121706003290E-05
0.6	1.15	5.09213481533167E-05
0.6	1.2	5.15298517900494E-05
0.7	0.0	-1.29765181825881E-17
0.7	0.05	4.78472702204738E-05
0.7	0.1	7.90617280205468E-05
0.7	0.15	9.64620927232568E-05
0.7	0.2	1.04436677472052E-04
0.7	0.25	1.07863247611751E-04
0.7	0.3	1.09938453595089E-04
0.7	0.35	1.11664715660254E-04
0.7	0.4	1.13233751227087E-04
0.7	0.45	1.14702565284294E-04
0.7	0.5	1.16100694384952E-04
0.7	0.55	1.17447894419180E-04
0.7	0.6	1.18754670251962E-04
0.7	0.65	1.20029013606765E-04
0.7	0.7	1.21276598696346E-04
0.7	0.75	1.22501716909993E-04
0.7	0.8	1.23707748150818E-04
0.7	0.85	1.24897075601547E-04
0.7	0.9	1.26072093148675E-04
0.7	0.95	1.27234398087395E-04
0.7	1.0	1.28385434607427E-04
0.7	1.05	1.29526500188213E-04
0.7	1.1	1.30658606376829E-04
0.7	1.15	1.31782678037314E-04
0.7	1.2	1.32899336750401E-04
0.8	0.0	-6.46301702539373E-17
0.8	0.05	6.94872612458032E-05
0.8	0.1	1.22177043329364E-04
0.8	0.15	1.59270839145871E-04
0.8	0.2	1.82922765549372E-04
0.8	0.25	1.96222094107717E-04
0.8	0.3	2.03021861317670E-04
0.8	0.35	2.06896426400985E-04
0.8	0.4	2.09790353870669E-04
0.8	0.45	2.12293569756181E-04
0.8	0.5	2.14571847126905E-04
0.8	0.55	2.16705442345279E-04
0.8	0.6	2.18736741944510E-04
0.8	0.65	2.20690950415671E-04
0.8	0.7	2.22584933664750E-04
0.8	0.75	2.24429255770505E-04
0.8	0.8	2.26231784453913E-04
0.8	0.85	2.27998813342518E-04
0.8	0.9	2.29735053612741E-04
0.8	0.95	2.31443961280281E-04
0.8	1.0	2.33128758540717E-04
0.8	1.05	2.34791844829428E-04
0.8	1.1	2.36435481920359E-04
0.8	1.15	2.38061196170136E-04
0.8	1.2	2.39670856459324E-04
0.9	0.0	6.10652374422407E-17
0.9	0.05	8.75089981187572E-05
0.9	0.1	1.58926640922421E-04
0.9	0.15	2.14797904741586E-04
0.9	0.2	2.56278334471725E-04
0.9	0.25	2.85023761779283E-04
0.9	0.3	3.03290570961858E-04
0.9	0.35	3.13981542417726E-04
0.9	0.4	3.20276082760976E-04
0.9	0.45	3.24628169228799E-04
0.9	0.5	3.28174785927410E-04
0.9	0.55	3.31301019975599E-04
0.9	0.6	3.34168803357150E-04
0.9	0.65	3.36866606825767E-04
0.9	0.7	3.39442861075314E-04
0.9	0.75	3.41925669013459E-04
0.9	0.8	3.44333374708321E-04
0.9	0.85	3.46678384791561E-04
0.9	0.9	3.48970415188811E-04
0.9	0.95	3.51216016402169E-04
0.9	1.0	3.53421239143582E-04
0.9	1.05	3.55590261430668E-04
0.9	1.1	3.57726614055678E-04
0.9	1.15	3.59833709393576E-04
0.9	1.2	3.61914036435851E-04
1.0	0.0	-1.17803667794523E-17
1.0	0.05	1.02298787963134E-04
1.0	0.1	1.89406420668089E-04
1.0	0.15	2.61585715836813E-04
1.0	0.2	3.19556732840214E-04
1.0	0.25	3.64309791809473E-04
1.0	0.3	3.97139915211905E-04
1.0	0.35	4.19746103237101E-04
1.0	0.4	4.34321865050125E-04
1.0	0.45	4.43462744316496E-04
1.0	0.5	4.49620216950031E-04
1.0	0.55	4.54367598418318E-04
1.0	0.6	4.58403296414964E-04
1.0	0.65	4.62021746158088E-04
1.0	0.7	4.65376384660507E-04
1.0	0.75	4.68551765262062E-04
1.0	0.8	4.71595165392896E-04
1.0	0.85	4.74534483938303E-04
1.0	0.9	4.77388788084352E-04
1.0	0.95	4.80170861691274E-04
1.0	1.0	4.82891077489461E-04
1.0	1.05	4.85557396170886E-04
1.0	1.1	4.88174183301989E-04
1.0	1.15	4.90747831934595E-04
1.0	1.2	4.93282708023192E-04
1.1	0.0	-1.62957923886165E-17
1.1	0.05	1.14446064838839E-04
1.1	0.1	2.14565776583902E-04
1.1	0.15	3.00506408867560E-04
1.1	0.2	3.72798981990373E-04
1.1	0.25	4.32131986797623E-04
1.1	0.3	4.79338264009103E-04
1.1	0.35	5.15445192953606E-04
1.1	0.4	5.41760556866114E-04
1.1	0.45	5.59962320580466E-04
1.1	0.5	5.72109113026515E-04
1.1	0.55	5.80385990528865E-04
1.1	0.6	5.86545609280863E-04
1.1	0.65	5.91591069485605E-04
1.1	0.7	5.96002037349126E-04
1.1	0.75	6.00024018703811E-04
1.1	0.8	6.03790654951894E-04
1.1	0.85	6.07376668340388E-04
1.1	0.9	6.10825393267794E-04
1.1	0.95	6.14162475922952E-04
1.1	1.0	6.17407348205100E-04
1.1	1.05	6.20573678720216E-04
1.1	1.1	6.23669902559448E-04
1.1	1.15	6.26705382316885E-04
1.1	1.2	6.29686916342866E-04
1.2	0.0	9.86772141855877E-17
1.2	0.05	1.24495291928198E-04
1.2	0.1	2.35420910797311E-04
1.2	0.15	3.32885170875802E-04
1.2	0.2	4.17343941806157E-04
1.2	0.25	4.89354130025289E-04
1.2	0.3	5.49535339147708E-04
1.2	0.35	5.98586127538149E-04
1.2	0.4	6.37332344930833E-04
1.2	0.45	6.66796315489724E-04
1.2	0.5	6.88278043053503E-04
1.2	0.55	7.03397754677148E-04
1.2	0.6	7.13997544764956E-04
1.2	0.65	7.21792513184359E-04
1.2	0.7	7.27988520108963E-04
1.2	0.75	7.33263831259866E-04
1.2	0.8	7.37983855216202E-04
1.2	0.85	7.42350352857771E-04
1.2	0.9	7.46474572611922E-04
1.2	0.95	7.50419521611123E-04
1.2	1.0	7.54223535220839E-04
1.2	1.05	7.57911276913786E-04
1.2	1.1	7.61500491167203E-04
1.2	1.15	7.65006110820152E-04
1.2	1.2	7.68436221956982E-04