vg	vd	ids
0.0	0.0	8.51953128155785E-17
0.0	0.05	1.83004733677900E-13
0.0	0.1	2.08665134786571E-13
0.0	0.15	2.20376206346395E-13
0.0	0.2	2.32100942536683E-13
0.0	0.25	2.44361552531234E-13
0.0	0.3	2.56969824791936E-13
0.0	0.35	2.70388061868673E-13
0.0	0.4	2.84474411938478E-13
0.0	0.45	2.98993327491362E-13
0.0	0.5	3.14644716563849E-13
0.0	0.55	3.30828651194678E-13
0.0	0.6	3.47934500986738E-13
0.0	0.65	3.65995690238232E-13
0.0	0.7	3.84969274998958E-13
0.0	0.75	4.04682652672314E-13
0.0	0.8	4.25706731931013E-13
0.0	0.85	4.47800440069781E-13
0.0	0.9	4.70851578460376E-13
0.0	0.95	4.95436825230682E-13
0.0	1.0	5.21305037579193E-13
0.0	1.05	5.48606079739262E-13
0.0	1.1	5.77409407312948E-13
0.0	1.15	6.07713541082476E-13
0.0	1.2	6.40182722142935E-13
0.1	0.0	5.54408619879685E-17
0.1	0.05	5.97316121757475E-12
0.1	0.1	6.83756091201358E-12
0.1	0.15	7.23269179658528E-12
0.1	0.2	7.62090919447145E-12
0.1	0.25	8.02438014551442E-12
0.1	0.3	8.44488139827802E-12
0.1	0.35	8.88310512262738E-12
0.1	0.4	9.34042538914629E-12
0.1	0.45	9.81845264514713E-12
0.1	0.5	1.03177693407996E-11
0.1	0.55	1.08413723317559E-11
0.1	0.6	1.13882990369858E-11
0.1	0.65	1.19614378939505E-11
0.1	0.7	1.25615435158961E-11
0.1	0.75	1.31903340264509E-11
0.1	0.8	1.38495094688614E-11
0.1	0.85	1.45407298981090E-11
0.1	0.9	1.52655823140844E-11
0.1	0.95	1.60257144135053E-11
0.1	1.0	1.68235937771515E-11
0.1	1.05	1.76609749189455E-11
0.1	1.1	1.85398009280651E-11
0.1	1.15	1.94630769085433E-11
0.1	1.2	2.04320868681187E-11
0.2	0.0	-1.00708656040486E-16
0.2	0.05	1.96824374975788E-10
0.2	0.1	2.26232326305559E-10
0.2	0.15	2.39671491871817E-10
0.2	0.2	2.52740987260233E-10
0.2	0.25	2.66248427447617E-10
0.2	0.3	2.80244925820719E-10
0.2	0.35	2.94769778161884E-10
0.2	0.4	3.09862990755206E-10
0.2	0.45	3.25561172725004E-10
0.2	0.5	3.41889169267635E-10
0.2	0.55	3.58917078703589E-10
0.2	0.6	3.76652303309643E-10
0.2	0.65	3.95153529915531E-10
0.2	0.7	4.14451908725271E-10
0.2	0.75	4.34585707046903E-10
0.2	0.8	4.55600367711519E-10
0.2	0.85	4.77537635517654E-10
0.2	0.9	5.00443655896537E-10
0.2	0.95	5.24367488513359E-10
0.2	1.0	5.49356496916451E-10
0.2	1.05	5.75463154468392E-10
0.2	1.1	6.02742108876146E-10
0.2	1.15	6.31250715799190E-10
0.2	1.2	6.61048533761347E-10
0.3	0.0	7.43614424575284E-17
0.3	0.05	6.48264670090242E-09
0.3	0.1	7.48942717309660E-09
0.3	0.15	7.95003625948716E-09
0.3	0.2	8.39195199479204E-09
0.3	0.25	8.84502806791080E-09
0.3	0.3	9.31137951859495E-09
0.3	0.35	9.79249997004496E-09
0.3	0.4	1.02884103328997E-08
0.3	0.45	1.08034297919054E-08
0.3	0.5	1.13369628950781E-08
0.3	0.55	1.18899455682582E-08
0.3	0.6	1.24635345674320E-08
0.3	0.65	1.30589736752311E-08
0.3	0.7	1.36774371018139E-08
0.3	0.75	1.43199919249992E-08
0.3	0.8	1.49877362403013E-08
0.3	0.85	1.56818740546593E-08
0.3	0.9	1.64035857527253E-08
0.3	0.95	1.71540692425144E-08
0.3	1.0	1.79345884515704E-08
0.3	1.05	1.87464385991163E-08
0.3	1.1	1.95909571473591E-08
0.3	1.15	2.04695354706855E-08
0.3	1.2	2.13836156218844E-08
0.4	0.0	8.44198091452061E-17
0.4	0.05	2.05024712708229E-07
0.4	0.1	2.39163127767530E-07
0.4	0.15	2.54444191575620E-07
0.4	0.2	2.68685290662706E-07
0.4	0.25	2.83067324597522E-07
0.4	0.3	2.97697245094627E-07
0.4	0.35	3.12638712019252E-07
0.4	0.4	3.27921516173336E-07
0.4	0.45	3.43636056933510E-07
0.4	0.5	3.59784069988391E-07
0.4	0.55	3.76398830411729E-07
0.4	0.6	3.93511373460979E-07
0.4	0.65	4.11149156141496E-07
0.4	0.7	4.29338399851372E-07
0.4	0.75	4.48104663309240E-07
0.4	0.8	4.67472300201284E-07
0.4	0.85	4.87465133040641E-07
0.4	0.9	5.08106783817600E-07
0.4	0.95	5.29420537965204E-07
0.4	1.0	5.51429919475608E-07
0.4	1.05	5.74158496276134E-07
0.4	1.1	5.97629930040231E-07
0.4	1.15	6.21868373451496E-07
0.4	1.2	6.46898195380669E-07
0.5	0.0	3.57850479141641E-17
0.5	0.05	4.04976482367763E-06
0.5	0.1	5.00565831500971E-06
0.5	0.15	5.33321160180152E-06
0.5	0.2	5.58674479902265E-06
0.5	0.25	5.82945399080813E-06
0.5	0.3	6.06788209536721E-06
0.5	0.35	6.30417269419349E-06
0.5	0.4	6.54026624173383E-06
0.5	0.45	6.77671430838109E-06
0.5	0.5	7.01428099858957E-06
0.5	0.55	7.25352959125659E-06
0.5	0.6	7.49485370543737E-06
0.5	0.65	7.73858835905314E-06
0.5	0.7	7.98497885337082E-06
0.5	0.75	8.23424877016906E-06
0.5	0.8	8.48657462007479E-06
0.5	0.85	8.74209597670835E-06
0.5	0.9	9.00095489967335E-06
0.5	0.95	9.26324488027035E-06
0.5	1.0	9.52906317592684E-06
0.5	1.05	9.79850028042870E-06
0.5	1.1	1.00716126620763E-05
0.5	1.15	1.03484714109784E-05
0.5	1.2	1.06291397782068E-05
0.6	0.0	-8.67206568559503E-18
0.6	0.05	1.93235684972778E-05
0.6	0.1	2.87885178944659E-05
0.6	0.15	3.24853227436475E-05
0.6	0.2	3.40794269049850E-05
0.6	0.25	3.51974908100686E-05
0.6	0.3	3.61983978878198E-05
0.6	0.35	3.71430000829574E-05
0.6	0.4	3.80513350310874E-05
0.6	0.45	3.89346144618573E-05
0.6	0.5	3.98002050312599E-05
0.6	0.55	4.06527524602474E-05
0.6	0.6	4.14956680616010E-05
0.6	0.65	4.23312112188585E-05
0.6	0.7	4.31613710917229E-05
0.6	0.75	4.39874111056244E-05
0.6	0.8	4.48105411022580E-05
0.6	0.85	4.56316013473213E-05
0.6	0.9	4.64513349970324E-05
0.6	0.95	4.72703456352184E-05
0.6	1.0	4.80891092333649E-05
0.6	1.05	4.89080570444497E-05
0.6	1.1	4.97274739102027E-05
0.6	1.15	5.05477025368124E-05
0.6	1.2	5.13689918146493E-05
0.7	0.0	1.40044710298716E-16
0.7	0.05	3.83961741452352E-05
0.7	0.1	6.45285892990229E-05
0.7	0.15	8.02910645532629E-05
0.7	0.2	8.85867510415095E-05
0.7	0.25	9.27689916993785E-05
0.7	0.3	9.53752757994907E-05
0.7	0.35	9.74851570564322E-05
0.7	0.4	9.93833113601608E-05
0.7	0.45	1.01156453004929E-04
0.7	0.5	1.02846361697207E-04
0.7	0.55	1.04477707068395E-04
0.7	0.6	1.06064884238271E-04
0.7	0.65	1.07617701704014E-04
0.7	0.7	1.09142990742537E-04
0.7	0.75	1.10645368674648E-04
0.7	0.8	1.12128941246987E-04
0.7	0.85	1.13596308791565E-04
0.7	0.9	1.15049815445228E-04
0.7	0.95	1.16491492489237E-04
0.7	1.0	1.17922651056068E-04
0.7	1.05	1.19344556395071E-04
0.7	1.1	1.20758383709984E-04
0.7	1.15	1.22164968490321E-04
0.7	1.2	1.23564971536691E-04
0.8	0.0	2.19255305116816E-18
0.8	0.05	5.61589383869748E-05
0.8	0.1	9.96699960465174E-05
0.8	0.15	1.31398133729594E-04
0.8	0.2	1.52854187435205E-04
0.8	0.25	1.66144807965265E-04
0.8	0.3	1.73891404068657E-04
0.8	0.35	1.78678076834933E-04
0.8	0.4	1.82218421213158E-04
0.8	0.45	1.85223339345882E-04
0.8	0.5	1.87938120816195E-04
0.8	0.55	1.90473929157752E-04
0.8	0.6	1.92888467877731E-04
0.8	0.65	1.95215358297266E-04
0.8	0.7	1.97474707787022E-04
0.8	0.75	1.99680075990431E-04
0.8	0.8	2.01840857326342E-04
0.8	0.85	2.03963663109787E-04
0.8	0.9	2.06054204881425E-04
0.8	0.95	2.08116308598700E-04
0.8	1.0	2.10153471087355E-04
0.8	1.05	2.12168454402941E-04
0.8	1.1	2.14163219644396E-04
0.8	1.15	2.16139932900798E-04
0.8	1.2	2.18099894780012E-04
0.9	0.0	-5.79784881815384E-17
0.9	0.05	7.17684151027960E-05
0.9	0.1	1.31136009519842E-04
0.9	0.15	1.78496707137168E-04
0.9	0.2	2.14700734182606E-04
0.9	0.25	2.40956463259226E-04
0.9	0.3	2.58876644425946E-04
0.9	0.35	2.70481438540411E-04
0.9	0.4	2.78000822236006E-04
0.9	0.45	2.83341388462587E-04
0.9	0.5	2.87630743468136E-04
0.9	0.55	2.91365227629358E-04
0.9	0.6	2.94770981103649E-04
0.9	0.65	2.97967548109683E-04
0.9	0.7	3.01019064218188E-04
0.9	0.75	3.03962073289224E-04
0.9	0.8	3.06820025382088E-04
0.9	0.85	3.09607715635548E-04
0.9	0.9	3.12336708921089E-04
0.9	0.95	3.15015483440183E-04
0.9	1.0	3.17649742079900E-04
0.9	1.05	3.20245387494389E-04
0.9	1.1	3.22805997440759E-04
0.9	1.15	3.25334248419371E-04
0.9	1.2	3.27834309527268E-04
1.0	0.0	5.92136795088562E-17
1.0	0.05	8.52329413930972E-05
1.0	0.1	1.58544299963559E-04
1.0	0.15	2.20080640610712E-04
1.0	0.2	2.70357092734451E-04
1.0	0.25	3.10120359067738E-04
1.0	0.3	3.40361263001692E-04
1.0	0.35	3.62352642188174E-04
1.0	0.4	3.77680942595768E-04
1.0	0.45	3.88180702586884E-04
1.0	0.5	3.95650064775173E-04
1.0	0.55	4.01435598478170E-04
1.0	0.6	4.06298600044104E-04
1.0	0.65	4.10621716337006E-04
1.0	0.7	4.14610260480045E-04
1.0	0.75	4.18377497292139E-04
1.0	0.8	4.21985289810468E-04
1.0	0.85	4.25470762987900E-04
1.0	0.9	4.28857056048337E-04
1.0	0.95	4.32162047661552E-04
1.0	1.0	4.35396022837458E-04
1.0	1.05	4.38569144493186E-04
1.0	1.1	4.41688979565432E-04
1.0	1.15	4.44759350187599E-04
1.0	1.2	4.47786309373259E-04
1.1	0.0	1.90851052202726E-16
1.1	0.05	9.67731467712839E-05
1.1	0.1	1.82172176967472E-04
1.1	0.15	2.56210590470105E-04
1.1	0.2	3.19222937566652E-04
1.1	0.25	3.71707408799782E-04
1.1	0.3	4.14313318475972E-04
1.1	0.35	4.47859360030290E-04
1.1	0.4	4.73372537075102E-04
1.1	0.45	4.92121973699018E-04
1.1	0.5	5.05604961415854E-04
1.1	0.55	5.15402932559469E-04
1.1	0.6	5.22891525010171E-04
1.1	0.65	5.29016069150538E-04
1.1	0.7	5.34329582841892E-04
1.1	0.75	5.39142717285160E-04
1.1	0.8	5.43632543031514E-04
1.1	0.85	5.47898277194049E-04
1.1	0.9	5.51995704024200E-04
1.1	0.95	5.55960764507151E-04
1.1	1.0	5.59816404518376E-04
1.1	1.05	5.63580078081194E-04
1.1	1.1	5.67265649875120E-04
1.1	1.15	5.70879244930454E-04
1.1	1.2	5.74431481739739E-04
1.2	0.0	-5.07988859916264E-17
1.2	0.05	1.06659506190752E-04
1.2	0.1	2.02483988659693E-04
1.2	0.15	2.87417601216496E-04
1.2	0.2	3.61698106711333E-04
1.2	0.25	4.25687827105538E-04
1.2	0.3	4.79846025780649E-04
1.2	0.35	5.24732026294626E-04
1.2	0.4	5.61029234043574E-04
1.2	0.45	5.89577297912756E-04
1.2	0.5	6.11406290459220E-04
1.2	0.55	6.27741824174817E-04
1.2	0.6	6.39935610233040E-04
1.2	0.65	6.49282512094434E-04
1.2	0.7	6.56807289163473E-04
1.2	0.75	6.63201568745335E-04
1.2	0.8	6.68891009656105E-04
1.2	0.85	6.74127883562074E-04
1.2	0.9	6.79057553944406E-04
1.2	0.95	6.83762960410048E-04
1.2	1.0	6.88295161684250E-04
1.2	1.05	6.92687359591741E-04
1.2	1.1	6.96962090470750E-04
1.2	1.15	7.01135986834899E-04
1.2	1.2	7.05224423536488E-04