vg	vd	ids
0.0	0.0	5.04813677059625E-17
0.0	0.05	9.46230882930030E-14
0.0	0.1	1.08155517481058E-13
0.0	0.15	1.13400227647054E-13
0.0	0.2	1.18073164783668E-13
0.0	0.25	1.23091455252455E-13
0.0	0.3	1.28210251784910E-13
0.0	0.35	1.33304359782125E-13
0.0	0.4	1.38717403111175E-13
0.0	0.45	1.44393758996241E-13
0.0	0.5	1.50315101847564E-13
0.0	0.55	1.56188102512004E-13
0.0	0.6	1.62304810895488E-13
0.0	0.65	1.68938846222247E-13
0.0	0.7	1.76187650448280E-13
0.0	0.75	1.83105740765135E-13
0.0	0.8	1.90331672431761E-13
0.0	0.85	1.97941740566191E-13
0.0	0.9	2.06091132102709E-13
0.0	0.95	2.14338054186599E-13
0.0	1.0	2.23232199563688E-13
0.0	1.05	2.32134717920859E-13
0.0	1.1	2.41563670072157E-13
0.0	1.15	2.51482104734208E-13
0.0	1.2	2.61828795341808E-13
0.1	0.0	8.50782470004341E-18
0.1	0.05	3.10259690911377E-12
0.1	0.1	3.55854469390236E-12
0.1	0.15	3.73414769152007E-12
0.1	0.2	3.89630905808170E-12
0.1	0.25	4.06291312940059E-12
0.1	0.3	4.23464248033894E-12
0.1	0.35	4.41211129073253E-12
0.1	0.4	4.59508600661048E-12
0.1	0.45	4.78485213959358E-12
0.1	0.5	4.98117289702959E-12
0.1	0.55	5.18441689679874E-12
0.1	0.6	5.39531178690703E-12
0.1	0.65	5.61391422655725E-12
0.1	0.7	5.84044378658312E-12
0.1	0.75	6.07595406926800E-12
0.1	0.8	6.32057475399398E-12
0.1	0.85	6.57419323543010E-12
0.1	0.9	6.83825616726126E-12
0.1	0.95	7.11192959952740E-12
0.1	1.0	7.39694371535550E-12
0.1	1.05	7.69336432879683E-12
0.1	1.1	8.00106894437053E-12
0.1	1.15	8.32176909547610E-12
0.1	1.2	8.65467322521327E-12
0.2	0.0	-6.28261219125796E-17
0.2	0.05	1.02961744023988E-10
0.2	0.1	1.18545809902958E-10
0.2	0.15	1.24661539939804E-10
0.2	0.2	1.30270910584300E-10
0.2	0.25	1.36002584839666E-10
0.2	0.3	1.41888850020479E-10
0.2	0.35	1.47942127438249E-10
0.2	0.4	1.54183282072650E-10
0.2	0.45	1.60616563081801E-10
0.2	0.5	1.67258252334505E-10
0.2	0.55	1.74122116530227E-10
0.2	0.6	1.81214003027931E-10
0.2	0.65	1.88553041576884E-10
0.2	0.7	1.96144150803191E-10
0.2	0.75	2.04000382912770E-10
0.2	0.8	2.12140167087630E-10
0.2	0.85	2.20570355513792E-10
0.2	0.9	2.29304241759011E-10
0.2	0.95	2.38357141585040E-10
0.2	1.0	2.47742033229214E-10
0.2	1.05	2.57471421717119E-10
0.2	1.1	2.67560395268215E-10
0.2	1.15	2.78023416339713E-10
0.2	1.2	2.88876085208918E-10
0.3	0.0	-1.59372358075197E-17
0.3	0.05	3.42823360858966E-09
0.3	0.1	3.96573847221106E-09
0.3	0.15	4.18033463309475E-09
0.3	0.2	4.37516050740046E-09
0.3	0.25	4.57282344607469E-09
0.3	0.3	4.77469836916124E-09
0.3	0.35	4.98140335139213E-09
0.3	0.4	5.19346457276631E-09
0.3	0.45	5.41135227379759E-09
0.3	0.5	5.63565125474825E-09
0.3	0.55	5.86647076552671E-09
0.3	0.6	6.10425440981671E-09
0.3	0.65	6.34941854638030E-09
0.3	0.7	6.60247388773189E-09
0.3	0.75	6.86368752520763E-09
0.3	0.8	7.13337836231479E-09
0.3	0.85	7.41194742250309E-09
0.3	0.9	7.69978620645093E-09
0.3	0.95	7.99725260884845E-09
0.3	1.0	8.30472514563724E-09
0.3	1.05	8.62259316373990E-09
0.3	1.1	8.95125270882288E-09
0.3	1.15	9.29110774264422E-09
0.3	1.2	9.64257453041630E-09
0.4	0.0	4.06986466255131E-18
0.4	0.05	1.10886889475882E-07
0.4	0.1	1.29364210690427E-07
0.4	0.15	1.36758993916300E-07
0.4	0.2	1.43309405066939E-07
0.4	0.25	1.49863489065595E-07
0.4	0.3	1.56489998217106E-07
0.4	0.35	1.63214516917960E-07
0.4	0.4	1.70074094666244E-07
0.4	0.45	1.77075029836633E-07
0.4	0.5	1.84231533492027E-07
0.4	0.55	1.91562681849826E-07
0.4	0.6	1.99078462841815E-07
0.4	0.65	2.06789685618915E-07
0.4	0.7	2.14706844568673E-07
0.4	0.75	2.22840057969329E-07
0.4	0.8	2.31198861915639E-07
0.4	0.85	2.39792426740330E-07
0.4	0.9	2.48629757962935E-07
0.4	0.95	2.57719787858806E-07
0.4	1.0	2.67071456909447E-07
0.4	1.05	2.76693632628181E-07
0.4	1.1	2.86595202952291E-07
0.4	1.15	2.96785109056209E-07
0.4	1.2	3.07272268632326E-07
0.5	0.0	-6.56417821678575E-17
0.5	0.05	2.43396073349962E-06
0.5	0.1	2.98510183325705E-06
0.5	0.15	3.16764801710272E-06
0.5	0.2	3.30398836195903E-06
0.5	0.25	3.43359952724043E-06
0.5	0.3	3.56066301679179E-06
0.5	0.35	3.68670465762409E-06
0.5	0.4	3.81235879056525E-06
0.5	0.45	3.93816588234716E-06
0.5	0.5	4.06456995047019E-06
0.5	0.55	4.19185190913944E-06
0.5	0.6	4.32023704103244E-06
0.5	0.65	4.44990079066102E-06
0.5	0.7	4.58098803325136E-06
0.5	0.75	4.71362071529221E-06
0.5	0.8	4.84789619718786E-06
0.5	0.85	4.98390692632710E-06
0.5	0.9	5.12172741542523E-06
0.5	0.95	5.26142290848283E-06
0.5	1.0	5.40305811162843E-06
0.5	1.05	5.54668294685347E-06
0.5	1.1	5.69234645215254E-06
0.5	1.15	5.84009696274856E-06
0.5	1.2	5.98996998665996E-06
0.6	0.0	-2.53962699767495E-16
0.6	0.05	1.33611395234971E-05
0.6	0.1	1.97315422453221E-05
0.6	0.15	2.21560335865263E-05
0.6	0.2	2.31860214063278E-05
0.6	0.25	2.38970225447213E-05
0.6	0.3	2.45296986895271E-05
0.6	0.35	2.51264778133030E-05
0.6	0.4	2.57008040439353E-05
0.6	0.45	2.62598486438866E-05
0.6	0.5	2.68082446597893E-05
0.6	0.55	2.73490357811378E-05
0.6	0.6	2.78842160098317E-05
0.6	0.65	2.84153756623375E-05
0.6	0.7	2.89435362541917E-05
0.6	0.75	2.94696555091644E-05
0.6	0.8	2.99943789803668E-05
0.6	0.85	3.05182366512986E-05
0.6	0.9	3.10417413583504E-05
0.6	0.95	3.15652040780746E-05
0.6	1.0	3.20889634738862E-05
0.6	1.05	3.26133029763093E-05
0.6	1.1	3.31384224486277E-05
0.6	1.15	3.36645292721282E-05
0.6	1.2	3.41917858121571E-05
0.7	0.0	-1.48698981936392E-16
0.7	0.05	2.81248797621173E-05
0.7	0.1	4.72312154873789E-05
0.7	0.15	5.87275006176562E-05
0.7	0.2	6.47646813781071E-05
0.7	0.25	6.77882684058989E-05
0.7	0.3	6.96332646503506E-05
0.7	0.35	7.11010800730837E-05
0.7	0.4	7.24146864958882E-05
0.7	0.45	7.36405636712533E-05
0.7	0.5	7.48095719519600E-05
0.7	0.55	7.59387244776812E-05
0.7	0.6	7.70387634723892E-05
0.7	0.65	7.81160593932044E-05
0.7	0.7	7.91754550870467E-05
0.7	0.75	8.02201415024715E-05
0.7	0.8	8.12526250445752E-05
0.7	0.85	8.22748746443747E-05
0.7	0.9	8.32884613172444E-05
0.7	0.95	8.42944646763543E-05
0.7	1.0	8.52941152715303E-05
0.7	1.05	8.62881646606517E-05
0.7	1.1	8.72772505387272E-05
0.7	1.15	8.82621567760176E-05
0.7	1.2	8.92433023576613E-05
0.8	0.0	-4.47843924238370E-17
0.8	0.05	4.23557853305260E-05
0.8	0.1	7.52956986461227E-05
0.8	0.15	9.94423103051659E-05
0.8	0.2	1.15881476575393E-04
0.8	0.25	1.26148475598701E-04
0.8	0.3	1.32162407729960E-04
0.8	0.35	1.35834525482232E-04
0.8	0.4	1.38484199601403E-04
0.8	0.45	1.40700080004292E-04
0.8	0.5	1.42690364970026E-04
0.8	0.55	1.44545340999328E-04
0.8	0.6	1.46311371584266E-04
0.8	0.65	1.48014043884396E-04
0.8	0.7	1.49668738472441E-04
0.8	0.75	1.51285040761740E-04
0.8	0.8	1.52870235088202E-04
0.8	0.85	1.54428940668080E-04
0.8	0.9	1.55965164817869E-04
0.8	0.95	1.57481798936272E-04
0.8	1.0	1.58981292341869E-04
0.8	1.05	1.60465334640547E-04
0.8	1.1	1.61935766402345E-04
0.8	1.15	1.63393852798626E-04
0.8	1.2	1.64840666473286E-04
0.9	0.0	1.09609653939339E-16
0.9	0.05	5.52024801023090E-05
0.9	0.1	1.01094425424108E-04
0.9	0.15	1.37943212320008E-04
0.9	0.2	1.66336831933204E-04
0.9	0.25	1.87133155909880E-04
0.9	0.3	2.01495628648320E-04
0.9	0.35	2.10896396639147E-04
0.9	0.4	2.16984428508600E-04
0.9	0.45	2.21228126608244E-04
0.9	0.5	2.24563737188571E-04
0.9	0.55	2.27431893168841E-04
0.9	0.6	2.30030878157771E-04
0.9	0.65	2.32463732047347E-04
0.9	0.7	2.34784392872166E-04
0.9	0.75	2.37022924100160E-04
0.9	0.8	2.39197282490115E-04
0.9	0.85	2.41319766271700E-04
0.9	0.9	2.43398902770130E-04
0.9	0.95	2.45440718370433E-04
0.9	1.0	2.47450269068719E-04
0.9	1.05	2.49431274467793E-04
0.9	1.1	2.51386651330427E-04
0.9	1.15	2.53318931147172E-04
0.9	1.2	2.55230466947024E-04
1.0	0.0	-6.54468155654167E-17
1.0	0.05	6.65478394493575E-05
1.0	0.1	1.24089621018106E-04
1.0	0.15	1.72701686111541E-04
1.0	0.2	2.12718282327830E-04
1.0	0.25	2.44650184057433E-04
1.0	0.3	2.69196322566167E-04
1.0	0.35	2.87271718228212E-04
1.0	0.4	3.00029780517499E-04
1.0	0.45	3.08823019296225E-04
1.0	0.5	3.15024128394035E-04
1.0	0.55	3.19732672188440E-04
1.0	0.6	3.23621004406767E-04
1.0	0.65	3.27039977531190E-04
1.0	0.7	3.30174952878666E-04
1.0	0.75	3.33127588287579E-04
1.0	0.8	3.35952204456777E-04
1.0	0.85	3.38680124338822E-04
1.0	0.9	3.41330783254130E-04
1.0	0.95	3.43918221126127E-04
1.0	1.0	3.46451413016151E-04
1.0	1.05	3.48937900512058E-04
1.0	1.1	3.51382907756221E-04
1.0	1.15	3.53791409153706E-04
1.0	1.2	3.56166332504665E-04
1.1	0.0	1.30837547529059E-16
1.1	0.05	7.64721092233723E-05
1.1	0.1	1.44318822643523E-04
1.1	0.15	2.03508500506967E-04
1.1	0.2	2.54234251982740E-04
1.1	0.25	2.96816472949857E-04
1.1	0.3	3.31696469760488E-04
1.1	0.35	3.59450804983196E-04
1.1	0.4	3.80817448979807E-04
1.1	0.45	3.96719617887277E-04
1.1	0.5	4.08260351028604E-04
1.1	0.55	4.16637784793685E-04
1.1	0.6	4.22954333417108E-04
1.1	0.65	4.28027228526147E-04
1.1	0.7	4.32363696117475E-04
1.1	0.75	4.36254629124257E-04
1.1	0.8	4.39864129814658E-04
1.1	0.85	4.43284075158900E-04
1.1	0.9	4.46564697983613E-04
1.1	0.95	4.49737253937298E-04
1.1	1.0	4.52822052422536E-04
1.1	1.05	4.55833473045147E-04
1.1	1.1	4.58781107712503E-04
1.1	1.15	4.61673690439929E-04
1.1	1.2	4.64516942726153E-04
1.2	0.0	-3.45975352516409E-17
1.2	0.05	8.51225576119408E-05
1.2	0.1	1.62014986791197E-04
1.2	0.15	2.30585509773688E-04
1.2	0.2	2.90947873845361E-04
1.2	0.25	3.43314316579497E-04
1.2	0.3	3.87979012561777E-04
1.2	0.35	4.25321320800028E-04
1.2	0.4	4.55821898964352E-04
1.2	0.45	4.80085118772210E-04
1.2	0.5	4.98861851964555E-04
1.2	0.55	5.13056352491852E-04
1.2	0.6	5.23688736690744E-04
1.2	0.65	5.31779947551297E-04
1.2	0.7	5.38197664435267E-04
1.2	0.75	5.43564089169224E-04
1.2	0.8	5.48279970578152E-04
1.2	0.85	5.52586444872417E-04
1.2	0.9	5.56620220996887E-04
1.2	0.95	5.60460965963116E-04
1.2	1.0	5.64155063244037E-04
1.2	1.05	5.67731504416533E-04
1.2	1.1	5.71211321411534E-04
1.2	1.15	5.74608518003402E-04
1.2	1.2	5.77934244353977E-04