vg	vd	ids
0.0	0.0	-3.58938759795652E-17
0.0	0.05	4.31856262445736E-12
0.0	0.1	5.93166051651878E-12
0.0	0.15	7.68488836197738E-12
0.0	0.2	1.00350333245301E-11
0.0	0.25	1.32415881564073E-11
0.0	0.3	1.76609023311400E-11
0.0	0.35	2.38079275897167E-11
0.0	0.4	3.24226962721481E-11
0.0	0.45	4.45714110139627E-11
0.0	0.5	6.17732514501764E-11
0.0	0.55	8.62513166899092E-11
0.0	0.6	1.21193113458172E-10
0.0	0.65	1.71191143989923E-10
0.0	0.7	2.42801022273226E-10
0.0	0.75	3.45359587632608E-10
0.0	0.8	4.92153141049968E-10
0.0	0.85	7.01935614256460E-10
0.0	0.9	1.00120853891682E-09
0.0	0.95	1.42701282297357E-09
0.0	1.0	2.03105761239703E-09
0.0	1.05	2.88505977844259E-09
0.0	1.1	4.08794341945252E-09
0.0	1.15	5.77529365705780E-09
0.0	1.2	8.13190675898414E-09
0.1	0.0	5.20777178030513E-17
0.1	0.05	7.79364444450709E-11
0.1	0.1	1.02296221241590E-10
0.1	0.15	1.25158551008919E-10
0.1	0.2	1.53264785221077E-10
0.1	0.25	1.88521332104083E-10
0.1	0.3	2.33150889804632E-10
0.1	0.35	2.90157360351022E-10
0.1	0.4	3.63618452729056E-10
0.1	0.45	4.59069415349878E-10
0.1	0.5	5.84118087081844E-10
0.1	0.55	7.49123420477200E-10
0.1	0.6	9.68325336517753E-10
0.1	0.65	1.26119753369955E-09
0.1	0.7	1.65422874901159E-09
0.1	0.75	2.18356739748484E-09
0.1	0.8	2.89773549953909E-09
0.1	0.85	3.86416465810064E-09
0.1	0.9	5.17396320406692E-09
0.1	0.95	6.94996678617562E-09
0.1	1.0	9.35769917990811E-09
0.1	1.05	1.26187002117073E-08
0.1	1.1	1.70281579052289E-08
0.1	1.15	2.29770450368208E-08
0.1	1.2	3.09801312900615E-08
0.2	0.0	1.35477543106573E-17
0.2	0.05	1.63929480935673E-09
0.2	0.1	2.10827295522033E-09
0.2	0.15	2.50464487202114E-09
0.2	0.2	2.96250421460807E-09
0.2	0.25	3.50288967089645E-09
0.2	0.3	4.14416146583793E-09
0.2	0.35	4.90922660547397E-09
0.2	0.4	5.82704806263571E-09
0.2	0.45	6.93417481810375E-09
0.2	0.5	8.27805763449346E-09
0.2	0.55	9.91873848796347E-09
0.2	0.6	1.19335807097715E-08
0.2	0.65	1.44220050512791E-08
0.2	0.7	1.75122647433632E-08
0.2	0.75	2.13699424342597E-08
0.2	0.8	2.62093652788460E-08
0.2	0.85	3.23061433289436E-08
0.2	0.9	4.00150944389788E-08
0.2	0.95	4.97904013125059E-08
0.2	1.0	6.22148210879320E-08
0.2	1.05	7.80300823303456E-08
0.2	1.1	9.81720432625344E-08
0.2	1.15	1.23807640524787E-07
0.2	1.2	1.56414290589382E-07
0.3	0.0	9.54849425072006E-18
0.3	0.05	3.63647788673258E-08
0.3	0.1	4.64865198336209E-08
0.3	0.15	5.43945506101801E-08
0.3	0.2	6.30933102119772E-08
0.3	0.25	7.29160289015718E-08
0.3	0.3	8.40485257790732E-08
0.3	0.35	9.66973741586432E-08
0.3	0.4	1.11111438070746E-07
0.3	0.45	1.27572022197166E-07
0.3	0.5	1.46414710343095E-07
0.3	0.55	1.68037780842153E-07
0.3	0.6	1.92916033265433E-07
0.3	0.65	2.21614475405913E-07
0.3	0.7	2.54809955441475E-07
0.3	0.75	2.93313494728991E-07
0.3	0.8	3.38095263720086E-07
0.3	0.85	3.90319369176677E-07
0.3	0.9	4.51379809945080E-07
0.3	0.95	5.22938767374657E-07
0.3	1.0	6.06979333035854E-07
0.3	1.05	7.05854687583595E-07
0.3	1.1	8.22337018215660E-07
0.3	1.15	9.59692572196639E-07
0.3	1.2	1.12172077979079E-06
0.4	0.0	7.56299371175876E-18
0.4	0.05	7.27489608585973E-07
0.4	0.1	9.37427832270545E-07
0.4	0.15	1.08199133657715E-06
0.4	0.2	1.22934858402410E-06
0.4	0.25	1.38665691460378E-06
0.4	0.3	1.55572783197425E-06
0.4	0.35	1.73788923975118E-06
0.4	0.4	1.93449302426615E-06
0.4	0.45	2.14686510878332E-06
0.4	0.5	2.37639639178422E-06
0.4	0.55	2.62454051622725E-06
0.4	0.6	2.89286706499710E-06
0.4	0.65	3.18308078618465E-06
0.4	0.7	3.49703239706707E-06
0.4	0.75	3.83677674474431E-06
0.4	0.8	4.20455733760540E-06
0.4	0.85	4.60287631403578E-06
0.4	0.9	5.03449063759740E-06
0.4	0.95	5.50245377422515E-06
0.4	1.0	6.01015542089818E-06
0.4	1.05	6.56130274359846E-06
0.4	1.1	7.15999910091230E-06
0.4	1.15	7.81070610183496E-06
0.4	1.2	8.51825930955934E-06
0.5	0.0	-3.57616008966600E-17
0.5	0.05	6.98032154562865E-06
0.5	0.1	9.65082911419662E-06
0.5	0.15	1.09791748340943E-05
0.5	0.2	1.20470948912261E-05
0.5	0.25	1.30676074949851E-05
0.5	0.3	1.40800298498313E-05
0.5	0.35	1.50981964049721E-05
0.5	0.4	1.61302366997887E-05
0.5	0.45	1.71812397022896E-05
0.5	0.5	1.82547829834460E-05
0.5	0.55	1.93538127204512E-05
0.5	0.6	2.04805823762258E-05
0.5	0.65	2.16374719552452E-05
0.5	0.7	2.28264901456256E-05
0.5	0.75	2.40498375221725E-05
0.5	0.8	2.53097737997194E-05
0.5	0.85	2.66085649263171E-05
0.5	0.9	2.79489051903347E-05
0.5	0.95	2.93334265086259E-05
0.5	1.0	3.07651982557549E-05
0.5	1.05	3.22474899696812E-05
0.5	1.1	3.37838076045769E-05
0.5	1.15	3.53779557455897E-05
0.5	1.2	3.70340564979946E-05
0.6	0.0	9.63739317191846E-17
0.6	0.05	2.13438569048842E-05
0.6	0.1	3.38341384642017E-05
0.6	0.15	4.04777270202294E-05
0.6	0.2	4.43342658813575E-05
0.6	0.25	4.72180417591327E-05
0.6	0.3	4.97634576084396E-05
0.6	0.35	5.21563853320938E-05
0.6	0.4	5.44689450636171E-05
0.6	0.45	5.67380503149195E-05
0.6	0.5	5.89840829190690E-05
0.6	0.55	6.12203781981758E-05
0.6	0.6	6.34556189695364E-05
0.6	0.65	6.56962672217952E-05
0.6	0.7	6.79479429549497E-05
0.6	0.75	7.02148118324710E-05
0.6	0.8	7.25011448828207E-05
0.6	0.85	7.48106344489376E-05
0.6	0.9	7.71468341152305E-05
0.6	0.95	7.95136233421353E-05
0.6	1.0	8.19144169713401E-05
0.6	1.05	8.43531418601546E-05
0.6	1.1	8.68339212029443E-05
0.6	1.15	8.93607008606559E-05
0.6	1.2	9.19377995762149E-05
0.7	0.0	-6.71695262068778E-18
0.7	0.05	3.75115348584147E-05
0.7	0.1	6.43777962580636E-05
0.7	0.15	8.22840835460928E-05
0.7	0.2	9.35642271294460E-05
0.7	0.25	1.00791696895285E-04
0.7	0.3	1.06023329006190E-04
0.7	0.35	1.10361866991971E-04
0.7	0.4	1.14260225549603E-04
0.7	0.45	1.17918846653222E-04
0.7	0.5	1.21436178477414E-04
0.7	0.55	1.24863110703493E-04
0.7	0.6	1.28229597799331E-04
0.7	0.65	1.31555137817227E-04
0.7	0.7	1.34853239155330E-04
0.7	0.75	1.38133666264134E-04
0.7	0.8	1.41405213251921E-04
0.7	0.85	1.44674631692612E-04
0.7	0.9	1.47947892262551E-04
0.7	0.95	1.51230753686243E-04
0.7	1.0	1.54528658995009E-04
0.7	1.05	1.57846418808328E-04
0.7	1.1	1.61189510019322E-04
0.7	1.15	1.64562982764050E-04
0.7	1.2	1.67971726404776E-04
0.8	0.0	-2.47795710645295E-17
0.8	0.05	5.30310733348102E-05
0.8	0.1	9.47121571820843E-05
0.8	0.15	1.26072646642555E-04
0.8	0.2	1.48626243498272E-04
0.8	0.25	1.64254020233919E-04
0.8	0.3	1.75052670635280E-04
0.8	0.35	1.82946577407334E-04
0.8	0.4	1.89272680841399E-04
0.8	0.45	1.94761040653174E-04
0.8	0.5	1.99774954162514E-04
0.8	0.55	2.04510823067177E-04
0.8	0.6	2.09068595724427E-04
0.8	0.65	2.13503631571913E-04
0.8	0.7	2.17850065372053E-04
0.8	0.75	2.22130512443930E-04
0.8	0.8	2.26361762746932E-04
0.8	0.85	2.30556877298250E-04
0.8	0.9	2.34726462878800E-04
0.8	0.95	2.38880262134822E-04
0.8	1.0	2.43024548612141E-04
0.8	1.05	2.47168423364810E-04
0.8	1.1	2.51318375823792E-04
0.8	1.15	2.55479721694571E-04
0.8	1.2	2.59661024030817E-04
0.9	0.0	1.63749634636628E-17
0.9	0.05	6.73895009878854E-05
0.9	0.1	1.23160562006328E-04
0.9	0.15	1.67981944754845E-04
0.9	0.2	2.02920812077277E-04
0.9	0.25	2.29310167882080E-04
0.9	0.3	2.48721100869303E-04
0.9	0.35	2.62889749004584E-04
0.9	0.4	2.73509051920118E-04
0.9	0.45	2.81941558510028E-04
0.9	0.5	2.89090838618359E-04
0.9	0.55	2.95489763446687E-04
0.9	0.6	3.01434020501062E-04
0.9	0.65	3.07090017590035E-04
0.9	0.7	3.12548206720156E-04
0.9	0.75	3.17862005388952E-04
0.9	0.8	3.23066689064929E-04
0.9	0.85	3.28188320023420E-04
0.9	0.9	3.33244626735921E-04
0.9	0.95	3.38251151557292E-04
0.9	1.0	3.43220023235870E-04
0.9	1.05	3.48161861829859E-04
0.9	1.1	3.53088504516393E-04
0.9	1.15	3.58005016568277E-04
0.9	1.2	3.62923920476244E-04
1.0	0.0	-2.44816223521040E-17
1.0	0.05	8.04783477276061E-05
1.0	0.1	1.49306925803128E-04
1.0	0.15	2.06919113400231E-04
1.0	0.2	2.54111001488049E-04
1.0	0.25	2.91882592999054E-04
1.0	0.3	3.21409677041256E-04
1.0	0.35	3.44034478431477E-04
1.0	0.4	3.61224690542526E-04
1.0	0.45	3.74452347989765E-04
1.0	0.5	3.85007020189878E-04
1.0	0.55	3.93861136523184E-04
1.0	0.6	4.01667527658139E-04
1.0	0.65	4.08827698196572E-04
1.0	0.7	4.15568613200016E-04
1.0	0.75	4.22022747576065E-04
1.0	0.8	4.28270030149892E-04
1.0	0.85	4.34360103725812E-04
1.0	0.9	4.40327346628556E-04
1.0	0.95	4.46198949301344E-04
1.0	1.0	4.51995371818221E-04
1.0	1.05	4.57731735341294E-04
1.0	1.1	4.63425793987226E-04
1.0	1.15	4.69086516942608E-04
1.0	1.2	4.74726818145549E-04
1.1	0.0	-2.40691378730942E-17
1.1	0.05	9.23132642713039E-05
1.1	0.1	1.73089170607247E-04
1.1	0.15	2.42595814742439E-04
1.1	0.2	3.01446112435386E-04
1.1	0.25	3.50422646638466E-04
1.1	0.3	3.90439761900237E-04
1.1	0.35	4.22537568307827E-04
1.1	0.4	4.47879300138759E-04
1.1	0.45	4.67726177986548E-04
1.1	0.5	4.83362464236459E-04
1.1	0.55	4.95973163989036E-04
1.1	0.6	5.06532058810834E-04
1.1	0.65	5.15759290830473E-04
1.1	0.7	5.24136771994888E-04
1.1	0.75	5.31960053668561E-04
1.1	0.8	5.39398591534159E-04
1.1	0.85	5.46558277281001E-04
1.1	0.9	5.53506958294725E-04
1.1	0.95	5.60292281879468E-04
1.1	1.0	5.66947210686461E-04
1.1	1.05	5.73501247667044E-04
1.1	1.1	5.79973804780673E-04
1.1	1.15	5.86383361342846E-04
1.1	1.2	5.92746203451820E-04
1.2	0.0	4.34110115728291E-17
1.2	0.05	1.02964469330119E-04
1.2	0.1	1.94589823864309E-04
1.2	0.15	2.75025842376467E-04
1.2	0.2	3.44755856221294E-04
1.2	0.25	4.04411470517644E-04
1.2	0.3	4.54727677530917E-04
1.2	0.35	4.96532658321806E-04
1.2	0.4	5.30748982084650E-04
1.2	0.45	5.58394305389824E-04
1.2	0.5	5.80565274730139E-04
1.2	0.55	5.98390346935198E-04
1.2	0.6	6.12945951779949E-04
1.2	0.65	6.25171665284511E-04
1.2	0.7	6.35813770774108E-04
1.2	0.75	6.45408569077237E-04
1.2	0.8	6.54308753128534E-04
1.2	0.85	6.62724234255110E-04
1.2	0.9	6.70785405957686E-04
1.2	0.95	6.78576435894050E-04
1.2	1.0	6.86160331441798E-04
1.2	1.05	6.93580318116530E-04
1.2	1.1	7.00869907052608E-04
1.2	1.15	7.08054709141922E-04
1.2	1.2	7.15157207911461E-04