vg	vd	ids
0.0	0.0	-8.16119835426777E-18
0.0	0.05	2.59549303085524E-12
0.0	0.1	3.30473201240240E-12
0.0	0.15	3.92645715142283E-12
0.0	0.2	4.67823042175591E-12
0.0	0.25	5.60906694830598E-12
0.0	0.3	6.77345965673274E-12
0.0	0.35	8.24476254756082E-12
0.0	0.4	1.01214294589005E-11
0.0	0.45	1.25378299875766E-11
0.0	0.5	1.56752462765519E-11
0.0	0.55	1.97808423554505E-11
0.0	0.6	2.51914437700591E-11
0.0	0.65	3.23639163947139E-11
0.0	0.7	4.19185001071042E-11
0.0	0.75	5.46935687103629E-11
0.0	0.8	7.18520338639380E-11
0.0	0.85	9.49662399777580E-11
0.0	0.9	1.26190074570361E-10
0.0	0.95	1.68423048214442E-10
0.0	1.0	2.25578716665565E-10
0.0	1.05	3.03003807913019E-10
0.0	1.1	4.07850260487064E-10
0.0	1.15	5.49766852065996E-10
0.0	1.2	7.41658742564249E-10
0.1	0.0	-3.76990681148431E-18
0.1	0.05	6.23749121026148E-11
0.1	0.1	7.75663992126875E-11
0.1	0.15	8.92252686642224E-11
0.1	0.2	1.02397852480317E-10
0.1	0.25	1.17689423300788E-10
0.1	0.3	1.35564856147667E-10
0.1	0.35	1.56608684317856E-10
0.1	0.4	1.81563404413369E-10
0.1	0.45	2.11377065928967E-10
0.1	0.5	2.47266828515622E-10
0.1	0.55	2.90794524757620E-10
0.1	0.6	3.43988888354845E-10
0.1	0.65	4.09473853884473E-10
0.1	0.7	4.90665136104826E-10
0.1	0.75	5.91986120729283E-10
0.1	0.8	7.19220909854345E-10
0.1	0.85	8.79934816544688E-10
0.1	0.9	1.08392971013587E-09
0.1	0.95	1.34389798952722E-09
0.1	1.0	1.67662077709449E-09
0.1	1.05	2.10346388991011E-09
0.1	1.1	2.65226837282836E-09
0.1	1.15	3.35973191827470E-09
0.1	1.2	4.27333312981749E-09
0.2	0.0	-9.40907154590608E-18
0.2	0.05	1.63529163645546E-09
0.2	0.1	2.01474318960442E-09
0.2	0.15	2.28118289105894E-09
0.2	0.2	2.56829683552629E-09
0.2	0.25	2.88771368314275E-09
0.2	0.3	3.24459425136652E-09
0.2	0.35	3.64501391341310E-09
0.2	0.4	4.09608920903489E-09
0.2	0.45	4.60651499403383E-09
0.2	0.5	5.18658258974378E-09
0.2	0.55	5.84890874554937E-09
0.2	0.6	6.60876482600107E-09
0.2	0.65	7.48474160102272E-09
0.2	0.7	8.49980399347188E-09
0.2	0.75	9.68222986100936E-09
0.2	0.8	1.10666785309323E-08
0.2	0.85	1.26960668566521E-08
0.2	0.9	1.46235481025594E-08
0.2	0.95	1.69150739880064E-08
0.2	1.0	1.96526650463876E-08
0.2	1.05	2.29374437248378E-08
0.2	1.1	2.68949820002074E-08
0.2	1.15	3.16813712103667E-08
0.2	1.2	3.74902945016718E-08
0.3	0.0	5.88110687662351E-18
0.3	0.05	4.39946181094322E-08
0.3	0.1	5.41611717053345E-08
0.3	0.15	6.08406540549636E-08
0.3	0.2	6.77547881701080E-08
0.3	0.25	7.51992143675958E-08
0.3	0.3	8.32470154804095E-08
0.3	0.35	9.19742740473993E-08
0.3	0.4	1.01462779404352E-07
0.3	0.45	1.11802081326696E-07
0.3	0.5	1.23093014273730E-07
0.3	0.55	1.35453567755827E-07
0.3	0.6	1.49013970843902E-07
0.3	0.65	1.63925480512641E-07
0.3	0.7	1.80361335178966E-07
0.3	0.75	1.98522312635466E-07
0.3	0.8	2.18639650692310E-07
0.3	0.85	2.40983076937619E-07
0.3	0.9	2.65864130221139E-07
0.3	0.95	2.93647198225254E-07
0.3	1.0	3.24755237778139E-07
0.3	1.05	3.59683857437753E-07
0.3	1.1	3.99009258888002E-07
0.3	1.15	4.43403681286901E-07
0.3	1.2	4.93651294289227E-07
0.4	0.0	-7.16431662653431E-18
0.4	0.05	1.04590596788683E-06
0.4	0.1	1.30412618180906E-06
0.4	0.15	1.45324010007117E-06
0.4	0.2	1.59667632473715E-06
0.4	0.25	1.74408038669579E-06
0.4	0.3	1.89691027957989E-06
0.4	0.35	2.05600702875420E-06
0.4	0.4	2.22207132393618E-06
0.4	0.45	2.39575397692927E-06
0.4	0.5	2.57771537533785E-06
0.4	0.55	2.76857681544856E-06
0.4	0.6	2.96901350228523E-06
0.4	0.65	3.17968056766303E-06
0.4	0.7	3.40131559197319E-06
0.4	0.75	3.63466414665297E-06
0.4	0.8	3.88055734299726E-06
0.4	0.85	4.13986973841499E-06
0.4	0.9	4.41355978222788E-06
0.4	0.95	4.70265714346031E-06
0.4	1.0	5.00830495574360E-06
0.4	1.05	5.33171193974477E-06
0.4	1.1	5.67424785084116E-06
0.4	1.15	6.03737069659138E-06
0.4	1.2	6.42269009155927E-06
0.5	0.0	-2.29680950490143E-17
0.5	0.05	1.02739084448447E-05
0.5	0.1	1.41413166700613E-05
0.5	0.15	1.57507733723116E-05
0.5	0.2	1.68892839259222E-05
0.5	0.25	1.79351914221392E-05
0.5	0.3	1.89465600185165E-05
0.5	0.35	1.99395865642963E-05
0.5	0.4	2.09233588837623E-05
0.5	0.45	2.19037806890735E-05
0.5	0.5	2.28851035921304E-05
0.5	0.55	2.38705616940480E-05
0.5	0.6	2.48626609883986E-05
0.5	0.65	2.58635999975891E-05
0.5	0.7	2.68752051226673E-05
0.5	0.75	2.78992322997350E-05
0.5	0.8	2.89371075793182E-05
0.5	0.85	2.99905076903931E-05
0.5	0.9	3.10606982128955E-05
0.5	0.95	3.21492399624039E-05
0.5	1.0	3.32575327742026E-05
0.5	1.05	3.43870635356672E-05
0.5	1.1	3.55392925429808E-05
0.5	1.15	3.67159622646024E-05
0.5	1.2	3.79186498760649E-05
0.6	0.0	1.23927063300952E-17
0.6	0.05	2.94742063604791E-05
0.6	0.1	4.73264084575026E-05
0.6	0.15	5.67427887507630E-05
0.6	0.2	6.16248092024951E-05
0.6	0.25	6.48390160833441E-05
0.6	0.3	6.75306799439654E-05
0.6	0.35	6.99946683914244E-05
0.6	0.4	7.23224714005620E-05
0.6	0.45	7.45590726381021E-05
0.6	0.5	7.67316503151811E-05
0.6	0.55	7.88576478296271E-05
0.6	0.6	8.09498494223428E-05
0.6	0.65	8.30166575010050E-05
0.6	0.7	8.50656451379502E-05
0.6	0.75	8.71021241217751E-05
0.6	0.8	8.91307145339578E-05
0.6	0.85	9.11554947293024E-05
0.6	0.9	9.31800464220423E-05
0.6	0.95	9.52070930102438E-05
0.6	1.0	9.72397435137476E-05
0.6	1.05	9.92807153653819E-05
0.6	1.1	1.01332248494826E-04
0.6	1.15	1.03396511033225E-04
0.6	1.2	1.05476785809993E-04
0.7	0.0	-4.09171063131162E-18
0.7	0.05	4.97715690537723E-05
0.7	0.1	8.64987161842557E-05
0.7	0.15	1.11617472697707E-04
0.7	0.2	1.27443299784360E-04
0.7	0.25	1.36983455059649E-04
0.7	0.3	1.43202809764903E-04
0.7	0.35	1.47994670891541E-04
0.7	0.4	1.52138605893877E-04
0.7	0.45	1.55919012266508E-04
0.7	0.5	1.59466624383632E-04
0.7	0.55	1.62853122784992E-04
0.7	0.6	1.66122805766296E-04
0.7	0.65	1.69303256689068E-04
0.7	0.7	1.72414925768335E-04
0.7	0.75	1.75471943571259E-04
0.7	0.8	1.78485422597041E-04
0.7	0.85	1.81464772606117E-04
0.7	0.9	1.84416893750270E-04
0.7	0.95	1.87348238189809E-04
0.7	1.0	1.90263984619655E-04
0.7	1.05	1.93168510027383E-04
0.7	1.1	1.96066899791447E-04
0.7	1.15	1.98962356437025E-04
0.7	1.2	2.01857746329427E-04
0.8	0.0	-1.14052883204922E-17
0.8	0.05	6.83740473510303E-05
0.8	0.1	1.23570521577350E-04
0.8	0.15	1.66244206442682E-04
0.8	0.2	1.97632470823136E-04
0.8	0.25	2.19501322974505E-04
0.8	0.3	2.34134579571965E-04
0.8	0.35	2.44065807606766E-04
0.8	0.4	2.51427241157770E-04
0.8	0.45	2.57469039623368E-04
0.8	0.5	2.62777913722387E-04
0.8	0.55	2.67641301261643E-04
0.8	0.6	2.72210985368646E-04
0.8	0.65	2.76573698488102E-04
0.8	0.7	2.80782491772776E-04
0.8	0.75	2.84871864492568E-04
0.8	0.8	2.88865690287338E-04
0.8	0.85	2.92783826925291E-04
0.8	0.9	2.96639329588954E-04
0.8	0.95	3.00442195238251E-04
0.8	1.0	3.04203961632386E-04
0.8	1.05	3.07932409116372E-04
0.8	1.1	3.11631249735206E-04
0.8	1.15	3.15308683666551E-04
0.8	1.2	3.18972456135508E-04
0.9	0.0	-3.25700371096770E-18
0.9	0.05	8.47926165917526E-05
0.9	0.1	1.56751721778584E-04
0.9	0.15	2.16129325423105E-04
0.9	0.2	2.63622793030483E-04
0.9	0.25	3.00270523999381E-04
0.9	0.3	3.27472274452442E-04
0.9	0.35	3.47008184867239E-04
0.9	0.4	3.60939775019647E-04
0.9	0.45	3.71262783401254E-04
0.9	0.5	3.79470212445305E-04
0.9	0.55	3.86441398087888E-04
0.9	0.6	3.92660783551230E-04
0.9	0.65	3.98404183331758E-04
0.9	0.7	4.03826249903658E-04
0.9	0.75	4.09015662490763E-04
0.9	0.8	4.14028674804042E-04
0.9	0.85	4.18901465282652E-04
0.9	0.9	4.23663667800712E-04
0.9	0.95	4.28332368608107E-04
0.9	1.0	4.32924929364941E-04
0.9	1.05	4.37455625333191E-04
0.9	1.1	4.41931879732578E-04
0.9	1.15	4.46364396959926E-04
0.9	1.2	4.50763574452385E-04
1.0	0.0	-2.76603341755712E-17
1.0	0.05	9.90601511783321E-05
1.0	0.1	1.85825081086983E-04
1.0	0.15	2.60321430952070E-04
1.0	0.2	3.22949207749224E-04
1.0	0.25	3.74346334160726E-04
1.0	0.3	4.15384879047836E-04
1.0	0.35	4.47198545653120E-04
1.0	0.4	4.71209794780913E-04
1.0	0.45	4.89091979616947E-04
1.0	0.5	5.02584579014972E-04
1.0	0.55	5.13196163861495E-04
1.0	0.6	5.22000266447062E-04
1.0	0.65	5.29672094518739E-04
1.0	0.7	5.36625024772014E-04
1.0	0.75	5.43105172494776E-04
1.0	0.8	5.49255861902854E-04
1.0	0.85	5.55157949741032E-04
1.0	0.9	5.60873535436822E-04
1.0	0.95	5.66434096236695E-04
1.0	1.0	5.71872491847204E-04
1.0	1.05	5.77209465425732E-04
1.0	1.1	5.82459389830704E-04
1.0	1.15	5.87638317794803E-04
1.0	1.2	5.92756346608916E-04
1.1	0.0	-3.52405794122776E-18
1.1	0.05	1.11376447549690E-04
1.1	0.1	2.11054253852585E-04
1.1	0.15	2.98935112299623E-04
1.1	0.2	3.75250995173413E-04
1.1	0.25	4.40410736248997E-04
1.1	0.3	4.94979719470720E-04
1.1	0.35	5.39690983530703E-04
1.1	0.4	5.75476552743075E-04
1.1	0.45	6.03492596042183E-04
1.1	0.5	6.25104815017161E-04
1.1	0.55	6.41794432281765E-04
1.1	0.6	6.54967176368315E-04
1.1	0.65	6.65763760862591E-04
1.1	0.7	6.75008752816226E-04
1.1	0.75	6.83243344061775E-04
1.1	0.8	6.90816687764487E-04
1.1	0.85	6.97934144937981E-04
1.1	0.9	7.04722909923702E-04
1.1	0.95	7.11258998286511E-04
1.1	1.0	7.17598337706248E-04
1.1	1.05	7.23775124225185E-04
1.1	1.1	7.29822740432863E-04
1.1	1.15	7.35758516490269E-04
1.1	1.2	7.41604414695262E-04
1.2	0.0	-1.35172282190666E-17
1.2	0.05	1.21994253410536E-04
1.2	0.1	2.32872824708058E-04
1.2	0.15	3.32473144337430E-04
1.2	0.2	4.20935794194821E-04
1.2	0.25	4.98540036497694E-04
1.2	0.3	5.65672491404385E-04
1.2	0.35	6.22826278403796E-04
1.2	0.4	6.70622270913970E-04
1.2	0.45	7.09833733929727E-04
1.2	0.5	7.41408207435668E-04
1.2	0.55	7.66470756632593E-04
1.2	0.6	7.86269112153207E-04
1.2	0.65	8.02064328491850E-04
1.2	0.7	8.14980061190171E-04
1.2	0.75	8.25909962467553E-04
1.2	0.8	8.35514871207304E-04
1.2	0.85	8.44238050958902E-04
1.2	0.9	8.52355172282550E-04
1.2	0.95	8.60042414925960E-04
1.2	1.0	8.67402588602262E-04
1.2	1.05	8.74510003859201E-04
1.2	1.1	8.81415331537137E-04
1.2	1.15	8.88153992931758E-04
1.2	1.2	8.94760382754710E-04