vg	vd	ids
0.0	0.0	-2.70544723957066E-16
0.0	0.05	4.20595588194624E-14
0.0	0.1	4.75162348504912E-14
0.0	0.15	4.91873141736358E-14
0.0	0.2	5.05681481188526E-14
0.0	0.25	5.14800656566877E-14
0.0	0.3	5.31929987084696E-14
0.0	0.35	5.41486503215186E-14
0.0	0.4	5.54628560000429E-14
0.0	0.45	5.69398353647854E-14
0.0	0.5	5.81872783890798E-14
0.0	0.55	5.95781575774253E-14
0.0	0.6	6.08037477417479E-14
0.0	0.65	6.27643866237955E-14
0.0	0.7	6.41610890124015E-14
0.0	0.75	6.57444943545666E-14
0.0	0.8	6.71267350749842E-14
0.0	0.85	6.83551185743375E-14
0.0	0.9	6.98787689067946E-14
0.0	0.95	7.14261118459639E-14
0.0	1.0	7.32331268369182E-14
0.0	1.05	5.48667964470345E-14
0.0	1.1	7.64707138022973E-14
0.0	1.15	5.86994950619105E-14
0.0	1.2	6.26108725023361E-14
0.1	0.0	3.43855944646790E-17
0.1	0.05	1.37171118304624E-12
0.1	0.1	1.56241665276205E-12
0.1	0.15	1.61693503980846E-12
0.1	0.2	1.66099438335148E-12
0.1	0.25	1.70546103678792E-12
0.1	0.3	1.74995615479832E-12
0.1	0.35	1.79608944168016E-12
0.1	0.4	1.84122165929824E-12
0.1	0.45	1.88773705658905E-12
0.1	0.5	1.93517472677106E-12
0.1	0.55	1.98364733833359E-12
0.1	0.6	2.03185691785410E-12
0.1	0.65	2.08205125316713E-12
0.1	0.7	2.13265559389034E-12
0.1	0.75	2.18431780849129E-12
0.1	0.8	2.23643718657977E-12
0.1	0.85	2.29011201059520E-12
0.1	0.9	2.34410707825232E-12
0.1	0.95	2.39992963399071E-12
0.1	1.0	2.45616870019640E-12
0.1	1.05	2.51365711225971E-12
0.1	1.1	2.57254175697174E-12
0.1	1.15	2.63259897357217E-12
0.1	1.2	2.69381462585218E-12
0.2	0.0	-2.27465275424239E-16
0.2	0.05	4.59207913697122E-11
0.2	0.1	5.24656245102013E-11
0.2	0.15	5.44006979632546E-11
0.2	0.2	5.59780990265065E-11
0.2	0.25	5.75538889491584E-11
0.2	0.3	5.91454456273796E-11
0.2	0.35	6.07549059899524E-11
0.2	0.4	6.23843007913732E-11
0.2	0.45	6.40064159233596E-11
0.2	0.5	6.56891768056928E-11
0.2	0.55	6.73968696714597E-11
0.2	0.6	6.91321869081166E-11
0.2	0.65	7.08893028546408E-11
0.2	0.7	7.26719265508550E-11
0.2	0.75	7.44863600566391E-11
0.2	0.8	7.63331253591168E-11
0.2	0.85	7.82122238883632E-11
0.2	0.9	8.01252250489478E-11
0.2	0.95	8.20740525328702E-11
0.2	1.0	8.40598489305821E-11
0.2	1.05	8.60836843035111E-11
0.2	1.1	8.81473077814483E-11
0.2	1.15	9.02513217611102E-11
0.2	1.2	9.23967822907961E-11
0.3	0.0	-7.99219331846372E-17
0.3	0.05	1.55877322752313E-09
0.3	0.1	1.78690555979256E-09
0.3	0.15	1.85657798851989E-09
0.3	0.2	1.91330765918536E-09
0.3	0.25	1.96975991377602E-09
0.3	0.3	2.02662002212707E-09
0.3	0.35	2.08400802365768E-09
0.3	0.4	2.14119761819639E-09
0.3	0.45	2.20037712627198E-09
0.3	0.5	2.26004886514166E-09
0.3	0.55	2.32039298299032E-09
0.3	0.6	2.38158643208511E-09
0.3	0.65	2.44370800441542E-09
0.3	0.7	2.50680484207638E-09
0.3	0.75	2.57091751440146E-09
0.3	0.8	2.63609560746546E-09
0.3	0.85	2.70238884308214E-09
0.3	0.9	2.76984104273894E-09
0.3	0.95	2.83849573671834E-09
0.3	1.0	2.90839544778017E-09
0.3	1.05	2.97958221301022E-09
0.3	1.1	3.05209848955428E-09
0.3	1.15	3.12598768706089E-09
0.3	1.2	3.20129039278205E-09
0.4	0.0	7.90039345389837E-17
0.4	0.05	5.24591340796944E-08
0.4	0.1	6.04821181552561E-08
0.4	0.15	6.29887581003157E-08
0.4	0.2	6.50016667155543E-08
0.4	0.25	6.69868868491650E-08
0.4	0.3	6.89755262961540E-08
0.4	0.35	7.09538883844901E-08
0.4	0.4	7.29826118071039E-08
0.4	0.45	7.50198811365367E-08
0.4	0.5	7.70742324428997E-08
0.4	0.55	7.91526689100285E-08
0.4	0.6	8.12568710387460E-08
0.4	0.65	8.33888630583149E-08
0.4	0.7	8.55504742285594E-08
0.4	0.75	8.77433604650017E-08
0.4	0.8	8.99690818414318E-08
0.4	0.85	9.22290989216317E-08
0.4	0.9	9.45248161568473E-08
0.4	0.95	9.68576018294910E-08
0.4	1.0	9.92287872241688E-08
0.4	1.05	1.01639685410211E-07
0.4	1.1	1.04091586976186E-07
0.4	1.15	1.06585768836359E-07
0.4	1.2	1.09123500872524E-07
0.5	0.0	-1.16103406929795E-16
0.5	0.05	1.34104936640758E-06
0.5	0.1	1.60630211712356E-06
0.5	0.15	1.68095131668000E-06
0.5	0.2	1.73245558341567E-06
0.5	0.25	1.78102003087177E-06
0.5	0.3	1.82884715486919E-06
0.5	0.35	1.87619411191359E-06
0.5	0.4	1.92344986726101E-06
0.5	0.45	1.97059117990817E-06
0.5	0.5	2.01779901462669E-06
0.5	0.55	2.06514216585647E-06
0.5	0.6	2.11268022632630E-06
0.5	0.65	2.16046153343180E-06
0.5	0.7	2.20852751769234E-06
0.5	0.75	2.25691243713770E-06
0.5	0.8	2.30564774689140E-06
0.5	0.85	2.35476038342855E-06
0.5	0.9	2.40427516327724E-06
0.5	0.95	2.45421507387316E-06
0.5	1.0	2.50460019947392E-06
0.5	1.05	2.55545074295259E-06
0.5	1.1	2.60678465382099E-06
0.5	1.15	2.65861855358189E-06
0.5	1.2	2.71096933592376E-06
0.6	0.0	1.86202757071024E-16
0.6	0.05	9.24321051208090E-06
0.6	0.1	1.32849550669360E-05
0.6	0.15	1.46500200995706E-05
0.6	0.2	1.51742638717225E-05
0.6	0.25	1.55253759992509E-05
0.6	0.3	1.58387161937960E-05
0.6	0.35	1.61379655529046E-05
0.6	0.4	1.64278826682054E-05
0.6	0.45	1.67119194518691E-05
0.6	0.5	1.69915669693418E-05
0.6	0.55	1.72677941850246E-05
0.6	0.6	1.75412958534206E-05
0.6	0.65	1.78125782297050E-05
0.6	0.7	1.80820553921141E-05
0.6	0.75	1.83500516655653E-05
0.6	0.8	1.86168321481809E-05
0.6	0.85	1.88826404474448E-05
0.6	0.9	1.91476461695688E-05
0.6	0.95	1.94120479461244E-05
0.6	1.0	1.96759723752474E-05
0.6	1.05	1.99395578635728E-05
0.6	1.1	2.02029345766001E-05
0.6	1.15	2.04661910777445E-05
0.6	1.2	2.07294334296933E-05
0.7	0.0	-8.39071698334815E-17
0.7	0.05	2.13303348082421E-05
0.7	0.1	3.54408511888451E-05
0.7	0.15	4.35736723023500E-05
0.7	0.2	4.75701376143818E-05
0.7	0.25	4.94175412461843E-05
0.7	0.3	5.04853940162013E-05
0.7	0.35	5.13262385464555E-05
0.7	0.4	5.20864631797064E-05
0.7	0.45	5.28058766056771E-05
0.7	0.5	5.34995335509237E-05
0.7	0.55	5.41743854520257E-05
0.7	0.6	5.48343079002405E-05
0.7	0.65	5.54820506015190E-05
0.7	0.7	5.61193505436075E-05
0.7	0.75	5.67477297387984E-05
0.7	0.8	5.73682326321310E-05
0.7	0.85	5.79817950926087E-05
0.7	0.9	5.85891640668425E-05
0.7	0.95	5.91909893405202E-05
0.7	1.0	5.97877908522263E-05
0.7	1.05	6.03800932165378E-05
0.7	1.1	6.09682785279363E-05
0.7	1.15	6.15527093254389E-05
0.7	1.2	6.21337774876215E-05
0.8	0.0	1.07917358793951E-16
0.8	0.05	3.34213814753528E-05
0.8	0.1	5.91686889037739E-05
0.8	0.15	7.77685834868058E-05
0.8	0.2	9.01377299541531E-05
0.8	0.25	9.75802676485706E-05
0.8	0.3	1.01712074870848E-04
0.8	0.35	1.04092922418340E-04
0.8	0.4	1.05755763896756E-04
0.8	0.45	1.07146585038815E-04
0.8	0.5	1.08416100274546E-04
0.8	0.55	1.09617613629583E-04
0.8	0.6	1.10773105259868E-04
0.8	0.65	1.11893801024601E-04
0.8	0.7	1.12986192426356E-04
0.8	0.75	1.14054747070374E-04
0.8	0.8	1.15102741127510E-04
0.8	0.85	1.16132811129664E-04
0.8	0.9	1.17146749868068E-04
0.8	0.95	1.18146341622177E-04
0.8	1.0	1.19132887112943E-04
0.8	1.05	1.20107524211867E-04
0.8	1.1	1.21071286310549E-04
0.8	1.15	1.22025047953341E-04
0.8	1.2	1.22969557166705E-04
0.9	0.0	8.03244805711682E-17
0.9	0.05	4.45340394290590E-05
0.9	0.1	8.14338581359638E-05
0.9	0.15	1.10909032280632E-04
0.9	0.2	1.33426390032325E-04
0.9	0.25	1.49685328896742E-04
0.9	0.3	1.60657425673640E-04
0.9	0.35	1.67586868441298E-04
0.9	0.4	1.71867175996233E-04
0.9	0.45	1.74727678899561E-04
0.9	0.5	1.76942810721995E-04
0.9	0.55	1.78869421661404E-04
0.9	0.6	1.80648188908386E-04
0.9	0.65	1.82335865877255E-04
0.9	0.7	1.83958092254756E-04
0.9	0.75	1.85529123525551E-04
0.9	0.8	1.87058116837399E-04
0.9	0.85	1.88551159008000E-04
0.9	0.9	1.90012934408607E-04
0.9	0.95	1.91447026056623E-04
0.9	1.0	1.92856287981554E-04
0.9	1.05	1.94243190492167E-04
0.9	1.1	1.95609613880669E-04
0.9	1.15	1.96957219659366E-04
0.9	1.2	1.98287585151279E-04
1.0	0.0	-1.46670508167330E-16
1.0	0.05	5.44598183323544E-05
1.0	0.1	1.01522691534755E-04
1.0	0.15	1.41231922886238E-04
1.0	0.2	1.73829901107089E-04
1.0	0.25	1.99705633499687E-04
1.0	0.3	2.19413555473262E-04
1.0	0.35	2.33702310598787E-04
1.0	0.4	2.43538572005329E-04
1.0	0.45	2.50076338199594E-04
1.0	0.5	2.54502675571751E-04
1.0	0.55	2.57777784875793E-04
1.0	0.6	2.60486342262081E-04
1.0	0.65	2.62911724597263E-04
1.0	0.7	2.65173247702666E-04
1.0	0.75	2.67324847171811E-04
1.0	0.8	2.69394058048848E-04
1.0	0.85	2.71397087401864E-04
1.0	0.9	2.73344905960308E-04
1.0	0.95	2.75245251578915E-04
1.0	1.0	2.77104124528914E-04
1.0	1.05	2.78925797607539E-04
1.0	1.1	2.80714249849157E-04
1.0	1.15	2.82472409685410E-04
1.0	1.2	2.84202737223774E-04
1.1	0.0	-3.48964838694082E-17
1.1	0.05	6.32114830158285E-05
1.1	0.1	1.19341905145958E-04
1.1	0.15	1.68342695630943E-04
1.1	0.2	2.10334716422123E-04
1.1	0.25	2.45540828517381E-04
1.1	0.3	2.74287275557567E-04
1.1	0.35	2.97019368327863E-04
1.1	0.4	3.14328344212507E-04
1.1	0.45	3.26977512486085E-04
1.1	0.5	3.35905322709067E-04
1.1	0.55	3.42160463717463E-04
1.1	0.6	3.46735019103670E-04
1.1	0.65	3.50376019827868E-04
1.1	0.7	3.53528631486016E-04
1.1	0.75	3.56410022616986E-04
1.1	0.8	3.59117414156835E-04
1.1	0.85	3.61700455716626E-04
1.1	0.9	3.64186391454735E-04
1.1	0.95	3.66593337460640E-04
1.1	1.0	3.68933218407569E-04
1.1	1.05	3.71215277260808E-04
1.1	1.1	3.73446204707866E-04
1.1	1.15	3.75631555242001E-04
1.1	1.2	3.77775884381901E-04
1.2	0.0	-3.70310462943275E-17
1.2	0.05	7.08853018037111E-05
1.2	0.1	1.35024732030558E-04
1.2	0.15	1.92319803243135E-04
1.2	0.2	2.42825029873248E-04
1.2	0.25	2.86671885002612E-04
1.2	0.3	3.24059662590788E-04
1.2	0.35	3.55260877266039E-04
1.2	0.4	3.80637688670536E-04
1.2	0.45	4.00664159385828E-04
1.2	0.5	4.15950877528250E-04
1.2	0.55	4.27260003306052E-04
1.2	0.6	4.35484305205384E-04
1.2	0.65	4.41555198252824E-04
1.2	0.7	4.46288929308691E-04
1.2	0.75	4.50266211500079E-04
1.2	0.8	4.53820500846105E-04
1.2	0.85	4.57115015101128E-04
1.2	0.9	4.60229660441996E-04
1.2	0.95	4.63207396992929E-04
1.2	1.0	4.66077242840365E-04
1.2	1.05	4.68856649624317E-04
1.2	1.1	4.71559526625092E-04
1.2	1.15	4.74194798199115E-04
1.2	1.2	4.76770981262217E-04