vg	vd	ids
0.0	0.0	1.07273189176412E-17
0.0	0.05	5.62746466876994E-11
0.0	0.1	8.41353729485187E-11
0.0	0.15	1.24356163431848E-10
0.0	0.2	1.84924472900560E-10
0.0	0.25	2.76362055334063E-10
0.0	0.3	4.14356260478475E-10
0.0	0.35	6.22402768284129E-10
0.0	0.4	9.35211368305342E-10
0.0	0.45	1.40390814988820E-09
0.0	0.5	2.10335419456522E-09
0.0	0.55	3.14225855705872E-09
0.0	0.6	4.67743097125788E-09
0.0	0.65	6.93331665354611E-09
0.0	0.7	1.02286601244278E-08
0.0	0.75	1.50123736795733E-08
0.0	0.8	2.19071494804214E-08
0.0	0.85	3.17939366795261E-08
0.0	0.9	4.58509331645281E-08
0.0	0.95	6.56977170376400E-08
0.0	1.0	9.35094792886800E-08
0.0	1.05	1.32169764781660E-07
0.0	1.1	1.85485498223312E-07
0.0	1.15	2.58403546784393E-07
0.0	1.2	3.57196426753326E-07
0.1	0.0	-1.27447645713857E-17
0.1	0.05	6.17169929420793E-10
0.1	0.1	8.45982912611492E-10
0.1	0.15	1.13958179350386E-09
0.1	0.2	1.54557220304503E-09
0.1	0.25	2.11056278327516E-09
0.1	0.3	2.90086264927121E-09
0.1	0.35	4.00816429981451E-09
0.1	0.4	5.56003818020354E-09
0.1	0.45	7.74387360325089E-09
0.1	0.5	1.08181261957492E-08
0.1	0.55	1.51465349469420E-08
0.1	0.6	2.12282744904294E-08
0.1	0.65	2.97494727864019E-08
0.1	0.7	4.16470548589322E-08
0.1	0.75	5.81902644862225E-08
0.1	0.8	8.10811104511707E-08
0.1	0.85	1.12574045026419E-07
0.1	0.9	1.55642340532886E-07
0.1	0.95	2.14263505300797E-07
0.1	1.0	2.93308982180989E-07
0.1	1.05	3.99272058916802E-07
0.1	1.1	5.40039332972551E-07
0.1	1.15	7.25469213989723E-07
0.1	1.2	9.67512656108385E-07
0.2	0.0	-9.52575737953310E-18
0.2	0.05	9.48458113460572E-09
0.2	0.1	1.22939552645829E-08
0.2	0.15	1.54403979745556E-08
0.2	0.2	1.94056002324201E-08
0.2	0.25	2.44380859429238E-08
0.2	0.3	3.08676784935480E-08
0.2	0.35	3.91286596409868E-08
0.2	0.4	4.98004833368177E-08
0.2	0.45	6.36468140556507E-08
0.2	0.5	8.16856377769717E-08
0.2	0.55	1.05220287756772E-07
0.2	0.6	1.36003480335975E-07
0.2	0.65	1.76218053124298E-07
0.2	0.7	2.28332964060372E-07
0.2	0.75	2.96850459697102E-07
0.2	0.8	3.85685597660951E-07
0.2	0.85	5.00942047733350E-07
0.2	0.9	6.49933841583391E-07
0.2	0.95	8.41585636479882E-07
0.2	1.0	1.08668517792764E-06
0.2	1.05	1.39789934057658E-06
0.2	1.1	1.79010369820348E-06
0.2	1.15	2.28022921670556E-06
0.2	1.2	2.88718178787086E-06
0.3	0.0	1.46400855927924E-17
0.3	0.05	1.72031004376681E-07
0.3	0.1	2.17581474207713E-07
0.3	0.15	2.62515524451781E-07
0.3	0.2	3.14835785195580E-07
0.3	0.25	3.76060897052226E-07
0.3	0.3	4.47967635742049E-07
0.3	0.35	5.32695902511078E-07
0.3	0.4	6.32839121544449E-07
0.3	0.45	7.51556593866359E-07
0.3	0.5	8.92671999297471E-07
0.3	0.55	1.06079546932780E-06
0.3	0.6	1.26147012044146E-06
0.3	0.65	1.50132429464597E-06
0.3	0.7	1.78820266506563E-06
0.3	0.75	2.13132386017172E-06
0.3	0.8	2.54136147169070E-06
0.3	0.85	3.03053866656567E-06
0.3	0.9	3.61266584744986E-06
0.3	0.95	4.30278328395685E-06
0.3	1.0	5.11759770558801E-06
0.3	1.05	6.07461694107908E-06
0.3	1.1	7.19224941782061E-06
0.3	1.15	8.48819814479517E-06
0.3	1.2	9.97906273205313E-06
0.4	0.0	1.73422979429404E-17
0.4	0.05	2.86709449629759E-06
0.4	0.1	3.60979918757074E-06
0.4	0.15	4.20747908545461E-06
0.4	0.2	4.84052045684218E-06
0.4	0.25	5.51948082722837E-06
0.4	0.3	6.24987440148411E-06
0.4	0.35	7.03751539884293E-06
0.4	0.4	7.88797371784150E-06
0.4	0.45	8.80627796521256E-06
0.4	0.5	9.79906786299806E-06
0.4	0.55	1.08731668574394E-05
0.4	0.6	1.20359204824808E-05
0.4	0.65	1.32964447471287E-05
0.4	0.7	1.46628476486908E-05
0.4	0.75	1.61452160068717E-05
0.4	0.8	1.77537225571636E-05
0.4	0.85	1.94994203868424E-05
0.4	0.9	2.13935043037542E-05
0.4	0.95	2.34475987945548E-05
0.4	1.0	2.56734884783763E-05
0.4	1.05	2.80823579806716E-05
0.4	1.1	3.06856138057462E-05
0.4	1.15	3.34933685863829E-05
0.4	1.2	3.65150896629441E-05
0.5	0.0	2.06589342449715E-18
0.5	0.05	2.13295986187029E-05
0.5	0.1	2.86089857722682E-05
0.5	0.15	3.21609805854047E-05
0.5	0.2	3.52144205543454E-05
0.5	0.25	3.81634691793683E-05
0.5	0.3	4.10730724751687E-05
0.5	0.35	4.39717477892826E-05
0.5	0.4	4.68776274321936E-05
0.5	0.45	4.98050878899887E-05
0.5	0.5	5.27655089237083E-05
0.5	0.55	5.57696048311691E-05
0.5	0.6	5.88273932098399E-05
0.5	0.65	6.19484838131584E-05
0.5	0.7	6.51425849970784E-05
0.5	0.75	6.84193864888450E-05
0.5	0.8	7.17888688254828E-05
0.5	0.85	7.52611072590800E-05
0.5	0.9	7.88457432190130E-05
0.5	0.95	8.25535076646917E-05
0.5	1.0	8.63934075199616E-05
0.5	1.05	9.03754908975051E-05
0.5	1.1	9.45091033998158E-05
0.5	1.15	9.88022444360986E-05
0.5	1.2	1.03263451726197E-04
0.6	0.0	2.04795991166278E-18
0.6	0.05	5.52448065225746E-05
0.6	0.1	8.48150934671311E-05
0.6	0.15	9.86995982739830E-05
0.6	0.2	1.06548109690866E-04
0.6	0.25	1.12834224918595E-04
0.6	0.3	1.18568349162545E-04
0.6	0.35	1.23983962212397E-04
0.6	0.4	1.29183068258988E-04
0.6	0.45	1.34228317156242E-04
0.6	0.5	1.39165671464639E-04
0.6	0.55	1.44028589637998E-04
0.6	0.6	1.48844611123954E-04
0.6	0.65	1.53635835844232E-04
0.6	0.7	1.58422071951316E-04
0.6	0.75	1.63220998875501E-04
0.6	0.8	1.68048176058769E-04
0.6	0.85	1.72918891172708E-04
0.6	0.9	1.77847629455862E-04
0.6	0.95	1.82847376747161E-04
0.6	1.0	1.87930157341103E-04
0.6	1.05	1.93108418278904E-04
0.6	1.1	1.98393364482416E-04
0.6	1.15	2.03794311306414E-04
0.6	1.2	2.09319428711424E-04
0.7	0.0	1.82173596349206E-17
0.7	0.05	8.86880166095309E-05
0.7	0.1	1.48116172611467E-04
0.7	0.15	1.83988898626711E-04
0.7	0.2	2.04108836366220E-04
0.7	0.25	2.16415866930085E-04
0.7	0.3	2.25850039148191E-04
0.7	0.35	2.34111663519153E-04
0.7	0.4	2.41699838974753E-04
0.7	0.45	2.48826260879634E-04
0.7	0.5	2.55619553213210E-04
0.7	0.55	2.62167282617053E-04
0.7	0.6	2.68533890278578E-04
0.7	0.65	2.74767649501617E-04
0.7	0.7	2.80906630200921E-04
0.7	0.75	2.86981600566819E-04
0.7	0.8	2.93018329973282E-04
0.7	0.85	2.99039612208127E-04
0.7	0.9	3.05067839544707E-04
0.7	0.95	3.11117837314982E-04
0.7	1.0	3.17210315875307E-04
0.7	1.05	3.23357815233698E-04
0.7	1.1	3.29573450555057E-04
0.7	1.15	3.35873105664306E-04
0.7	1.2	3.42265112856407E-04
0.8	0.0	-4.17037350069061E-17
0.8	0.05	1.17558884795294E-04
0.8	0.1	2.05360587500161E-04
0.8	0.15	2.66913341282331E-04
0.8	0.2	3.07275842593730E-04
0.8	0.25	3.32537941235079E-04
0.8	0.3	3.49036067548413E-04
0.8	0.35	3.61475422843388E-04
0.8	0.4	3.72056491204649E-04
0.8	0.45	3.81564944061129E-04
0.8	0.5	3.90349234417530E-04
0.8	0.55	3.98617216377147E-04
0.8	0.6	4.06507444950666E-04
0.8	0.65	4.14118353645501E-04
0.8	0.7	4.21522861118314E-04
0.8	0.75	4.28772885808450E-04
0.8	0.8	4.35910982256693E-04
0.8	0.85	4.42972088043760E-04
0.8	0.9	4.49988155389108E-04
0.8	0.95	4.56978243298503E-04
0.8	1.0	4.63970781891416E-04
0.8	1.05	4.70981991732459E-04
0.8	1.1	4.78029283671416E-04
0.8	1.15	4.85127972178288E-04
0.8	1.2	4.92291986994572E-04
0.9	0.0	1.66527034332363E-17
0.9	0.05	1.41859454838919E-04
0.9	0.1	2.54518753576515E-04
0.9	0.15	3.40356953447225E-04
0.9	0.2	4.02933236847353E-04
0.9	0.25	4.46482214294662E-04
0.9	0.3	4.75847778324168E-04
0.9	0.35	4.96094497142767E-04
0.9	0.4	5.11392052544453E-04
0.9	0.45	5.24148003574952E-04
0.9	0.5	5.35428082268922E-04
0.9	0.55	5.45713475479826E-04
0.9	0.6	5.55292430831798E-04
0.9	0.65	5.64362330033063E-04
0.9	0.7	5.73062233723813E-04
0.9	0.75	5.81488126827013E-04
0.9	0.8	5.89710243806293E-04
0.9	0.85	5.97780532255485E-04
0.9	0.9	6.05746073801895E-04
0.9	0.95	6.13635710630688E-04
0.9	1.0	6.21484641105951E-04
0.9	1.05	6.29315334594319E-04
0.9	1.1	6.37150218399607E-04
0.9	1.15	6.45003345009136E-04
0.9	1.2	6.52899050994934E-04
1.0	0.0	3.38419149028534E-17
1.0	0.05	1.62230168424732E-04
1.0	0.1	2.96186660083819E-04
1.0	0.15	4.03616135707586E-04
1.0	0.2	4.87245064279828E-04
1.0	0.25	5.50221365463048E-04
1.0	0.3	5.96071624605845E-04
1.0	0.35	6.28712801591849E-04
1.0	0.4	6.52231679586707E-04
1.0	0.45	6.70213966922938E-04
1.0	0.5	6.85052496276764E-04
1.0	0.55	6.98006105500697E-04
1.0	0.6	7.09705924571641E-04
1.0	0.65	7.20509901553060E-04
1.0	0.7	7.30670926504123E-04
1.0	0.75	7.40371070213314E-04
1.0	0.8	7.49731026036857E-04
1.0	0.85	7.58842770107592E-04
1.0	0.9	7.67770750656508E-04
1.0	0.95	7.76563651225837E-04
1.0	1.0	7.85264159552575E-04
1.0	1.05	7.93906636432199E-04
1.0	1.1	8.02511875267726E-04
1.0	1.15	8.11110334417912E-04
1.0	1.2	8.19718436566996E-04
1.1	0.0	1.73431939803552E-17
1.1	0.05	1.79351971827318E-04
1.1	0.1	3.31442944389901E-04
1.1	0.15	4.57653839662822E-04
1.1	0.2	5.60224769494805E-04
1.1	0.25	6.41667678267571E-04
1.1	0.3	7.04691862364114E-04
1.1	0.35	7.52244709547293E-04
1.1	0.4	7.87529236750643E-04
1.1	0.45	8.13885442083657E-04
1.1	0.5	8.34357671056776E-04
1.1	0.55	8.51203471210841E-04
1.1	0.6	8.65781199281762E-04
1.1	0.65	8.78838118749658E-04
1.1	0.7	8.90823290712925E-04
1.1	0.75	9.02036063483906E-04
1.1	0.8	9.12689829949670E-04
1.1	0.85	9.22940741309756E-04
1.1	0.9	9.32898404540293E-04
1.1	0.95	9.42637952339724E-04
1.1	1.0	9.52220606770363E-04
1.1	1.05	9.61688592674879E-04
1.1	1.1	9.71080771848535E-04
1.1	1.15	9.80427021347116E-04
1.1	1.2	9.89750185331651E-04
1.2	0.0	-2.36253292977336E-17
1.2	0.05	1.93826249751885E-04
1.2	0.1	3.61365267996845E-04
1.2	0.15	5.03785054087847E-04
1.2	0.2	6.23036197704201E-04
1.2	0.25	7.21248577490992E-04
1.2	0.3	8.00634620161533E-04
1.2	0.35	8.63515023120939E-04
1.2	0.4	9.12354999786101E-04
1.2	0.45	9.49807238862263E-04
1.2	0.5	9.78624773752775E-04
1.2	0.55	1.00138994811836E-03
1.2	0.6	1.02017023131438E-03
1.2	0.65	1.03634065644342E-03
1.2	0.7	1.05073486473206E-03