vg	vd	ids
0.0	0.0	-6.57588413681862E-18
0.0	0.05	1.20837300465277E-13
0.0	0.1	1.34349334141085E-13
0.0	0.15	1.38276825812765E-13
0.0	0.2	1.41882913080360E-13
0.0	0.25	1.45511038781889E-13
0.0	0.3	1.49196390473742E-13
0.0	0.35	1.53055987797421E-13
0.0	0.4	1.56700839168937E-13
0.0	0.45	1.60587505562326E-13
0.0	0.5	1.64755841597752E-13
0.0	0.55	1.68562652985212E-13
0.0	0.6	1.72834668740191E-13
0.0	0.65	1.76917372610284E-13
0.0	0.7	1.81167897399964E-13
0.0	0.75	1.85446728687307E-13
0.0	0.8	1.89935330828562E-13
0.0	0.85	1.94412836796001E-13
0.0	0.9	1.99003210438078E-13
0.0	0.95	2.03790076726472E-13
0.0	1.0	2.08563134266445E-13
0.0	1.05	2.13422443153409E-13
0.0	1.1	2.18492251808421E-13
0.0	1.15	2.23606155588936E-13
0.0	1.2	2.28906701089378E-13
0.1	0.0	4.00433856548634E-18
0.1	0.05	4.11997846891066E-12
0.1	0.1	4.59731941020351E-12
0.1	0.15	4.74070751206203E-12
0.1	0.2	4.87191316320296E-12
0.1	0.25	5.00438979825720E-12
0.1	0.3	5.13864993122750E-12
0.1	0.35	5.27481316039307E-12
0.1	0.4	5.41282863173984E-12
0.1	0.45	5.55058547880762E-12
0.1	0.5	5.69408202794673E-12
0.1	0.55	5.83964651958826E-12
0.1	0.6	5.98666729237477E-12
0.1	0.65	6.13747643532326E-12
0.1	0.7	6.29111765603240E-12
0.1	0.75	6.44690025910497E-12
0.1	0.8	6.60596310320902E-12
0.1	0.85	6.76828783212140E-12
0.1	0.9	6.93368850817107E-12
0.1	0.95	7.10252404270623E-12
0.1	1.0	7.27497677286304E-12
0.1	1.05	7.45084991540670E-12
0.1	1.1	7.63059410059734E-12
0.1	1.15	7.81429353259058E-12
0.1	1.2	8.00206623779734E-12
0.2	0.0	5.87713121226819E-18
0.2	0.05	1.43197431800209E-10
0.2	0.1	1.60377315167895E-10
0.2	0.15	1.65677898638750E-10
0.2	0.2	1.70499270087030E-10
0.2	0.25	1.75360311129234E-10
0.2	0.3	1.80273498923689E-10
0.2	0.35	1.85247333987918E-10
0.2	0.4	1.90288262279805E-10
0.2	0.45	1.95401305079586E-10
0.2	0.5	2.00535457389836E-10
0.2	0.55	2.05849026949290E-10
0.2	0.6	2.11221923171709E-10
0.2	0.65	2.16674023417119E-10
0.2	0.7	2.22225522027371E-10
0.2	0.75	2.27879768868785E-10
0.2	0.8	2.33636817811266E-10
0.2	0.85	2.39502191203931E-10
0.2	0.9	2.45480775022993E-10
0.2	0.95	2.51576557167985E-10
0.2	1.0	2.57793872965392E-10
0.2	1.05	2.64137056234786E-10
0.2	1.1	2.70610340120639E-10
0.2	1.15	2.77217735261920E-10
0.2	1.2	2.83964380885824E-10
0.3	0.0	8.53806595110811E-17
0.3	0.05	5.02900381332799E-09
0.3	0.1	5.65541574438982E-09
0.3	0.15	5.85331555529514E-09
0.3	0.2	6.03172008618036E-09
0.3	0.25	6.21083017889238E-09
0.3	0.3	6.39126846369425E-09
0.3	0.35	6.57363587266341E-09
0.3	0.4	6.75798417115060E-09
0.3	0.45	6.94344115732304E-09
0.3	0.5	7.13337129273341E-09
0.3	0.55	7.32555041288670E-09
0.3	0.6	7.52051663069681E-09
0.3	0.65	7.71852205695037E-09
0.3	0.7	7.91973744629891E-09
0.3	0.75	8.12433117962353E-09
0.3	0.8	8.33246315417824E-09
0.3	0.85	8.54429278937163E-09
0.3	0.9	8.75995741218686E-09
0.3	0.95	8.97959913289018E-09
0.3	1.0	9.20335621648197E-09
0.3	1.05	9.43136771584781E-09
0.3	1.1	9.66377222908386E-09
0.3	1.15	9.90070888687942E-09
0.3	1.2	1.01423188284834E-08
0.4	0.0	3.28917366320032E-17
0.4	0.05	1.73059958680947E-07
0.4	0.1	1.96068248560553E-07
0.4	0.15	2.03359150617054E-07
0.4	0.2	2.09770295451064E-07
0.4	0.25	2.16145975736843E-07
0.4	0.3	2.22530958842013E-07
0.4	0.35	2.28947529591228E-07
0.4	0.4	2.35412537736121E-07
0.4	0.45	2.41929389711048E-07
0.4	0.5	2.48519650715118E-07
0.4	0.55	2.55185679679986E-07
0.4	0.6	2.61933978949865E-07
0.4	0.65	2.68771067568665E-07
0.4	0.7	2.75702662065452E-07
0.4	0.75	2.82734031419045E-07
0.4	0.8	2.89870083704999E-07
0.4	0.85	2.97115425222720E-07
0.4	0.9	3.04474479283041E-07
0.4	0.95	3.11951521310885E-07
0.4	1.0	3.19550681174889E-07
0.4	1.05	3.27276013987059E-07
0.4	1.1	3.35131491315069E-07
0.4	1.15	3.43121021685340E-07
0.4	1.2	3.51248500081258E-07
0.5	0.0	-3.24696954107640E-17
0.5	0.05	3.95475402514160E-06
0.5	0.1	4.73026912790965E-06
0.5	0.15	4.92758981476486E-06
0.5	0.2	5.06802447926272E-06
0.5	0.25	5.20168442766175E-06
0.5	0.3	5.33255342710060E-06
0.5	0.35	5.46187314172843E-06
0.5	0.4	5.59035957525774E-06
0.5	0.45	5.71831185561992E-06
0.5	0.5	5.84613750790855E-06
0.5	0.55	5.97401305230471E-06
0.5	0.6	6.10210881452519E-06
0.5	0.65	6.23055684279073E-06
0.5	0.7	6.35947435784498E-06
0.5	0.75	6.48895124201091E-06
0.5	0.8	6.61907492168086E-06
0.5	0.85	6.74991499596358E-06
0.5	0.9	6.88153498587424E-06
0.5	0.95	7.01399565792465E-06
0.5	1.0	7.14734404018742E-06
0.5	1.05	7.28163123509225E-06
0.5	1.1	7.41689999148820E-06
0.5	1.15	7.55318705456833E-06
0.5	1.2	7.69053317894986E-06
0.6	0.0	9.72085052805100E-17
0.6	0.05	2.10434035560998E-05
0.6	0.1	3.06838886647075E-05
0.6	0.15	3.39319487755365E-05
0.6	0.2	3.50665775933769E-05
0.6	0.25	3.58060632632017E-05
0.6	0.3	3.64664305887297E-05
0.6	0.35	3.70943291259983E-05
0.6	0.4	3.76998498570918E-05
0.6	0.45	3.82920598968015E-05
0.6	0.5	3.88736583563340E-05
0.6	0.55	3.94467309535558E-05
0.6	0.6	4.00127461950572E-05
0.6	0.65	4.05728928395418E-05
0.6	0.7	4.11280166031578E-05
0.6	0.75	4.16789126835961E-05
0.6	0.8	4.22261070242207E-05
0.6	0.85	4.27701765587450E-05
0.6	0.9	4.33115026726630E-05
0.6	0.95	4.38504780109060E-05
0.6	1.0	4.43874313994938E-05
0.6	1.05	4.49226521765437E-05
0.6	1.1	4.54563834495694E-05
0.6	1.15	4.59888693248086E-05
0.6	1.2	4.65203205491254E-05
0.7	0.0	4.55559275132542E-17
0.7	0.05	4.29230222677882E-05
0.7	0.1	7.14686984091860E-05
0.7	0.15	8.78965979207227E-05
0.7	0.2	9.57617009153725E-05
0.7	0.25	9.91625399577802E-05
0.7	0.3	1.01059093095098E-04
0.7	0.35	1.02568809108446E-04
0.7	0.4	1.03935529842511E-04
0.7	0.45	1.05229943037918E-04
0.7	0.5	1.06477501870034E-04
0.7	0.55	1.07689665370642E-04
0.7	0.6	1.08873229955271E-04
0.7	0.65	1.10032811823775E-04
0.7	0.7	1.11171830704302E-04
0.7	0.75	1.12292928289233E-04
0.7	0.8	1.13398015973430E-04
0.7	0.85	1.14489036510405E-04
0.7	0.9	1.15567177984472E-04
0.7	0.95	1.16633749337246E-04
0.7	1.0	1.17689771722887E-04
0.7	1.05	1.18736090628301E-04
0.7	1.1	1.19773521990340E-04
0.7	1.15	1.20802787625798E-04
0.7	1.2	1.21824462903277E-04
0.8	0.0	5.38334689878822E-17
0.8	0.05	6.27944469732572E-05
0.8	0.1	1.11002041822643E-04
0.8	0.15	1.45522297720578E-04
0.8	0.2	1.68060594462458E-04
0.8	0.25	1.81129544759903E-04
0.8	0.3	1.87951675485269E-04
0.8	0.35	1.91696866557495E-04
0.8	0.4	1.94331632950351E-04
0.8	0.45	1.96572692455837E-04
0.8	0.5	1.98638755334792E-04
0.8	0.55	2.00601423806294E-04
0.8	0.6	2.02490826888646E-04
0.8	0.65	2.04322289028594E-04
0.8	0.7	2.06106165893769E-04
0.8	0.75	2.07849273047545E-04
0.8	0.8	2.09556931826722E-04
0.8	0.85	2.11233151700975E-04
0.8	0.9	2.12881208127983E-04
0.8	0.95	2.14503925122185E-04
0.8	1.0	2.16103313434060E-04
0.8	1.05	2.17681328400595E-04
0.8	1.1	2.19239700415962E-04
0.8	1.15	2.20780025849837E-04
0.8	1.2	2.22303229369974E-04
0.9	0.0	4.76927804667632E-17
0.9	0.05	7.95666545621635E-05
0.9	0.1	1.45163697520738E-04
0.9	0.15	1.97115260210863E-04
0.9	0.2	2.36264902468491E-04
0.9	0.25	2.63903105748400E-04
0.9	0.3	2.81861095274874E-04
0.9	0.35	2.92570733721136E-04
0.9	0.4	2.98812430260104E-04
0.9	0.45	3.02925147107868E-04
0.9	0.5	3.06181199117487E-04
0.9	0.55	3.09076839399178E-04
0.9	0.6	3.11778435919881E-04
0.9	0.65	3.14352752276369E-04
0.9	0.7	3.16831036653814E-04
0.9	0.75	3.19231712101726E-04
0.9	0.8	3.21567397971902E-04
0.9	0.85	3.23846981457047E-04
0.9	0.9	3.26077320055894E-04
0.9	0.95	3.28263520486868E-04
0.9	1.0	3.30409977872966E-04
0.9	1.05	3.32520130676976E-04
0.9	1.1	3.34597203741435E-04
0.9	1.15	3.36643408295167E-04
0.9	1.2	3.38661644940119E-04
1.0	0.0	-3.67408151520823E-17
1.0	0.05	9.34283542245771E-05
1.0	0.1	1.73714247964312E-04
1.0	0.15	2.40936467771524E-04
1.0	0.2	2.95555374936868E-04
1.0	0.25	3.38286986492328E-04
1.0	0.3	3.70113155124736E-04
1.0	0.35	3.92400903632057E-04
1.0	0.4	4.06983092856530E-04
1.0	0.45	4.16120010072089E-04
1.0	0.5	4.22092770681254E-04
1.0	0.55	4.26555700515477E-04
1.0	0.6	4.30354476210418E-04
1.0	0.65	4.33823272498306E-04
1.0	0.7	4.37086912598498E-04
1.0	0.75	4.40204642275213E-04
1.0	0.8	4.43208188206099E-04
1.0	0.85	4.46117856289714E-04
1.0	0.9	4.48947254261911E-04
1.0	0.95	4.51707537347052E-04
1.0	1.0	4.54406141732960E-04
1.0	1.05	4.57049251071015E-04
1.0	1.1	4.59643232361621E-04
1.0	1.15	4.62190802125209E-04
1.0	1.2	4.64696600064897E-04
1.1	0.0	-7.53861594465360E-17
1.1	0.05	1.04849955885153E-04
1.1	0.1	1.97365286623358E-04
1.1	0.15	2.77530459129272E-04
1.1	0.2	3.45648693779877E-04
1.1	0.25	4.02170076320284E-04
1.1	0.3	4.47676980333994E-04
1.1	0.35	4.82938413463411E-04
1.1	0.4	5.08986603294113E-04
1.1	0.45	5.27209846208367E-04
1.1	0.5	5.39391796695788E-04
1.1	0.55	5.47543700574870E-04
1.1	0.6	5.53446832985220E-04
1.1	0.65	5.58257703245343E-04
1.1	0.7	5.62535375792528E-04
1.1	0.75	5.66504219599477E-04
1.1	0.8	5.70259754560236E-04
1.1	0.85	5.73855750420046E-04
1.1	0.9	5.77323973928187E-04
1.1	0.95	5.80683986785845E-04
1.1	1.0	5.83952599017063E-04
1.1	1.05	5.87140178118947E-04
1.1	1.1	5.90256190726663E-04
1.1	1.15	5.93306828766271E-04
1.1	1.2	5.96299322544969E-04
1.2	0.0	-6.54577888224343E-18
1.2	0.05	1.14308902035917E-04
1.2	0.1	2.16993825837955E-04
1.2	0.15	3.08013712922605E-04
1.2	0.2	3.87616238917926E-04
1.2	0.25	4.56144034482605E-04
1.2	0.3	5.14001216690188E-04
1.2	0.35	5.61670779704071E-04
1.2	0.4	5.99756442148476E-04
1.2	0.45	6.29047924680518E-04
1.2	0.5	6.50602521232434E-04
1.2	0.55	6.65810046192420E-04
1.2	0.6	6.76350360021986E-04
1.2	0.65	6.83931457474819E-04
1.2	0.7	6.89899859273181E-04
1.2	0.75	6.95052224294580E-04
1.2	0.8	6.99750688030799E-04
1.2	0.85	7.04154382026464E-04
1.2	0.9	7.08341311747168E-04
1.2	0.95	7.12358079035933E-04
1.2	1.0	7.16236365142110E-04
1.2	1.05	7.19996048464097E-04
1.2	1.1	7.23654118759158E-04
1.2	1.15	7.27221485620474E-04
1.2	1.2	7.30709651922441E-04