vg	vd	ids
0.0	0.0	-3.04600048153879E-17
0.0	0.05	4.49977256566728E-13
0.0	0.1	5.10057775115876E-13
0.0	0.15	5.40802603165718E-13
0.0	0.2	5.72277383466307E-13
0.0	0.25	6.05402351729201E-13
0.0	0.3	6.40391381781822E-13
0.0	0.35	6.77255069215579E-13
0.0	0.4	7.16051885539589E-13
0.0	0.45	7.57085438227552E-13
0.0	0.5	8.00501617279505E-13
0.0	0.55	8.46818245143694E-13
0.0	0.6	8.95455703026819E-13
0.0	0.65	9.47772870276338E-13
0.0	0.7	1.00175714199709E-12
0.0	0.75	1.06111208831587E-12
0.0	0.8	1.12228979620765E-12
0.0	0.85	1.18857289360348E-12
0.0	0.9	1.25939613321263E-12
0.0	0.95	1.33326846122188E-12
0.0	1.0	1.41360152496406E-12
0.0	1.05	1.49926012674379E-12
0.0	1.1	1.59038469872738E-12
0.0	1.15	1.68808809187285E-12
0.0	1.2	1.79280740302637E-12
0.1	0.0	4.00200307430795E-17
0.1	0.05	1.51489864477020E-11
0.1	0.1	1.72215391137179E-11
0.1	0.15	1.82567003044241E-11
0.1	0.2	1.93053675636348E-11
0.1	0.25	2.04019322655112E-11
0.1	0.3	2.15502743698132E-11
0.1	0.35	2.27538874330251E-11
0.1	0.4	2.40168532459076E-11
0.1	0.45	2.53430599615574E-11
0.1	0.5	2.67279410985460E-11
0.1	0.55	2.82027929043898E-11
0.1	0.6	2.97138498217143E-11
0.1	0.65	3.13527626736887E-11
0.1	0.7	3.30780021552576E-11
0.1	0.75	3.48794676957069E-11
0.1	0.8	3.67656058003140E-11
0.1	0.85	3.87684106678663E-11
0.1	0.9	4.08959332005004E-11
0.1	0.95	4.31276209774758E-11
0.1	1.0	4.54850446225635E-11
0.1	1.05	4.79752704785529E-11
0.1	1.1	5.06100732141461E-11
0.1	1.15	5.33969520596947E-11
0.1	1.2	5.63486475866780E-11
0.2	0.0	-1.03354538700612E-17
0.2	0.05	5.14351687382119E-10
0.2	0.1	5.86804482732687E-10
0.2	0.15	6.22330158582252E-10
0.2	0.2	6.57868807960905E-10
0.2	0.25	6.94755426884934E-10
0.2	0.3	7.33115464380676E-10
0.2	0.35	7.73070432847236E-10
0.2	0.4	8.14716257614637E-10
0.2	0.45	8.58234165130496E-10
0.2	0.5	9.02708645008517E-10
0.2	0.55	9.50543108770036E-10
0.2	0.6	1.00083085660277E-09
0.2	0.65	1.05280598887320E-09
0.2	0.7	1.10683733810847E-09
0.2	0.75	1.16404361417984E-09
0.2	0.8	1.22371712269007E-09
0.2	0.85	1.28642746110940E-09
0.2	0.9	1.35199147326550E-09
0.2	0.95	1.42070489706137E-09
0.2	1.0	1.49280431742294E-09
0.2	1.05	1.56846367150038E-09
0.2	1.1	1.64786259305985E-09
0.2	1.15	1.73122917012036E-09
0.2	1.2	1.81877228185419E-09
0.3	0.0	-3.45450214954133E-17
0.3	0.05	1.74171640284693E-08
0.3	0.1	1.99705696346603E-08
0.3	0.15	2.12018537410115E-08
0.3	0.2	2.24134579505773E-08
0.3	0.25	2.36589633766357E-08
0.3	0.3	2.49436195368336E-08
0.3	0.35	2.62703830202165E-08
0.3	0.4	2.76476129883615E-08
0.3	0.45	2.90744013552400E-08
0.3	0.5	3.05232891422447E-08
0.3	0.55	3.20769277530026E-08
0.3	0.6	3.36880273161297E-08
0.3	0.65	3.53571744332656E-08
0.3	0.7	3.70899912011477E-08
0.3	0.75	3.88941518421079E-08
0.3	0.8	4.07711319532138E-08
0.3	0.85	4.27271063667151E-08
0.3	0.9	4.47646859022818E-08
0.3	0.95	4.68877187414287E-08
0.3	1.0	4.91003886147480E-08
0.3	1.05	5.14068455232549E-08
0.3	1.1	5.38112185296118E-08
0.3	1.15	5.63181421270303E-08
0.3	1.2	5.89323519452260E-08
0.4	0.0	9.19321361194154E-18
0.4	0.05	5.51862541938278E-07
0.4	0.1	6.40317417119663E-07
0.4	0.15	6.80434694501810E-07
0.4	0.2	7.18409341292465E-07
0.4	0.25	7.56705331168111E-07
0.4	0.3	7.95608306701267E-07
0.4	0.35	8.35300781282511E-07
0.4	0.4	8.75719910884153E-07
0.4	0.45	9.17511713531853E-07
0.4	0.5	9.60324481258215E-07
0.4	0.55	1.00432687701499E-06
0.4	0.6	1.04960304729281E-06
0.4	0.65	1.09622462654845E-06
0.4	0.7	1.14425526464007E-06
0.4	0.75	1.19375221307217E-06
0.4	0.8	1.24477453223021E-06
0.4	0.85	1.29737947882526E-06
0.4	0.9	1.35162347782938E-06
0.4	0.95	1.40756073024010E-06
0.4	1.0	1.46524712854632E-06
0.4	1.05	1.52473692986140E-06
0.4	1.1	1.58608558503831E-06
0.4	1.15	1.64934910344355E-06
0.4	1.2	1.71458308867800E-06
0.5	0.0	2.64330240181045E-19
0.5	0.05	8.86145513347722E-06
0.5	0.1	1.11728380205385E-05
0.5	0.15	1.18951901381908E-05
0.5	0.2	1.24200107520295E-05
0.5	0.25	1.29146116763442E-05
0.5	0.3	1.33959015958932E-05
0.5	0.35	1.38683314720685E-05
0.5	0.4	1.43400033880700E-05
0.5	0.45	1.48095182878666E-05
0.5	0.5	1.52789604059433E-05
0.5	0.55	1.57497001719434E-05
0.5	0.6	1.62225669567741E-05
0.5	0.65	1.66982708865781E-05
0.5	0.7	1.71772490074080E-05
0.5	0.75	1.76599483210873E-05
0.5	0.8	1.81466704293217E-05
0.5	0.85	1.86376612125710E-05
0.5	0.9	1.91331786230160E-05
0.5	0.95	1.96333653328918E-05
0.5	1.0	2.01383904320716E-05
0.5	1.05	2.06483841334690E-05
0.5	1.1	2.11634531498432E-05
0.5	1.15	2.16836919545472E-05
0.5	1.2	2.22091813204329E-05
0.6	0.0	-4.15585366857512E-17
0.6	0.05	3.27519663492220E-05
0.6	0.1	5.00632502462407E-05
0.6	0.15	5.72855659363347E-05
0.6	0.2	6.02268012401395E-05
0.6	0.25	6.21034250461668E-05
0.6	0.3	6.37289180281639E-05
0.6	0.35	6.52415591645949E-05
0.6	0.4	6.66873392684135E-05
0.6	0.45	6.80877691684361E-05
0.6	0.5	6.94563617487765E-05
0.6	0.55	7.08009202240683E-05
0.6	0.6	7.21273455705298E-05
0.6	0.65	7.34394836272108E-05
0.6	0.7	7.47403078613303E-05
0.6	0.75	7.60320942432475E-05
0.6	0.8	7.73166654624259E-05
0.6	0.85	7.85952170400750E-05
0.6	0.9	7.98691775923819E-05
0.6	0.95	8.11392390478424E-05
0.6	1.0	8.24061961665325E-05
0.6	1.05	8.36707870578471E-05
0.6	1.1	8.49335024435983E-05
0.6	1.15	8.61947248252842E-05
0.6	1.2	8.74549669157346E-05
0.7	0.0	-4.18872766114807E-17
0.7	0.05	5.86808565766382E-05
0.7	0.1	9.97173660600550E-05
0.7	0.15	1.25346932790082E-04
0.7	0.2	1.39280902899415E-04
0.7	0.25	1.46228581590720E-04
0.7	0.3	1.50279765869012E-04
0.7	0.35	1.53401974972216E-04
0.7	0.4	1.56152121133213E-04
0.7	0.45	1.58702377447320E-04
0.7	0.5	1.61127966687518E-04
0.7	0.55	1.63466627895420E-04
0.7	0.6	1.65740803741671E-04
0.7	0.65	1.67963687299841E-04
0.7	0.7	1.70145188615797E-04
0.7	0.75	1.72292217673115E-04
0.7	0.8	1.74409780062670E-04
0.7	0.85	1.76501850680095E-04
0.7	0.9	1.78571899014935E-04
0.7	0.95	1.80622138128823E-04
0.7	1.0	1.82654704175667E-04
0.7	1.05	1.84671480867299E-04
0.7	1.1	1.86673923110752E-04
0.7	1.15	1.88662956869816E-04
0.7	1.2	1.90640089590652E-04
0.8	0.0	8.35300870042422E-17
0.8	0.05	8.13039635875009E-05
0.8	0.1	1.45163692757453E-04
0.8	0.15	1.92478165066630E-04
0.8	0.2	2.25050698319534E-04
0.8	0.25	2.45547598185281E-04
0.8	0.3	2.57479318973623E-04
0.8	0.35	2.64597491102535E-04
0.8	0.4	2.69613871247797E-04
0.8	0.45	2.73745633727723E-04
0.8	0.5	2.77438698707892E-04
0.8	0.55	2.80882521808706E-04
0.8	0.6	2.84163865741396E-04
0.8	0.65	2.87326860508918E-04
0.8	0.7	2.90398968626030E-04
0.8	0.75	2.93396942643947E-04
0.8	0.8	2.96333441263464E-04
0.8	0.85	2.99217194193631E-04
0.8	0.9	3.02055220454555E-04
0.8	0.95	3.04852560921981E-04
0.8	1.0	3.07613559869072E-04
0.8	1.05	3.10342016907879E-04
0.8	1.1	3.13040675048550E-04
0.8	1.15	3.15710816865982E-04
0.8	1.2	3.18356612753166E-04
0.9	0.0	4.84423345145688E-18
0.9	0.05	1.00125604295385E-04
0.9	0.1	1.83694775837881E-04
0.9	0.15	2.51026087905837E-04
0.9	0.2	3.03052142721729E-04
0.9	0.25	3.41204276720761E-04
0.9	0.3	3.67462452759677E-04
0.9	0.35	3.84455268977675E-04
0.9	0.4	3.95253252018824E-04
0.9	0.45	4.02642745549416E-04
0.9	0.5	4.08380752659939E-04
0.9	0.55	4.13298191815131E-04
0.9	0.6	4.17771165546826E-04
0.9	0.65	4.21973306110093E-04
0.9	0.7	4.25988787110622E-04
0.9	0.75	4.29862906173928E-04
0.9	0.8	4.33626083545634E-04
0.9	0.85	4.37297007773954E-04
0.9	0.9	4.40889149372765E-04
0.9	0.95	4.44414387191930E-04
0.9	1.0	4.47878354620419E-04
0.9	1.05	4.51288854030951E-04
0.9	1.1	4.54652025492746E-04
0.9	1.15	4.57969670154841E-04
0.9	1.2	4.61246837123628E-04
1.0	0.0	-3.28511175370531E-17
1.0	0.05	1.15591368859119E-04
1.0	0.1	2.15649867143735E-04
1.0	0.15	3.00243662542750E-04
1.0	0.2	3.69914879476430E-04
1.0	0.25	4.25489754022409E-04
1.0	0.3	4.68096057523684E-04
1.0	0.35	4.99252759164513E-04
1.0	0.4	5.20954693446968E-04
1.0	0.45	5.35634460601676E-04
1.0	0.5	5.45800022767787E-04
1.0	0.55	5.53429879202634E-04
1.0	0.6	5.59716661277474E-04
1.0	0.65	5.65277798050415E-04
1.0	0.7	5.70412028388100E-04
1.0	0.75	5.75266531721370E-04
1.0	0.8	5.79918060383286E-04
1.0	0.85	5.84410365987661E-04
1.0	0.9	5.88774728703327E-04
1.0	0.95	5.93032217753701E-04
1.0	1.0	5.97195748835842E-04
1.0	1.05	6.01279756916096E-04
1.0	1.1	6.05292444937818E-04
1.0	1.15	6.09238673858251E-04
1.0	1.2	6.13127150999797E-04
1.1	0.0	2.18224453328586E-17
1.1	0.05	1.28311694182350E-04
1.1	0.1	2.42046166826408E-04
1.1	0.15	3.41176023181359E-04
1.1	0.2	4.26076013771166E-04
1.1	0.25	4.97296920315551E-04
1.1	0.3	5.55543855361006E-04
1.1	0.35	6.01721345565829E-04
1.1	0.4	6.37008132129257E-04
1.1	0.45	6.62937995533606E-04
1.1	0.5	6.81423847756604E-04
1.1	0.55	6.94592711899969E-04
1.1	0.6	7.04389658137416E-04
1.1	0.65	7.12230801542057E-04
1.1	0.7	7.18977898808751E-04
1.1	0.75	7.25091304974125E-04
1.1	0.8	7.30799517521008E-04
1.1	0.85	7.36221587845859E-04
1.1	0.9	7.41427925073737E-04
1.1	0.95	7.46463628040786E-04
1.1	1.0	7.51355040847910E-04
1.1	1.05	7.56128070992579E-04
1.1	1.1	7.60796812384008E-04
1.1	1.15	7.65371874377468E-04
1.1	1.2	7.69867490592745E-04
1.2	0.0	-3.10761027949525E-19
1.2	0.05	1.38851022131156E-04
1.2	0.1	2.63947518674679E-04
1.2	0.15	3.75238494357003E-04
1.2	0.2	4.73039443705329E-04
1.2	0.25	5.57785383517532E-04
1.2	0.3	6.29987787276869E-04
1.2	0.35	6.90247364845333E-04
1.2	0.4	7.39295862304307E-04
1.2	0.45	7.78058330963836E-04
1.2	0.5	8.07726669712406E-04
1.2	0.55	8.29803322309084E-04
1.2	0.6	8.46040681592074E-04
1.2	0.65	8.58209978983100E-04
1.2	0.7	8.67800275705609E-04
1.2	0.75	8.75858301957694E-04
1.2	0.8	8.83020141249691E-04
1.2	0.85	8.89618630260206E-04
1.2	0.9	8.95826048475605E-04
1.2	0.95	9.01746764155003E-04
1.2	1.0	9.07443914451578E-04
1.2	1.05	9.12957917152794E-04
1.2	1.1	9.18317354157670E-04
1.2	1.15	9.23547827345410E-04
1.2	1.2	9.28662383521920E-04