vg	vd	ids
0.0	0.0	1.09249974873719E-17
0.0	0.05	2.78340018604774E-13
0.0	0.1	3.23522562032492E-13
0.0	0.15	3.50745550592829E-13
0.0	0.2	3.79356325298523E-13
0.0	0.25	4.10164063462853E-13
0.0	0.3	4.43333012835463E-13
0.0	0.35	4.79144962622222E-13
0.0	0.4	5.17747450475515E-13
0.0	0.45	5.59507068049876E-13
0.0	0.5	6.04613651450904E-13
0.0	0.55	6.53516674097111E-13
0.0	0.6	7.06431996688645E-13
0.0	0.65	7.63862504796491E-13
0.0	0.7	8.26202446161592E-13
0.0	0.75	8.93968803645204E-13
0.0	0.8	9.67529430321560E-13
0.0	0.85	1.04805169349212E-12
0.0	0.9	1.13579187137310E-12
0.0	0.95	1.23165918131737E-12
0.0	1.0	1.33655491844953E-12
0.0	1.05	1.45167785051006E-12
0.0	1.1	1.57812028066129E-12
0.0	1.15	1.71742771315757E-12
0.0	1.2	1.87113416569460E-12
0.1	0.0	4.20718475133129E-18
0.1	0.05	8.45740665545802E-12
0.1	0.1	9.85020083865489E-12
0.1	0.15	1.06687570332879E-11
0.1	0.2	1.15177886889383E-11
0.1	0.25	1.24241481793600E-11
0.1	0.3	1.33928194598820E-11
0.1	0.35	1.44289834755709E-11
0.1	0.4	1.55379701251603E-11
0.1	0.45	1.67259202180340E-11
0.1	0.5	1.79984100945589E-11
0.1	0.55	1.93642942942047E-11
0.1	0.6	2.08277948260121E-11
0.1	0.65	2.24014137104358E-11
0.1	0.7	2.40892987979406E-11
0.1	0.75	2.59052760764475E-11
0.1	0.8	2.78561538938896E-11
0.1	0.85	2.99569326350844E-11
0.1	0.9	3.22174360997012E-11
0.1	0.95	3.46539623120611E-11
0.1	1.0	3.72814411994717E-11
0.1	1.05	4.01167458942701E-11
0.1	1.1	4.31794598553262E-11
0.1	1.15	4.64911549066829E-11
0.1	1.2	5.00757528832342E-11
0.2	0.0	-2.27460029269117E-19
0.2	0.05	2.59573905874141E-10
0.2	0.1	3.03257365942250E-10
0.2	0.15	3.28413291492213E-10
0.2	0.2	3.54183491678857E-10
0.2	0.25	3.81474392996170E-10
0.2	0.3	4.10421593421227E-10
0.2	0.35	4.41157550883229E-10
0.2	0.4	4.73819109499056E-10
0.2	0.45	5.08548959316803E-10
0.2	0.5	5.45471400189339E-10
0.2	0.55	5.84822775707281E-10
0.2	0.6	6.26656279426433E-10
0.2	0.65	6.71266313148243E-10
0.2	0.7	7.18805136205604E-10
0.2	0.75	7.69430139913799E-10
0.2	0.8	8.23422091395648E-10
0.2	0.85	8.80980119048292E-10
0.2	0.9	9.42380086752273E-10
0.2	0.95	1.00788888231974E-09
0.2	1.0	1.07780793981341E-09
0.2	1.05	1.15245996174124E-09
0.2	1.1	1.23219508395420E-09
0.2	1.15	1.31739331055493E-09
0.2	1.2	1.40846951571724E-09
0.3	0.0	9.38265910015557E-18
0.3	0.05	7.95232362203609E-09
0.3	0.1	9.33505060566709E-09
0.3	0.15	1.01170333177165E-08
0.3	0.2	1.09058677357244E-08
0.3	0.25	1.17332289011999E-08
0.3	0.3	1.26033615953016E-08
0.3	0.35	1.35200018362039E-08
0.3	0.4	1.44867759825393E-08
0.3	0.45	1.55072864472170E-08
0.3	0.5	1.65845176533471E-08
0.3	0.55	1.77242762472687E-08
0.3	0.6	1.89284079644453E-08
0.3	0.65	2.02014746908542E-08
0.3	0.7	2.15482253202918E-08
0.3	0.75	2.29725940022753E-08
0.3	0.8	2.44794246956566E-08
0.3	0.85	2.60736508586636E-08
0.3	0.9	2.77604736526595E-08
0.3	0.95	2.95454015872039E-08
0.3	1.0	3.14342730327280E-08
0.3	1.05	3.34332719166638E-08
0.3	1.1	3.55489747600051E-08
0.3	1.15	3.77883710469215E-08
0.3	1.2	4.01588958252059E-08
0.4	0.0	-9.38066453768585E-20
0.4	0.05	2.32151754798609E-07
0.4	0.1	2.75249656422775E-07
0.4	0.15	2.98587077451268E-07
0.4	0.2	3.21403123026432E-07
0.4	0.25	3.44908023919703E-07
0.4	0.3	3.69264842599312E-07
0.4	0.35	3.94586666383284E-07
0.4	0.4	4.20966695780097E-07
0.4	0.45	4.48474739309674E-07
0.4	0.5	4.77224066906268E-07
0.4	0.55	5.07246292950789E-07
0.4	0.6	5.38632436253947E-07
0.4	0.65	5.71442249678713E-07
0.4	0.7	6.05748386207696E-07
0.4	0.75	6.41618471348829E-07
0.4	0.8	6.79122300415890E-07
0.4	0.85	7.18330397129610E-07
0.4	0.9	7.59314467367364E-07
0.4	0.95	8.02147413404151E-07
0.4	1.0	8.46904255666725E-07
0.4	1.05	8.93661141204038E-07
0.4	1.1	9.42496571373843E-07
0.4	1.15	9.93491109524822E-07
0.4	1.2	1.04672701823309E-06
0.5	0.0	5.77958488783808E-18
0.5	0.05	4.21030530972555E-06
0.5	0.1	5.26865554304311E-06
0.5	0.15	5.69622779090607E-06
0.5	0.2	6.05094401089662E-06
0.5	0.25	6.39550596290301E-06
0.5	0.3	6.73763319147804E-06
0.5	0.35	7.08042853507732E-06
0.5	0.4	7.42575157249584E-06
0.5	0.45	7.77488459839393E-06
0.5	0.5	8.12865150070576E-06
0.5	0.55	8.48767351766885E-06
0.5	0.6	8.85241476408883E-06
0.5	0.65	9.22325087421947E-06
0.5	0.7	9.60045991625778E-06
0.5	0.75	9.98428168608928E-06
0.5	0.8	1.03749137947468E-05
0.5	0.85	1.07724986806089E-05
0.5	0.9	1.11772034377700E-05
0.5	0.95	1.15891159435676E-05
0.5	1.0	1.20083531987101E-05
0.5	1.05	1.24350088093248E-05
0.5	1.1	1.28691436602597E-05
0.5	1.15	1.33108463092210E-05
0.5	1.2	1.37601678746538E-05
0.6	0.0	8.96299700390740E-18
0.6	0.05	1.95387404548824E-05
0.6	0.1	2.90738397705010E-05
0.6	0.15	3.29480485044474E-05
0.6	0.2	3.48303397020098E-05
0.6	0.25	3.62515310744888E-05
0.6	0.3	3.75448105298390E-05
0.6	0.35	3.87735015561679E-05
0.6	0.4	3.99630990084948E-05
0.6	0.45	4.11274268557179E-05
0.6	0.5	4.22750042768150E-05
0.6	0.55	4.34110081359442E-05
0.6	0.6	4.45393003221559E-05
0.6	0.65	4.56622601408595E-05
0.6	0.7	4.67819570353790E-05
0.6	0.75	4.78997518022867E-05
0.6	0.8	4.90168001114173E-05
0.6	0.85	5.01340124479216E-05
0.6	0.9	5.12521142178311E-05
0.6	0.95	5.23716273051054E-05
0.6	1.0	5.34931077426001E-05
0.6	1.05	5.46169346209407E-05
0.6	1.1	5.57433396455490E-05
0.6	1.15	5.68727728116959E-05
0.6	1.2	5.80053173565723E-05
0.7	0.0	8.35196565933438E-18
0.7	0.05	3.88113945767842E-05
0.7	0.1	6.48822657630897E-05
0.7	0.15	8.04634810512798E-05
0.7	0.2	8.87725388291324E-05
0.7	0.25	9.32617879168907E-05
0.7	0.3	9.63113256334047E-05
0.7	0.35	9.88680452896559E-05
0.7	0.4	1.01194515785402E-04
0.7	0.45	1.03385946049557E-04
0.7	0.5	1.05489673867646E-04
0.7	0.55	1.07532361468038E-04
0.7	0.6	1.09529797642354E-04
0.7	0.65	1.11492063754146E-04
0.7	0.7	1.13426280731194E-04
0.7	0.75	1.15337385260902E-04
0.7	0.8	1.17229097875606E-04
0.7	0.85	1.19104569768764E-04
0.7	0.9	1.20965862768227E-04
0.7	0.95	1.22814970388915E-04
0.7	1.0	1.24653536477543E-04
0.7	1.05	1.26482707612319E-04
0.7	1.1	1.28303537679187E-04
0.7	1.15	1.30117215473676E-04
0.7	1.2	1.31924197399315E-04
0.8	0.0	2.68762416525397E-18
0.8	0.05	5.69962092361856E-05
0.8	0.1	1.00551252075887E-04
0.8	0.15	1.31860482290944E-04
0.8	0.2	1.52787593676789E-04
0.8	0.25	1.65768466610346E-04
0.8	0.3	1.73603174901119E-04
0.8	0.35	1.78799277489529E-04
0.8	0.4	1.82855529673524E-04
0.8	0.45	1.86378549253186E-04
0.8	0.5	1.89603222838064E-04
0.8	0.55	1.92644444977727E-04
0.8	0.6	1.95562460189743E-04
0.8	0.65	1.98390538929758E-04
0.8	0.7	2.01148734033009E-04
0.8	0.75	2.03850427160549E-04
0.8	0.8	2.06505371521423E-04
0.8	0.85	2.09119925220349E-04
0.8	0.9	2.11699735908983E-04
0.8	0.95	2.14248917869115E-04
0.8	1.0	2.16770885384578E-04
0.8	1.05	2.19268048387030E-04
0.8	1.1	2.21743308955577E-04
0.8	1.15	2.24198470612181E-04
0.8	1.2	2.26634562152208E-04
0.9	0.0	-5.81907909690571E-18
0.9	0.05	7.32222784713958E-05
0.9	0.1	1.32984761290218E-04
0.9	0.15	1.79970127095089E-04
0.9	0.2	2.15359405773776E-04
0.9	0.25	2.40702299573680E-04
0.9	0.3	2.57921537645946E-04
0.9	0.35	2.69258719629519E-04
0.9	0.4	2.76966265446314E-04
0.9	0.45	2.82762658525375E-04
0.9	0.5	2.87590529819946E-04
0.9	0.55	2.91882988248769E-04
0.9	0.6	2.95855201672173E-04
0.9	0.65	2.99621084552233E-04
0.9	0.7	3.03241343608175E-04
0.9	0.75	3.06751069536130E-04
0.9	0.8	3.10172272788026E-04
0.9	0.85	3.13519612772691E-04
0.9	0.9	3.16804362674206E-04
0.9	0.95	3.20034005936511E-04
0.9	1.0	3.23215772760104E-04
0.9	1.05	3.26354636231192E-04
0.9	1.1	3.29454470094983E-04
0.9	1.15	3.32518435836738E-04
0.9	1.2	3.35550518590351E-04
1.0	0.0	-2.89511656876512E-18
1.0	0.05	8.74425480329130E-05
1.0	0.1	1.61699647108603E-04
1.0	0.15	2.23160872164776E-04
1.0	0.2	2.72637726738757E-04
1.0	0.25	3.11192413612733E-04
1.0	0.3	3.40127602695156E-04
1.0	0.35	3.61010145226189E-04
1.0	0.4	3.75660277017120E-04
1.0	0.45	3.86004202811692E-04
1.0	0.5	3.93730393694868E-04
1.0	0.55	3.99983177724601E-04
1.0	0.6	4.05398891444769E-04
1.0	0.65	4.10315723748384E-04
1.0	0.7	4.14917613266303E-04
1.0	0.75	4.19304301913398E-04
1.0	0.8	4.23531634280826E-04
1.0	0.85	4.27633499300593E-04
1.0	0.9	4.31632070609288E-04
1.0	0.95	4.35543340450998E-04
1.0	1.0	4.39379396156076E-04
1.0	1.05	4.43148402839570E-04
1.0	1.1	4.46857536678952E-04
1.0	1.15	4.50513907954364E-04
1.0	1.2	4.54119984387408E-04
1.1	0.0	4.38127152001162E-18
1.1	0.05	9.98177937333357E-05
1.1	0.1	1.86851261261785E-04
1.1	0.15	2.61313214993775E-04
1.1	0.2	3.23796627866337E-04
1.1	0.25	3.75080463312058E-04
1.1	0.3	4.16100446908538E-04
1.1	0.35	4.47962521220747E-04
1.1	0.4	4.71967787344149E-04
1.1	0.45	4.89618434982400E-04
1.1	0.5	5.02544713521937E-04
1.1	0.55	5.12294904910489E-04
1.1	0.6	5.20079241711815E-04
1.1	0.65	5.26684454490095E-04
1.1	0.7	5.32576431138850E-04
1.1	0.75	5.38020084327930E-04
1.1	0.8	5.43163165259720E-04
1.1	0.85	5.48088435321542E-04
1.1	0.9	5.52844552675981E-04
1.1	0.95	5.57464113888311E-04
1.1	1.0	5.61969641419771E-04
1.1	1.05	5.66376185322140E-04
1.1	1.1	5.70696596358871E-04
1.1	1.15	5.74941241173735E-04
1.1	1.2	5.79115496744547E-04
1.2	0.0	4.61918311520449E-18
1.2	0.05	1.10569783359207E-04
1.2	0.1	2.08796157472361E-04
1.2	0.15	2.94785307956712E-04
1.2	0.2	3.68997913341738E-04
1.2	0.25	4.32041606592220E-04
1.2	0.3	4.84629812212635E-04
1.2	0.35	5.27582458790842E-04
1.2	0.4	5.61843876476250E-04
1.2	0.45	5.88508156296931E-04
1.2	0.5	6.08831244296784E-04
1.2	0.55	6.24194022436823E-04
1.2	0.6	6.35975242878178E-04
1.2	0.65	6.45360666924437E-04
1.2	0.7	6.53220972730310E-04
1.2	0.75	6.60127646204165E-04
1.2	0.8	6.66430443834923E-04
1.2	0.85	6.72331468231353E-04
1.2	0.9	6.77945910210439E-04
1.2	0.95	6.83340953410491E-04
1.2	1.0	6.88562915644089E-04
1.2	1.05	6.93637665344528E-04
1.2	1.1	6.98591559441610E-04
1.2	1.15	7.03435407707037E-04
1.2	1.2	7.08186001143418E-04