vg	vd	ids
0.0	0.0	2.89358765502419E-17
0.0	0.05	5.42306256553710E-13
0.0	0.1	6.09920856888661E-13
0.0	0.15	6.56347373597143E-13
0.0	0.2	7.05554582768698E-13
0.0	0.25	7.57837384623430E-13
0.0	0.3	8.13997013440493E-13
0.0	0.35	8.73650861842868E-13
0.0	0.4	9.38012635632046E-13
0.0	0.45	1.00619627207280E-12
0.0	0.5	1.08038676061596E-12
0.0	0.55	1.15962694029466E-12
0.0	0.6	1.24473876533244E-12
0.0	0.65	1.33663058333374E-12
0.0	0.7	1.43490531050269E-12
0.0	0.75	1.54163439502203E-12
0.0	0.8	1.65685380707673E-12
0.0	0.85	1.78153362947171E-12
0.0	0.9	1.91612235499699E-12
0.0	0.95	2.06279303257437E-12
0.0	1.0	2.22221468254296E-12
0.0	1.05	2.39517271296517E-12
0.0	1.1	2.58388001864991E-12
0.0	1.15	2.79058652667426E-12
0.0	1.2	3.01692477834815E-12
0.1	0.0	6.05414750714567E-17
0.1	0.05	1.68696300286211E-11
0.1	0.1	1.90400330026663E-11
0.1	0.15	2.04735320798301E-11
0.1	0.2	2.19790302527654E-11
0.1	0.25	2.35712762358787E-11
0.1	0.3	2.52570836298053E-11
0.1	0.35	2.70442001460454E-11
0.1	0.4	2.89411116293592E-11
0.1	0.45	3.09542515973373E-11
0.1	0.5	3.30926623115616E-11
0.1	0.55	3.53722843974305E-11
0.1	0.6	3.77972892813417E-11
0.1	0.65	4.03798129418763E-11
0.1	0.7	4.31355971462852E-11
0.1	0.75	4.60751414320840E-11
0.1	0.8	4.92137710744635E-11
0.1	0.85	5.25693042739002E-11
0.1	0.9	5.61557490590601E-11
0.1	0.95	5.99970882518390E-11
0.1	1.0	6.41097714466129E-11
0.1	1.05	6.85215526116128E-11
0.1	1.1	7.32562216193437E-11
0.1	1.15	7.83401050958659E-11
0.1	1.2	8.38087959266339E-11
0.2	0.0	-5.88263151206492E-17
0.2	0.05	5.29117092069595E-10
0.2	0.1	5.99723398850526E-10
0.2	0.15	6.44997106118556E-10
0.2	0.2	6.92057665846418E-10
0.2	0.25	7.41416890816671E-10
0.2	0.3	7.93270054064530E-10
0.2	0.35	8.47813799744858E-10
0.2	0.4	9.05249931479025E-10
0.2	0.45	9.65788514011904E-10
0.2	0.5	1.02964771833896E-09
0.2	0.55	1.09701137963040E-09
0.2	0.6	1.16825727875631E-09
0.2	0.65	1.24349518346017E-09
0.2	0.7	1.32311362019534E-09
0.2	0.75	1.40733506483762E-09
0.2	0.8	1.49645883905205E-09
0.2	0.85	1.59091236460543E-09
0.2	0.9	1.69095488679914E-09
0.2	0.95	1.79700409222788E-09
0.2	1.0	1.90948641240085E-09
0.2	1.05	2.02883191835863E-09
0.2	1.1	2.15553449146914E-09
0.2	1.15	2.29010289594639E-09
0.2	1.2	2.43309585652608E-09
0.3	0.0	1.98830823411986E-16
0.3	0.05	1.65323649134416E-08
0.3	0.1	1.88504252757817E-08
0.3	0.15	2.02939534179122E-08
0.3	0.2	2.17750110271927E-08
0.3	0.25	2.33136404469519E-08
0.3	0.3	2.49159355229471E-08
0.3	0.35	2.65875799969264E-08
0.3	0.4	2.83340509361382E-08
0.3	0.45	3.01607714061598E-08
0.3	0.5	3.20731997320212E-08
0.3	0.55	3.40769043187450E-08
0.3	0.6	3.61776049215540E-08
0.3	0.65	3.83814476001220E-08
0.3	0.7	4.06936939951296E-08
0.3	0.75	4.31223782496677E-08
0.3	0.8	4.56729395236500E-08
0.3	0.85	4.83526388286263E-08
0.3	0.9	5.11691401183084E-08
0.3	0.95	5.41301080965552E-08
0.3	1.0	5.72439980838548E-08
0.3	1.05	6.05192911605191E-08
0.3	1.1	6.39651400519785E-08
0.3	1.15	6.75912040593950E-08
0.3	1.2	7.14076772608916E-08
0.4	0.0	6.46766247826596E-17
0.4	0.05	4.89266366315622E-07
0.4	0.1	5.64011907394304E-07
0.4	0.15	6.07505736679758E-07
0.4	0.2	6.50966147077244E-07
0.4	0.25	6.95353107760181E-07
0.4	0.3	7.40893823911544E-07
0.4	0.35	7.87760001712444E-07
0.4	0.4	8.36094304018587E-07
0.4	0.45	8.86022702624881E-07
0.4	0.5	9.37660452475066E-07
0.4	0.55	9.91115942519494E-07
0.4	0.6	1.04649273456010E-06
0.4	0.65	1.10389398523076E-06
0.4	0.7	1.16342130565028E-06
0.4	0.75	1.22516661919909E-06
0.4	0.8	1.28923409299369E-06
0.4	0.85	1.35572660917013E-06
0.4	0.9	1.42474247849619E-06
0.4	0.95	1.49638519769292E-06
0.4	1.0	1.57075841535933E-06
0.4	1.05	1.64796688342120E-06
0.4	1.1	1.72811809830638E-06
0.4	1.15	1.81131955349355E-06
0.4	1.2	1.89768147686036E-06
0.5	0.0	3.21975999336552E-16
0.5	0.05	8.36869521327726E-06
0.5	0.1	1.02310670364749E-05
0.5	0.15	1.09413268410187E-05
0.5	0.2	1.15535861700623E-05
0.5	0.25	1.21470108465674E-05
0.5	0.3	1.27310806436405E-05
0.5	0.35	1.33102102381619E-05
0.5	0.4	1.38873005187671E-05
0.5	0.45	1.44643660106074E-05
0.5	0.5	1.50429876466691E-05
0.5	0.55	1.56242796955423E-05
0.5	0.6	1.62092361104688E-05
0.5	0.65	1.67985624372527E-05
0.5	0.7	1.73928993928998E-05
0.5	0.75	1.79927779770226E-05
0.5	0.8	1.85986027876948E-05
0.5	0.85	1.92108226111926E-05
0.5	0.9	1.98297118098914E-05
0.5	0.95	2.04555794387886E-05
0.5	1.0	2.10887177977895E-05
0.5	1.05	2.17293064307679E-05
0.5	1.1	2.23775667661673E-05
0.5	1.15	2.30336851179122E-05
0.5	1.2	2.36977947316610E-05
0.6	0.0	-1.81622381689204E-16
0.6	0.05	3.47558877121139E-05
0.6	0.1	5.09393751825748E-05
0.6	0.15	5.68560152105690E-05
0.6	0.2	5.95693250733208E-05
0.6	0.25	6.16882343286829E-05
0.6	0.3	6.36318893422219E-05
0.6	0.35	6.54715991952738E-05
0.6	0.4	6.72375651569368E-05
0.6	0.45	6.89488950672600E-05
0.6	0.5	7.06181799179291E-05
0.6	0.55	7.22549238001710E-05
0.6	0.6	7.38653907371050E-05
0.6	0.65	7.54548358759571E-05
0.6	0.7	7.70271216948656E-05
0.6	0.75	7.85854483407273E-05
0.6	0.8	8.01322104379266E-05
0.6	0.85	8.16697652550891E-05
0.6	0.9	8.31997015619376E-05
0.6	0.95	8.47234805256458E-05
0.6	1.0	8.62426001666178E-05
0.6	1.05	8.77579170394374E-05
0.6	1.1	8.92704289529572E-05
0.6	1.15	9.07810165384090E-05
0.6	1.2	9.22903473537259E-05
0.7	0.0	-2.84737779863645E-17
0.7	0.05	6.46158760271168E-05
0.7	0.1	1.06727102861089E-04
0.7	0.15	1.30531886007771E-04
0.7	0.2	1.42124507904612E-04
0.7	0.25	1.47954087090024E-04
0.7	0.3	1.52011012170420E-04
0.7	0.35	1.55507737737259E-04
0.7	0.4	1.58705524696965E-04
0.7	0.45	1.61701315714253E-04
0.7	0.5	1.64550694104895E-04
0.7	0.55	1.67289975539091E-04
0.7	0.6	1.69943062202408E-04
0.7	0.65	1.72526683628586E-04
0.7	0.7	1.75052966988940E-04
0.7	0.75	1.77531026884093E-04
0.7	0.8	1.79968099013666E-04
0.7	0.85	1.82370054360477E-04
0.7	0.9	1.84741058925346E-04
0.7	0.95	1.87085395827535E-04
0.7	1.0	1.89406342096822E-04
0.7	1.05	1.91706327897016E-04
0.7	1.1	1.93987962103439E-04
0.7	1.15	1.96252786696112E-04
0.7	1.2	1.98503111629759E-04
0.8	0.0	-2.25484779197347E-16
0.8	0.05	9.05729972078147E-05
0.8	0.1	1.58298247139023E-04
0.8	0.15	2.05372277631680E-04
0.8	0.2	2.35252912494981E-04
0.8	0.25	2.52423668881910E-04
0.8	0.3	2.62043381889285E-04
0.8	0.35	2.68393479345643E-04
0.8	0.4	2.73525729359002E-04
0.8	0.45	2.78058085518735E-04
0.8	0.5	2.82206374481943E-04
0.8	0.55	2.86090649624997E-04
0.8	0.6	2.89782417151801E-04
0.8	0.65	2.93328323545087E-04
0.8	0.7	2.96757691053475E-04
0.8	0.75	3.00092414203164E-04
0.8	0.8	3.03347398848554E-04
0.8	0.85	3.06534695462933E-04
0.8	0.9	3.09663354241048E-04
0.8	0.95	3.12741143251272E-04
0.8	1.0	3.15773497373442E-04
0.8	1.05	3.18766036943439E-04
0.8	1.1	3.21722659748450E-04
0.8	1.15	3.24646337188571E-04
0.8	1.2	3.27541371230472E-04
0.9	0.0	-8.74153122988223E-17
0.9	0.05	1.12090230365986E-04
0.9	0.1	2.02031683008814E-04
0.9	0.15	2.71128667533958E-04
0.9	0.2	3.21554557199900E-04
0.9	0.25	3.56064935494619E-04
0.9	0.3	3.78086681218750E-04
0.9	0.35	3.91634795425868E-04
0.9	0.4	4.00587289705488E-04
0.9	0.45	4.07471855930383E-04
0.9	0.5	4.13344728989517E-04
0.9	0.55	4.18601081494863E-04
0.9	0.6	4.23442355156968E-04
0.9	0.65	4.27996152318996E-04
0.9	0.7	4.32337965058199E-04
0.9	0.75	4.36515615690978E-04
0.9	0.8	4.40561055592990E-04
0.9	0.85	4.44495467601243E-04
0.9	0.9	4.48337810120322E-04
0.9	0.95	4.52099834288036E-04
0.9	1.0	4.55790790529395E-04
0.9	1.05	4.59420375805122E-04
0.9	1.1	4.62995777590869E-04
0.9	1.15	4.66519973628224E-04
0.9	1.2	4.69999104053520E-04
1.0	0.0	1.85092512157556E-16
1.0	0.05	1.29764900625975E-04
1.0	0.1	2.38361806805904E-04
1.0	0.15	3.26662674452598E-04
1.0	0.2	3.96218609452434E-04
1.0	0.25	4.48906105426812E-04
1.0	0.3	4.86956360674352E-04
1.0	0.35	5.13043105038966E-04
1.0	0.4	5.30310334427540E-04
1.0	0.45	5.42038952287973E-04
1.0	0.5	5.50824551788490E-04
1.0	0.55	5.58084016494504E-04
1.0	0.6	5.64443516514747E-04
1.0	0.65	5.70211890270307E-04
1.0	0.7	5.75574122109638E-04
1.0	0.75	5.80649303331926E-04
1.0	0.8	5.85508989818474E-04
1.0	0.85	5.90196339063338E-04
1.0	0.9	5.94743714186134E-04
1.0	0.95	5.99174493435878E-04
1.0	1.0	6.03501879391223E-04
1.0	1.05	6.07742186860210E-04
1.0	1.1	6.11905525598317E-04
1.0	1.15	6.15997685613535E-04
1.0	1.2	6.20027995290096E-04
1.1	0.0	1.68624557133599E-16
1.1	0.05	1.44322491299922E-04
1.1	0.1	2.68460535111732E-04
1.1	0.15	3.73076601314844E-04
1.1	0.2	4.59410705870454E-04
1.1	0.25	5.28892964844534E-04
1.1	0.3	5.83118382374291E-04
1.1	0.35	6.23901896778413E-04
1.1	0.4	6.53368196312879E-04
1.1	0.45	6.74006677731020E-04
1.1	0.5	6.88526197592116E-04
1.1	0.55	6.99345720054095E-04
1.1	0.6	7.08076851525976E-04
1.1	0.65	7.15568554259934E-04
1.1	0.7	7.22261456170038E-04
1.1	0.75	7.28415286388480E-04
1.1	0.8	7.34192029074721E-04
1.1	0.85	7.39693388570982E-04
1.1	0.9	7.44980524390340E-04
1.1	0.95	7.50095708854991E-04
1.1	1.0	7.55065998554174E-04
1.1	1.05	7.59915594570979E-04
1.1	1.1	7.64657115012453E-04
1.1	1.15	7.69305156802290E-04
1.1	1.2	7.73871308154480E-04
1.2	0.0	-1.39699785106291E-16
1.2	0.05	1.56406087655315E-04
1.2	0.1	2.93512903124135E-04
1.2	0.15	4.11886255850314E-04
1.2	0.2	5.12613181076705E-04
1.2	0.25	5.96896410319971E-04
1.2	0.3	6.65998878932987E-04
1.2	0.35	7.21264928601433E-04
1.2	0.4	7.64181970491392E-04
1.2	0.45	7.96461301086878E-04
1.2	0.5	8.20098536862121E-04
1.2	0.55	8.37312028357724E-04
1.2	0.6	8.50243217148992E-04
1.2	0.65	8.60541043570679E-04
1.2	0.7	8.69224008645180E-04
1.2	0.75	8.76864568099698E-04
1.2	0.8	8.83814111539017E-04
1.2	0.85	8.90283401760217E-04
1.2	0.9	8.96407429636775E-04
1.2	0.95	9.02269549810732E-04
1.2	1.0	9.07925064228578E-04
1.2	1.05	9.13405225575511E-04
1.2	1.1	9.18742038296067E-04
1.2	1.15	9.23953412717321E-04
1.2	1.2	9.29053956404396E-04