vg	vd	ids
0.0	0.0	1.10854583643530E-17
0.0	0.05	5.20841137967795E-13
0.0	0.1	6.17044645274546E-13
0.0	0.15	6.70769633014629E-13
0.0	0.2	7.25513747705131E-13
0.0	0.25	7.84375273072397E-13
0.0	0.3	8.47715725420914E-13
0.0	0.35	9.16122498580890E-13
0.0	0.4	9.89991300646057E-13
0.0	0.45	1.07001181686696E-12
0.0	0.5	1.15690325628842E-12
0.0	0.55	1.25147695264685E-12
0.0	0.6	1.35452040573978E-12
0.0	0.65	1.46711889766921E-12
0.0	0.7	1.59054085169502E-12
0.0	0.75	1.72614914309057E-12
0.0	0.8	1.87551153504124E-12
0.0	0.85	2.04061724377032E-12
0.0	0.9	2.22366705449672E-12
0.0	0.95	2.42729933930373E-12
0.0	1.0	2.65477392339258E-12
0.0	1.05	2.90948213340780E-12
0.0	1.1	3.19628000587611E-12
0.0	1.15	3.52002421810347E-12
0.0	1.2	3.88746709262121E-12
0.1	0.0	-3.26477235298819E-17
0.1	0.05	1.63807329582292E-11
0.1	0.1	1.94119449024937E-11
0.1	0.15	2.10470217664193E-11
0.1	0.2	2.26820337061321E-11
0.1	0.25	2.44154538923516E-11
0.1	0.3	2.62580319353027E-11
0.1	0.35	2.82194368805396E-11
0.1	0.4	3.03102217134470E-11
0.1	0.45	3.25419755456721E-11
0.1	0.5	3.49274311725136E-11
0.1	0.55	3.74802572246315E-11
0.1	0.6	4.02163668654382E-11
0.1	0.65	4.31529022232306E-11
0.1	0.7	4.63082267122816E-11
0.1	0.75	4.97048889781880E-11
0.1	0.8	5.33671758007334E-11
0.1	0.85	5.73196361085690E-11
0.1	0.9	6.15977507007990E-11
0.1	0.95	6.62286999609423E-11
0.1	1.0	7.12582233668514E-11
0.1	1.05	7.67302927048886E-11
0.1	1.1	8.26954828493242E-11
0.1	1.15	8.92093639344197E-11
0.1	1.2	9.63477109104759E-11
0.2	0.0	2.43284438352338E-17
0.2	0.05	5.21519087220899E-10
0.2	0.1	6.19245309238839E-10
0.2	0.15	6.70768748388240E-10
0.2	0.2	7.21390439020374E-10
0.2	0.25	7.74443288383699E-10
0.2	0.3	8.30224470245194E-10
0.2	0.35	8.88954469703432E-10
0.2	0.4	9.50873561445185E-10
0.2	0.45	1.01623387516256E-09
0.2	0.5	1.08529443161981E-09
0.2	0.55	1.15834259759645E-09
0.2	0.6	1.23569495970032E-09
0.2	0.65	1.31760261399864E-09
0.2	0.7	1.40454805472171E-09
0.2	0.75	1.49677331821662E-09
0.2	0.8	1.59485756449515E-09
0.2	0.85	1.69907166156400E-09
0.2	0.9	1.81008402886792E-09
0.2	0.95	1.92835401372927E-09
0.2	1.0	2.05445306805246E-09
0.2	1.05	2.18915594321435E-09
0.2	1.1	2.33305782917811E-09
0.2	1.15	2.48707972354399E-09
0.2	1.2	2.65208162298075E-09
0.3	0.0	-1.66299702584863E-18
0.3	0.05	1.65526651854228E-08
0.3	0.1	1.97359566426239E-08
0.3	0.15	2.13855555241120E-08
0.3	0.2	2.29744058258846E-08
0.3	0.25	2.46185577766292E-08
0.3	0.3	2.63275211034733E-08
0.3	0.35	2.81072061348757E-08
0.3	0.4	2.99641794557607E-08
0.3	0.45	3.19037175478711E-08
0.3	0.5	3.39320151343911E-08
0.3	0.55	3.60544929788767E-08
0.3	0.6	3.82780373088601E-08
0.3	0.65	4.06083039115639E-08
0.3	0.7	4.30534983127654E-08
0.3	0.75	4.56192013508269E-08
0.3	0.8	4.83140836198877E-08
0.3	0.85	5.11463052339001E-08
0.3	0.9	5.41238881281820E-08
0.3	0.95	5.72559323843366E-08
0.3	1.0	6.05530063313546E-08
0.3	1.05	6.40250387257149E-08
0.3	1.1	6.76833422916416E-08
0.3	1.15	7.15399632245751E-08
0.3	1.2	7.56076674898729E-08
0.4	0.0	-1.27546875803688E-17
0.4	0.05	4.82900131601788E-07
0.4	0.1	5.82838879437458E-07
0.4	0.15	6.31529673601363E-07
0.4	0.2	6.76315558799102E-07
0.4	0.25	7.21568387986376E-07
0.4	0.3	7.67672625941729E-07
0.4	0.35	8.14842451612349E-07
0.4	0.4	8.63218873786902E-07
0.4	0.45	9.12915005384817E-07
0.4	0.5	9.64029342842767E-07
0.4	0.55	1.01667457148677E-06
0.4	0.6	1.07093293440751E-06
0.4	0.65	1.12690932740877E-06
0.4	0.7	1.18467514761894E-06
0.4	0.75	1.24432294231389E-06
0.4	0.8	1.30594772655382E-06
0.4	0.85	1.36962676239324E-06
0.4	0.9	1.43545154143016E-06
0.4	0.95	1.50351408386920E-06
0.4	1.0	1.57390692666094E-06
0.4	1.05	1.64672386012647E-06
0.4	1.1	1.72205882808360E-06
0.4	1.15	1.80001171939119E-06
0.4	1.2	1.88068316225168E-06
0.5	0.0	-1.93126763910397E-17
0.5	0.05	6.63044883136426E-06
0.5	0.1	8.76167018588219E-06
0.5	0.15	9.53759853929200E-06
0.5	0.2	1.00721087485778E-05
0.5	0.25	1.05661884388419E-05
0.5	0.3	1.10454955315560E-05
0.5	0.35	1.15161510439518E-05
0.5	0.4	1.19814455496407E-05
0.5	0.45	1.24434904109906E-05
0.5	0.5	1.29038749441122E-05
0.5	0.55	1.33638364184268E-05
0.5	0.6	1.38243173195688E-05
0.5	0.65	1.42860603893473E-05
0.5	0.7	1.47497206184465E-05
0.5	0.75	1.52157920964748E-05
0.5	0.8	1.56848197441439E-05
0.5	0.85	1.61571427406379E-05
0.5	0.9	1.66331523170891E-05
0.5	0.95	1.71132070115563E-05
0.5	1.0	1.75975792292629E-05
0.5	1.05	1.80865681641063E-05
0.5	1.1	1.85804186816332E-05
0.5	1.15	1.90793879473006E-05
0.5	1.2	1.95836882877869E-05
0.6	0.0	-2.60144224445019E-17
0.6	0.05	2.26647321438436E-05
0.6	0.1	3.57372782507037E-05
0.6	0.15	4.20779349854020E-05
0.6	0.2	4.50495406013295E-05
0.6	0.25	4.69192931943330E-05
0.6	0.3	4.84928511128584E-05
0.6	0.35	4.99462908602345E-05
0.6	0.4	5.13246678308009E-05
0.6	0.45	5.26497350675200E-05
0.6	0.5	5.39346301781681E-05
0.6	0.55	5.51884956377463E-05
0.6	0.6	5.64177694503051E-05
0.6	0.65	5.76272383784813E-05
0.6	0.7	5.88206947706848E-05
0.6	0.75	6.00009316482322E-05
0.6	0.8	6.11705846677767E-05
0.6	0.85	6.23315111019920E-05
0.6	0.9	6.34853500599847E-05
0.6	0.95	6.46337547647644E-05
0.6	1.0	6.57777895661564E-05
0.6	1.05	6.69186039136215E-05
0.6	1.1	6.80572309648439E-05
0.6	1.15	6.91944754217926E-05
0.6	1.2	7.03311059892089E-05
0.7	0.0	1.41581189713439E-17
0.7	0.05	4.05013343354292E-05
0.7	0.1	7.00534192058880E-05
0.7	0.15	8.98218630398126E-05
0.7	0.2	1.01764098757750E-04
0.7	0.25	1.08503284157396E-04
0.7	0.3	1.12627976970056E-04
0.7	0.35	1.15749895969033E-04
0.7	0.4	1.18467525928399E-04
0.7	0.45	1.20959338566557E-04
0.7	0.5	1.23298510324833E-04
0.7	0.55	1.25526617232740E-04
0.7	0.6	1.27670015698407E-04
0.7	0.65	1.29746897147978E-04
0.7	0.7	1.31769425944032E-04
0.7	0.75	1.33747271650095E-04
0.7	0.8	1.35687595976564E-04
0.7	0.85	1.37595847728965E-04
0.7	0.9	1.39476826550441E-04
0.7	0.95	1.41334506586702E-04
0.7	1.0	1.43171918850022E-04
0.7	1.05	1.44991604871525E-04
0.7	1.1	1.46796269631347E-04
0.7	1.15	1.48587867851135E-04
0.7	1.2	1.50367986749337E-04
0.8	0.0	9.08173291726249E-18
0.8	0.05	5.69717873433850E-05
0.8	0.1	1.02941234867828E-04
0.8	0.15	1.38356545503318E-04
0.8	0.2	1.64148628677291E-04
0.8	0.25	1.81734333378263E-04
0.8	0.3	1.93037492611028E-04
0.8	0.35	2.00305553661274E-04
0.8	0.4	2.05497266355078E-04
0.8	0.45	2.09732665673319E-04
0.8	0.5	2.13467258144439E-04
0.8	0.55	2.16886754351308E-04
0.8	0.6	2.20088674877843E-04
0.8	0.65	2.23130342703956E-04
0.8	0.7	2.26049821067989E-04
0.8	0.75	2.28871362139009E-04
0.8	0.8	2.31612803350574E-04
0.8	0.85	2.34287343992738E-04
0.8	0.9	2.36905463317648E-04
0.8	0.95	2.39474627812752E-04
0.8	1.0	2.42001290893357E-04
0.8	1.05	2.44491310757804E-04
0.8	1.1	2.46949231125093E-04
0.8	1.15	2.49378960575265E-04
0.8	1.2	2.51782402439737E-04
0.9	0.0	2.16413780758520E-17
0.9	0.05	7.15070943952587E-05
0.9	0.1	1.32393715925401E-04
0.9	0.15	1.82766861465196E-04
0.9	0.2	2.23080678188646E-04
0.9	0.25	2.54079406369353E-04
0.9	0.3	2.76833154969573E-04
0.9	0.35	2.92788747955190E-04
0.9	0.4	3.03735584968279E-04
0.9	0.45	3.11528271545993E-04
0.9	0.5	3.17598509932374E-04
0.9	0.55	3.22732374574661E-04
0.9	0.6	3.27300992311476E-04
0.9	0.65	3.31497306841036E-04
0.9	0.7	3.35432345440099E-04
0.9	0.75	3.39174155397250E-04
0.9	0.8	3.42766655304553E-04
0.9	0.85	3.46238542238825E-04
0.9	0.9	3.49610185763109E-04
0.9	0.95	3.52899164964391E-04
0.9	1.0	3.56116616641777E-04
0.9	1.05	3.59271049717805E-04
0.9	1.1	3.62371864557855E-04
0.9	1.15	3.65426096651955E-04
0.9	1.2	3.68437070512108E-04
1.0	0.0	3.03652032373911E-17
1.0	0.05	8.41124398313404E-05
1.0	0.1	1.58141763590958E-04
1.0	0.15	2.22017508196773E-04
1.0	0.2	2.75949708657750E-04
1.0	0.25	3.20339592573605E-04
1.0	0.3	3.55787091190263E-04
1.0	0.35	3.83127195765996E-04
1.0	0.4	4.03476945221986E-04
1.0	0.45	4.18245120962849E-04
1.0	0.5	4.29017957640862E-04
1.0	0.55	4.37259853002679E-04
1.0	0.6	4.44004904727392E-04
1.0	0.65	4.49834764906089E-04
1.0	0.7	4.55072498949393E-04
1.0	0.75	4.59910140201338E-04
1.0	0.8	4.64462627512123E-04
1.0	0.85	4.68803719830524E-04
1.0	0.9	4.72975942392645E-04
1.0	0.95	4.77012985681032E-04
1.0	1.0	4.80937816457522E-04
1.0	1.05	4.84765914876431E-04
1.0	1.1	4.88512302907777E-04
1.0	1.15	4.92187889701273E-04
1.0	1.2	4.95798418545735E-04
1.1	0.0	-1.18841980032328E-17
1.1	0.05	9.49675263004039E-05
1.1	0.1	1.80421273742559E-04
1.1	0.15	2.56200128785909E-04
1.1	0.2	3.22386084699804E-04
1.1	0.25	3.79198142472078E-04
1.1	0.3	4.26981301719113E-04
1.1	0.35	4.66223163624169E-04
1.1	0.4	4.97588950280953E-04
1.1	0.45	5.21958051413259E-04
1.1	0.5	5.40445687303324E-04
1.1	0.55	5.54363221843514E-04
1.1	0.6	5.65052979062086E-04
1.1	0.65	5.73636973977194E-04
1.1	0.7	5.80882693768016E-04
1.1	0.75	5.87251300293411E-04
1.1	0.8	5.93029918633719E-04
1.1	0.85	5.98404951751520E-04
1.1	0.9	6.03483454966581E-04
1.1	0.95	6.08340970172949E-04
1.1	1.0	6.13019616961533E-04
1.1	1.05	6.17552451532056E-04
1.1	1.1	6.21965465900694E-04
1.1	1.15	6.26272688347153E-04
1.1	1.2	6.30489028022013E-04
1.2	0.0	-3.11610629860675E-18
1.2	0.05	1.04304181668744E-04
1.2	0.1	1.99635796902594E-04
1.2	0.15	2.85792567504869E-04
1.2	0.2	3.62793404049360E-04
1.2	0.25	4.30762020363306E-04
1.2	0.3	4.89905013679447E-04
1.2	0.35	5.40516316440372E-04
1.2	0.4	5.82998035949872E-04
1.2	0.45	6.17885776029796E-04
1.2	0.5	6.45879387678339E-04
1.2	0.55	6.67870942129496E-04
1.2	0.6	6.84931710432460E-04
1.2	0.65	6.98230671312654E-04
1.2	0.7	7.08862327892433E-04
1.2	0.75	7.17689455274574E-04
1.2	0.8	7.25306126927617E-04
1.2	0.85	7.32102037684500E-04
1.2	0.9	7.38331619127625E-04
1.2	0.95	7.44165106147190E-04
1.2	1.0	7.49703235688885E-04
1.2	1.05	7.55013519335386E-04
1.2	1.1	7.60141168068597E-04
1.2	1.15	7.65114383732677E-04
1.2	1.2	7.69961263148538E-04