vg	vd	ids
0.0	0.0	2.43722796455723E-17
0.0	0.05	4.39391982007859E-14
0.0	0.1	4.99508501101258E-14
0.0	0.15	5.17296706311064E-14
0.0	0.2	5.32055028080946E-14
0.0	0.25	5.47061021610650E-14
0.0	0.3	5.62087308405223E-14
0.0	0.35	5.77075320608531E-14
0.0	0.4	5.92570421826764E-14
0.0	0.45	6.08526355416394E-14
0.0	0.5	6.24124055898014E-14
0.0	0.55	6.40444676531229E-14
0.0	0.6	6.57292724151179E-14
0.0	0.65	6.74289317956082E-14
0.0	0.7	6.91813035385656E-14
0.0	0.75	7.09020228309262E-14
0.0	0.8	7.27084182257215E-14
0.0	0.85	7.45355655057634E-14
0.0	0.9	7.64446265374209E-14
0.0	0.95	7.83559996819203E-14
0.0	1.0	8.03662429655884E-14
0.0	1.05	8.23920969782434E-14
0.0	1.1	8.44989327973333E-14
0.0	1.15	8.43492043436586E-14
0.0	1.2	8.69451972922230E-14
0.1	0.0	-1.55693755916371E-17
0.1	0.05	1.42205839828183E-12
0.1	0.1	1.62250417942735E-12
0.1	0.15	1.68379410448952E-12
0.1	0.2	1.73513932471290E-12
0.1	0.25	1.78650070992732E-12
0.1	0.3	1.83855466996439E-12
0.1	0.35	1.89118749754552E-12
0.1	0.4	1.94457173623141E-12
0.1	0.45	1.99879116698549E-12
0.1	0.5	2.05391790776154E-12
0.1	0.55	2.11000968900706E-12
0.1	0.6	2.16718092275529E-12
0.1	0.65	2.22547830396023E-12
0.1	0.7	2.28491934869751E-12
0.1	0.75	2.34561984072000E-12
0.1	0.8	2.40765248752907E-12
0.1	0.85	2.47104379521940E-12
0.1	0.9	2.53578481560099E-12
0.1	0.95	2.60211717174241E-12
0.1	1.0	2.66991188291850E-12
0.1	1.05	2.73932342806165E-12
0.1	1.1	2.81040035337783E-12
0.1	1.15	2.88319123945186E-12
0.1	1.2	2.95778712927792E-12
0.2	0.0	1.53924031497499E-17
0.2	0.05	4.69123254300175E-11
0.2	0.1	5.37251876908581E-11
0.2	0.15	5.58932927757447E-11
0.2	0.2	5.77093181181439E-11
0.2	0.25	5.95224375219511E-11
0.2	0.3	6.13503480797134E-11
0.2	0.35	6.31971856486953E-11
0.2	0.4	6.50666144313445E-11
0.2	0.45	6.69610777026776E-11
0.2	0.5	6.88836683559231E-11
0.2	0.55	7.08381608117337E-11
0.2	0.6	7.28263191239440E-11
0.2	0.65	7.48504599644812E-11
0.2	0.7	7.69126304430692E-11
0.2	0.75	7.90152786983096E-11
0.2	0.8	8.11606908577683E-11
0.2	0.85	8.33506602263707E-11
0.2	0.9	8.55874547853156E-11
0.2	0.95	8.78728566640260E-11
0.2	1.0	9.02091460567390E-11
0.2	1.05	9.25982108653843E-11
0.2	1.1	9.50419983465624E-11
0.2	1.15	9.75425278907434E-11
0.2	1.2	1.00102015669778E-10
0.3	0.0	-2.11230871389029E-17
0.3	0.05	1.56255673116242E-09
0.3	0.1	1.79716199377671E-09
0.3	0.15	1.87469987998446E-09
0.3	0.2	1.93952323803358E-09
0.3	0.25	2.00388110777219E-09
0.3	0.3	2.06848279775318E-09
0.3	0.35	2.13351470606479E-09
0.3	0.4	2.19912248274057E-09
0.3	0.45	2.26542143621905E-09
0.3	0.5	2.33260016947412E-09
0.3	0.55	2.40070492722310E-09
0.3	0.6	2.46983790023113E-09
0.3	0.65	2.54007839028691E-09
0.3	0.7	2.61152465090063E-09
0.3	0.75	2.68425163643895E-09
0.3	0.8	2.75833113888082E-09
0.3	0.85	2.83383949250168E-09
0.3	0.9	2.91084533936197E-09
0.3	0.95	2.98941767493003E-09
0.3	1.0	3.06962392652757E-09
0.3	1.05	3.15153043753741E-09
0.3	1.1	3.23520260378393E-09
0.3	1.15	3.32070557180972E-09
0.3	1.2	3.40810421342998E-09
0.4	0.0	3.69851464171122E-18
0.4	0.05	5.14153909254103E-08
0.4	0.1	5.95295906527532E-08
0.4	0.15	6.22903041158804E-08
0.4	0.2	6.45706061196959E-08
0.4	0.25	6.68119048330901E-08
0.4	0.3	6.90452969036997E-08
0.4	0.35	7.12789888906453E-08
0.4	0.4	7.35217919820271E-08
0.4	0.45	7.57805483929700E-08
0.4	0.5	7.80580255729229E-08
0.4	0.55	8.03585119175546E-08
0.4	0.6	8.26859410479798E-08
0.4	0.65	8.50437199351849E-08
0.4	0.7	8.74347679952596E-08
0.4	0.75	8.98618979765967E-08
0.4	0.8	9.23276619275873E-08
0.4	0.85	9.48344795907030E-08
0.4	0.9	9.73846385320337E-08
0.4	0.95	9.99803254633503E-08
0.4	1.0	1.02623669148530E-07
0.4	1.05	1.05316700946240E-07
0.4	1.1	1.08061428618003E-07
0.4	1.15	1.10859762421081E-07
0.4	1.2	1.13713634841707E-07
0.5	0.0	-2.42431074463528E-17
0.5	0.05	1.29644305205510E-06
0.5	0.1	1.55679670921542E-06
0.5	0.15	1.63626731877476E-06
0.5	0.2	1.69396751277055E-06
0.5	0.25	1.74860855821102E-06
0.5	0.3	1.80196738688124E-06
0.5	0.35	1.85446833044634E-06
0.5	0.4	1.90647971672520E-06
0.5	0.45	1.95817017367661E-06
0.5	0.5	2.00966612328124E-06
0.5	0.55	2.06112138425132E-06
0.5	0.6	2.11263853667770E-06
0.5	0.65	2.16430760668025E-06
0.5	0.7	2.21620158979455E-06
0.5	0.75	2.26838541685520E-06
0.5	0.8	2.32091515668505E-06
0.5	0.85	2.37384012512976E-06
0.5	0.9	2.42720347627609E-06
0.5	0.95	2.48104684803976E-06
0.5	1.0	2.53540461920354E-06
0.5	1.05	2.59031043389170E-06
0.5	1.1	2.64579454483299E-06
0.5	1.15	2.70188368493396E-06
0.5	1.2	2.75860395219605E-06
0.6	0.0	-1.49399110728521E-17
0.6	0.05	9.05002851547409E-06
0.6	0.1	1.29788558070744E-05
0.6	0.15	1.43179797196943E-05
0.6	0.2	1.48652411395482E-05
0.6	0.25	1.52519054393433E-05
0.6	0.3	1.56008385996970E-05
0.6	0.35	1.59315876562999E-05
0.6	0.4	1.62494586330162E-05
0.6	0.45	1.65579783083613E-05
0.6	0.5	1.68589516647428E-05
0.6	0.55	1.71540534900522E-05
0.6	0.6	1.74444887046445E-05
0.6	0.65	1.77311327442124E-05
0.6	0.7	1.80147806372110E-05
0.6	0.75	1.82959887759913E-05
0.6	0.8	1.85752769325211E-05
0.6	0.85	1.88530315830374E-05
0.6	0.9	1.91296074830275E-05
0.6	0.95	1.94053198178366E-05
0.6	1.0	1.96803984546232E-05
0.6	1.05	1.99550769373454E-05
0.6	1.1	2.02295665327673E-05
0.6	1.15	2.05040135913233E-05
0.6	1.2	2.07785732558173E-05
0.7	0.0	-4.30721982582294E-18
0.7	0.05	2.09709563738309E-05
0.7	0.1	3.48326204740405E-05
0.7	0.15	4.28094568913887E-05
0.7	0.2	4.67402315463768E-05
0.7	0.25	4.86061991122178E-05
0.7	0.3	4.97394638935116E-05
0.7	0.35	5.06583315816838E-05
0.7	0.4	5.14914667660517E-05
0.7	0.45	5.22716697755637E-05
0.7	0.5	5.30137525919331E-05
0.7	0.55	5.37265161257043E-05
0.7	0.6	5.44165186205863E-05
0.7	0.65	5.50880658744792E-05
0.7	0.7	5.57446248423254E-05
0.7	0.75	5.63885886216817E-05
0.7	0.8	5.70219547949065E-05
0.7	0.85	5.76463511006650E-05
0.7	0.9	5.82629987405832E-05
0.7	0.95	5.88730027184719E-05
0.7	1.0	5.94772419461140E-05
0.7	1.05	6.00764944706767E-05
0.7	1.1	6.06714047536538E-05
0.7	1.15	6.12625097043998E-05
0.7	1.2	6.18503437962296E-05
0.8	0.0	1.47085417172454E-17
0.8	0.05	3.28334638202048E-05
0.8	0.1	5.81543309909462E-05
0.8	0.15	7.64704582440185E-05
0.8	0.2	8.86704782794093E-05
0.8	0.25	9.60425592221923E-05
0.8	0.3	1.00185387330774E-04
0.8	0.35	1.02643471803586E-04
0.8	0.4	1.04421851301135E-04
0.8	0.45	1.05932214730992E-04
0.8	0.5	1.07300851170685E-04
0.8	0.55	1.08575141839331E-04
0.8	0.6	1.09780499843448E-04
0.8	0.65	1.10933933356366E-04
0.8	0.7	1.12046424145065E-04
0.8	0.75	1.13125957206728E-04
0.8	0.8	1.14178260773665E-04
0.8	0.85	1.15207571555257E-04
0.8	0.9	1.16217273233409E-04
0.8	0.95	1.17210143650673E-04
0.8	1.0	1.18188170077088E-04
0.8	1.05	1.19153247736585E-04
0.8	1.1	1.20106939748075E-04
0.8	1.15	1.21050423240895E-04
0.8	1.2	1.21984850874361E-04
0.9	0.0	8.75424922793303E-18
0.9	0.05	4.37158623040451E-05
0.9	0.1	7.99752747448065E-05
0.9	0.15	1.08984430847780E-04
0.9	0.2	1.31195126710583E-04
0.9	0.25	1.47289214871583E-04
0.9	0.3	1.58210326253537E-04
0.9	0.35	1.65176622194966E-04
0.9	0.4	1.69558302518495E-04
0.9	0.45	1.72567306187215E-04
0.9	0.5	1.74948696821776E-04
0.9	0.55	1.77018258495448E-04
0.9	0.6	1.78896925744380E-04
0.9	0.65	1.80644339494001E-04
0.9	0.7	1.82296201252108E-04
0.9	0.75	1.83875635121037E-04
0.9	0.8	1.85397976106432E-04
0.9	0.85	1.86874159521847E-04
0.9	0.9	1.88311747477597E-04
0.9	0.95	1.89716647579070E-04
0.9	1.0	1.91093463492255E-04
0.9	1.05	1.92445830493956E-04
0.9	1.1	1.93776559188510E-04
0.9	1.15	1.95088251053575E-04
0.9	1.2	1.96382986787720E-04
1.0	0.0	4.28115457702686E-18
1.0	0.05	5.34565050873399E-05
1.0	0.1	9.96839979834833E-05
1.0	0.15	1.38732839314309E-04
1.0	0.2	1.70844563744649E-04
1.0	0.25	1.96404408038124E-04
1.0	0.3	2.15953086696392E-04
1.0	0.35	2.30217816020288E-04
1.0	0.4	2.40134772596109E-04
1.0	0.45	2.46824932057393E-04
1.0	0.5	2.51448564168031E-04
1.0	0.55	2.54939755571703E-04
1.0	0.6	2.57842732709893E-04
1.0	0.65	2.60402075389213E-04
1.0	0.7	2.62735379462273E-04
1.0	0.75	2.64911042551297E-04
1.0	0.8	2.66971478901621E-04
1.0	0.85	2.68944125346342E-04
1.0	0.9	2.70847194680976E-04
1.0	0.95	2.72693168407443E-04
1.0	1.0	2.74491219183838E-04
1.0	1.05	2.76248596536298E-04
1.0	1.1	2.77970622271325E-04
1.0	1.15	2.79661423844611E-04
1.0	1.2	2.81324708675305E-04
1.1	0.0	-1.04736803607044E-17
1.1	0.05	6.20833688312186E-05
1.1	0.1	1.17232311373505E-04
1.1	0.15	1.65409273386985E-04
1.1	0.2	2.06741548245231E-04
1.1	0.25	2.41457811640663E-04
1.1	0.3	2.69884988088276E-04
1.1	0.35	2.92463341465186E-04
1.1	0.4	3.09769642807947E-04
1.1	0.45	3.22542140771084E-04
1.1	0.5	3.31683002403001E-04
1.1	0.55	3.38203749792123E-04
1.1	0.6	3.43059272796602E-04
1.1	0.65	3.46954309395800E-04
1.1	0.7	3.50288674990288E-04
1.1	0.75	3.53263230075239E-04
1.1	0.8	3.55992150640652E-04
1.1	0.85	3.58547820015591E-04
1.1	0.9	3.60975764389170E-04
1.1	0.95	3.63305676347848E-04
1.1	1.0	3.65556379321959E-04
1.1	1.05	3.67742042261326E-04
1.1	1.1	3.69872931016548E-04
1.1	1.15	3.71956143914805E-04
1.1	1.2	3.73997992117391E-04
1.2	0.0	-2.75965431930845E-17
1.2	0.05	6.96899909931867E-05
1.2	0.1	1.32757231341880E-04
1.2	0.15	1.89114173105745E-04
1.2	0.2	2.38823692406478E-04
1.2	0.25	2.82026606995876E-04
1.2	0.3	3.18930257070955E-04
1.2	0.35	3.49813347570507E-04
1.2	0.4	3.75039477823464E-04
1.2	0.45	3.95076407005276E-04
1.2	0.5	4.10517015355357E-04
1.2	0.55	4.22092459470219E-04
1.2	0.6	4.30652783114812E-04
1.2	0.65	4.37081747678147E-04
1.2	0.7	4.42143688211263E-04
1.2	0.75	4.46364703702048E-04
1.2	0.8	4.50050889911638E-04
1.2	0.85	4.53375707946996E-04
1.2	0.9	4.56448179645231E-04
1.2	0.95	4.59341286113677E-04
1.2	1.0	4.62099493167687E-04
1.2	1.05	4.64752881652541E-04
1.2	1.1	4.67320770881960E-04
1.2	1.15	4.69817536584525E-04
1.2	1.2	4.72253759422858E-04