vg	vd	ids
0.0	0.0	-1.12784047948394E-17
0.0	0.05	3.52346108932920E-13
0.0	0.1	3.98584408621609E-13
0.0	0.15	4.20249535238878E-13
0.0	0.2	4.42057339024110E-13
0.0	0.25	4.64851429975641E-13
0.0	0.3	4.88749214718100E-13
0.0	0.35	5.13685075541712E-13
0.0	0.4	5.39887414273768E-13
0.0	0.45	5.67372390149820E-13
0.0	0.5	5.96276316569207E-13
0.0	0.55	6.26612278973917E-13
0.0	0.6	6.58517858110706E-13
0.0	0.65	6.92060808858204E-13
0.0	0.7	7.27346602387300E-13
0.0	0.75	7.64651015431896E-13
0.0	0.8	8.03934073380026E-13
0.0	0.85	8.45197334050159E-13
0.0	0.9	8.88858247900407E-13
0.0	0.95	9.34911255911357E-13
0.0	1.0	9.83673708094238E-13
0.0	1.05	1.03502107874671E-12
0.0	1.1	1.08946538234353E-12
0.0	1.15	1.14697758124016E-12
0.0	1.2	1.20804655094703E-12
0.1	0.0	-7.13189525074970E-18
0.1	0.05	1.19218485813247E-11
0.1	0.1	1.35314170232826E-11
0.1	0.15	1.42766334115063E-11
0.1	0.2	1.50189208719598E-11
0.1	0.25	1.57896472460078E-11
0.1	0.3	1.65912662061457E-11
0.1	0.35	1.74258786974008E-11
0.1	0.4	1.82959218982138E-11
0.1	0.45	1.92031346556731E-11
0.1	0.5	2.01519690090654E-11
0.1	0.55	2.11423446939510E-11
0.1	0.6	2.21784693115320E-11
0.1	0.65	2.32615868567787E-11
0.1	0.7	2.43969136306348E-11
0.1	0.75	2.55837132823014E-11
0.1	0.8	2.68279932049924E-11
0.1	0.85	2.81316849834750E-11
0.1	0.9	2.94977670513312E-11
0.1	0.95	3.09315893759258E-11
0.1	1.0	3.24351906967398E-11
0.1	1.05	3.40130601604348E-11
0.1	1.1	3.56697543228179E-11
0.1	1.15	3.74097031916057E-11
0.1	1.2	3.92381763487512E-11
0.2	0.0	-2.74502600584568E-17
0.2	0.05	4.06674992286165E-10
0.2	0.1	4.63402382539888E-10
0.2	0.15	4.89434483376753E-10
0.2	0.2	5.15053665282667E-10
0.2	0.25	5.41467633758366E-10
0.2	0.3	5.68764672259246E-10
0.2	0.35	5.97023449057863E-10
0.2	0.4	6.26318315265987E-10
0.2	0.45	6.56721347562763E-10
0.2	0.5	6.88294083221003E-10
0.2	0.55	7.21145578979666E-10
0.2	0.6	7.55306527847337E-10
0.2	0.65	7.90841818937250E-10
0.2	0.7	8.27869438125651E-10
0.2	0.75	8.66440525204340E-10
0.2	0.8	9.06618510128889E-10
0.2	0.85	9.48512346895485E-10
0.2	0.9	9.92207731443995E-10
0.2	0.95	1.03777610628772E-09
0.2	1.0	1.08532680838834E-09
0.2	1.05	1.13495249595425E-09
0.2	1.1	1.18675553225716E-09
0.2	1.15	1.24084419029840E-09
0.2	1.2	1.29733199763524E-09
0.3	0.0	-3.87169505794401E-17
0.3	0.05	1.38412584158887E-08
0.3	0.1	1.58552269399500E-08
0.3	0.15	1.67729163333706E-08
0.3	0.2	1.76618640686246E-08
0.3	0.25	1.85699353880052E-08
0.3	0.3	1.95010496493642E-08
0.3	0.35	2.04582861883893E-08
0.3	0.4	2.14443378077373E-08
0.3	0.45	2.24621391642512E-08
0.3	0.5	2.35127101874531E-08
0.3	0.55	2.45989810835805E-08
0.3	0.6	2.57237461766235E-08
0.3	0.65	2.68880348236580E-08
0.3	0.7	2.80940203452725E-08
0.3	0.75	2.93441140192860E-08
0.3	0.8	3.06404869497823E-08
0.3	0.85	3.19851108836104E-08
0.3	0.9	3.33801348081360E-08
0.3	0.95	3.48278516446337E-08
0.3	1.0	3.63305250645519E-08
0.3	1.05	3.78905283990185E-08
0.3	1.1	3.95103121681390E-08
0.3	1.15	4.11924024593174E-08
0.3	1.2	4.29394272068264E-08
0.4	0.0	-1.68047485464578E-17
0.4	0.05	4.44230937828313E-07
0.4	0.1	5.14739541194358E-07
0.4	0.15	5.45455684820976E-07
0.4	0.2	5.74151105341767E-07
0.4	0.25	6.02943460621839E-07
0.4	0.3	6.32050225495537E-07
0.4	0.35	6.61610341638440E-07
0.4	0.4	6.91747169987308E-07
0.4	0.45	7.22505217361905E-07
0.4	0.5	7.53970860004333E-07
0.4	0.55	7.86208638345220E-07
0.4	0.6	8.19274676568573E-07
0.4	0.65	8.53219095220744E-07
0.4	0.7	8.88086464840109E-07
0.4	0.75	9.23918737359746E-07
0.4	0.8	9.60757493510074E-07
0.4	0.85	9.98642570660715E-07
0.4	0.9	1.03761318751318E-06
0.4	0.95	1.07770790892985E-06
0.4	1.0	1.11896425297029E-06
0.4	1.05	1.16142025737342E-06
0.4	1.1	1.20511366133362E-06
0.4	1.15	1.25008183344139E-06
0.4	1.2	1.29636291723209E-06
0.5	0.0	-2.21113451916744E-17
0.5	0.05	7.56577687607418E-06
0.5	0.1	9.48280741040176E-06
0.5	0.15	1.00758802472724E-05
0.5	0.2	1.05064152668884E-05
0.5	0.25	1.09118302045531E-05
0.5	0.3	1.13055541598796E-05
0.5	0.35	1.16925685878631E-05
0.5	0.4	1.20753681630254E-05
0.5	0.45	1.24561972487296E-05
0.5	0.5	1.28364097241277E-05
0.5	0.55	1.32170090077640E-05
0.5	0.6	1.35987516433417E-05
0.5	0.65	1.39822186071840E-05
0.5	0.7	1.43679158499950E-05
0.5	0.75	1.47561844715814E-05
0.5	0.8	1.51473743962791E-05
0.5	0.85	1.55417375339456E-05
0.5	0.9	1.59394758292079E-05
0.5	0.95	1.63408087546090E-05
0.5	1.0	1.67458676199813E-05
0.5	1.05	1.71547930230044E-05
0.5	1.1	1.75677215705318E-05
0.5	1.15	1.79847378695714E-05
0.5	1.2	1.84059389473373E-05
0.6	0.0	3.52638006635340E-17
0.6	0.05	2.94480891873588E-05
0.6	0.1	4.48432333905014E-05
0.6	0.15	5.11652005603255E-05
0.6	0.2	5.37154264371667E-05
0.6	0.25	5.53472509852258E-05
0.6	0.3	5.67643019944547E-05
0.6	0.35	5.80820801633048E-05
0.6	0.4	5.93370633418818E-05
0.6	0.45	6.05489619112147E-05
0.6	0.5	6.17298881492495E-05
0.6	0.55	6.28875259054861E-05
0.6	0.6	6.40272183301709E-05
0.6	0.65	6.51528902280483E-05
0.6	0.7	6.62673883257127E-05
0.6	0.75	6.73729531256820E-05
0.6	0.8	6.84713854595012E-05
0.6	0.85	6.95640781857043E-05
0.6	0.9	7.06520806743986E-05
0.6	0.95	7.17365394199533E-05
0.6	1.0	7.28180711185054E-05
0.6	1.05	7.38973422909861E-05
0.6	1.1	7.49750639588766E-05
0.6	1.15	7.60515571562909E-05
0.6	1.2	7.71272671612144E-05
0.7	0.0	5.70808444798650E-17
0.7	0.05	5.37603330980353E-05
0.7	0.1	9.13115347420104E-05
0.7	0.15	1.14707575657102E-04
0.7	0.2	1.27367258446501E-04
0.7	0.25	1.33635982833753E-04
0.7	0.3	1.37274454531985E-04
0.7	0.35	1.40082377600893E-04
0.7	0.4	1.42553631555299E-04
0.7	0.45	1.44835094502954E-04
0.7	0.5	1.46994752277208E-04
0.7	0.55	1.49069081743849E-04
0.7	0.6	1.51079730869040E-04
0.7	0.65	1.53040796705094E-04
0.7	0.7	1.54961498026629E-04
0.7	0.75	1.56849251945415E-04
0.7	0.8	1.58709060162149E-04
0.7	0.85	1.60544916177387E-04
0.7	0.9	1.62360106842389E-04
0.7	0.95	1.64157450534213E-04
0.7	1.0	1.65938727209882E-04
0.7	1.05	1.67705769027242E-04
0.7	1.1	1.69460288937146E-04
0.7	1.15	1.71203197162970E-04
0.7	1.2	1.72935821860616E-04
0.8	0.0	2.04237432691947E-17
0.8	0.05	7.51877993813434E-05
0.8	0.1	1.34293867930679E-04
0.8	0.15	1.78132081654937E-04
0.8	0.2	2.08341034095900E-04
0.8	0.25	2.27357907752475E-04
0.8	0.3	2.38408775019689E-04
0.8	0.35	2.44968698960038E-04
0.8	0.4	2.49576667907465E-04
0.8	0.45	2.53363688670644E-04
0.8	0.5	2.56727996698864E-04
0.8	0.55	2.59844542700315E-04
0.8	0.6	2.62798798722154E-04
0.8	0.65	2.65636083286850E-04
0.8	0.7	2.68384184878078E-04
0.8	0.75	2.71060676645400E-04
0.8	0.8	2.73678096658247E-04
0.8	0.85	2.76245767238438E-04
0.8	0.9	2.78770588311503E-04
0.8	0.95	2.81257808386883E-04
0.8	1.0	2.83711648570168E-04
0.8	1.05	2.86135995193339E-04
0.8	1.1	2.88533546266134E-04
0.8	1.15	2.90906942193497E-04
0.8	1.2	2.93257201299019E-04
0.9	0.0	2.64041981684847E-17
0.9	0.05	9.31691365044683E-05
0.9	0.1	1.71034582528480E-04
0.9	0.15	2.33872900323066E-04
0.9	0.2	2.82523912167860E-04
0.9	0.25	3.18278158709407E-04
0.9	0.3	3.42948735493541E-04
0.9	0.35	3.58938780763646E-04
0.9	0.4	3.69082435329590E-04
0.9	0.45	3.75992678639745E-04
0.9	0.5	3.81333120084326E-04
0.9	0.55	3.85874165485830E-04
0.9	0.6	3.89966996130530E-04
0.9	0.65	3.93787031728617E-04
0.9	0.7	3.97420543714302E-04
0.9	0.75	4.00916143374161E-04
0.9	0.8	4.04303934825966E-04
0.9	0.85	4.07603913033871E-04
0.9	0.9	4.10829250489617E-04
0.9	0.95	4.13991681173185E-04
0.9	1.0	4.17099193571431E-04
0.9	1.05	4.20156333726769E-04
0.9	1.1	4.23169495551312E-04
0.9	1.15	4.26143942538155E-04
0.9	1.2	4.29081080731726E-04
1.0	0.0	9.70209534489467E-18
1.0	0.05	1.08058460002397E-04
1.0	0.1	2.01735015475104E-04
1.0	0.15	2.81068178741931E-04
1.0	0.2	3.46531987218893E-04
1.0	0.25	3.98866955017474E-04
1.0	0.3	4.39098942097622E-04
1.0	0.35	4.68613876170278E-04
1.0	0.4	4.89235410223409E-04
1.0	0.45	5.03200016239273E-04
1.0	0.5	5.12844652539983E-04
1.0	0.55	5.20041748539996E-04
1.0	0.6	5.25917143856385E-04
1.0	0.65	5.31055275726056E-04
1.0	0.7	5.35757691225576E-04
1.0	0.75	5.40179162451116E-04
1.0	0.8	5.44399704447713E-04
1.0	0.85	5.48468084511067E-04
1.0	0.9	5.52413621416830E-04
1.0	0.95	5.56258359131775E-04
1.0	1.0	5.60017667453083E-04
1.0	1.05	5.63700178316316E-04
1.0	1.1	5.67317756087380E-04
1.0	1.15	5.70876662644567E-04
1.0	1.2	5.74381583428151E-04
1.1	0.0	4.23594744653776E-17
1.1	0.05	1.20384551504532E-04
1.1	0.1	2.27262640566462E-04
1.1	0.15	3.20576933661097E-04
1.1	0.2	4.00640175916522E-04
1.1	0.25	4.67935271606211E-04
1.1	0.3	5.23097067063697E-04
1.1	0.35	5.66949131164044E-04
1.1	0.4	6.00570246293625E-04
1.1	0.45	6.25365185543478E-04
1.1	0.5	6.43088557383624E-04
1.1	0.55	6.55711319075923E-04
1.1	0.6	6.65059828248285E-04
1.1	0.65	6.72471322281026E-04
1.1	0.7	6.78766817335003E-04
1.1	0.75	6.84406074891263E-04
1.1	0.8	6.89632843091130E-04
1.1	0.85	6.94578380487872E-04
1.1	0.9	6.99314509903137E-04
1.1	0.95	7.03885734807931E-04
1.1	1.0	7.08324067509058E-04
1.1	1.05	7.12647938315789E-04
1.1	1.1	7.16876619436364E-04
1.1	1.15	7.21021490976956E-04
1.1	1.2	7.25089279046513E-04
1.2	0.0	-3.04959411015037E-17
1.2	0.05	1.30650900904080E-04
1.2	0.1	2.48559386516503E-04
1.2	0.15	3.53640330864171E-04
1.2	0.2	4.46145189934641E-04
1.2	0.25	5.26444863306682E-04
1.2	0.3	5.94990111448494E-04
1.2	0.35	6.52321822387592E-04
1.2	0.4	6.99108845989598E-04
1.2	0.45	7.36200624537192E-04
1.2	0.5	7.64691822985461E-04
1.2	0.55	7.85962875001437E-04
1.2	0.6	8.01630479453272E-04
1.2	0.65	8.13345352021611E-04
1.2	0.7	8.22502077809462E-04
1.2	0.75	8.30095413215430E-04
1.2	0.8	8.36753511070406E-04
1.2	0.85	8.42831675507357E-04
1.2	0.9	8.48519569934229E-04
1.2	0.95	8.53927809958370E-04
1.2	1.0	8.59118551931424E-04
1.2	1.05	8.64136636361638E-04
1.2	1.1	8.69011449173485E-04
1.2	1.15	8.73763770308440E-04
1.2	1.2	8.78412305365164E-04