vg	vd	ids
0.0	0.0	8.83482548155175E-18
0.0	0.05	4.16070418326253E-13
0.0	0.1	4.78755470500329E-13
0.0	0.15	5.20963742745931E-13
0.0	0.2	5.66193948023266E-13
0.0	0.25	6.15195931399328E-13
0.0	0.3	6.68376534678288E-13
0.0	0.35	7.25975778320974E-13
0.0	0.4	7.88626984273416E-13
0.0	0.45	8.56801514252177E-13
0.0	0.5	9.31037401643432E-13
0.0	0.55	1.01183448745737E-12
0.0	0.6	1.10021149786630E-12
0.0	0.65	1.19672469117123E-12
0.0	0.7	1.30238070808154E-12
0.0	0.75	1.41828809862858E-12
0.0	0.8	1.54554699586748E-12
0.0	0.85	1.68560219113948E-12
0.0	0.9	1.84020359668863E-12
0.0	0.95	2.01083306434619E-12
0.0	1.0	2.20001711800131E-12
0.0	1.05	2.41026020331423E-12
0.0	1.1	2.64430739665920E-12
0.0	1.15	2.90584324262158E-12
0.0	1.2	3.19942245441658E-12
0.1	0.0	1.52957181751704E-17
0.1	0.05	1.25189231606983E-11
0.1	0.1	1.44270251728143E-11
0.1	0.15	1.56688249448555E-11
0.1	0.2	1.69838258173147E-11
0.1	0.25	1.83943963535818E-11
0.1	0.3	1.99089974196019E-11
0.1	0.35	2.15368737644668E-11
0.1	0.4	2.32875958750914E-11
0.1	0.45	2.51719260482218E-11
0.1	0.5	2.72012429290592E-11
0.1	0.55	2.93884295723124E-11
0.1	0.6	3.17472816832034E-11
0.1	0.65	3.42929048966566E-11
0.1	0.7	3.70423690200199E-11
0.1	0.75	4.00141704731506E-11
0.1	0.8	4.32288551308366E-11
0.1	0.85	4.67106754461143E-11
0.1	0.9	5.04817669726657E-11
0.1	0.95	5.45742192872686E-11
0.1	1.0	5.90186601032892E-11
0.1	1.05	6.38517192077342E-11
0.1	1.1	6.91139974556869E-11
0.1	1.15	7.48516133261124E-11
0.1	1.2	8.11176097851873E-11
0.2	0.0	-1.25649972375030E-17
0.2	0.05	3.81019934887632E-10
0.2	0.1	4.40399728694001E-10
0.2	0.15	4.77905586565795E-10
0.2	0.2	5.17148984401810E-10
0.2	0.25	5.58882360398113E-10
0.2	0.3	6.03322774842544E-10
0.2	0.35	6.50692788631006E-10
0.2	0.4	7.01226566150032E-10
0.2	0.45	7.55161094609931E-10
0.2	0.5	8.12769951509725E-10
0.2	0.55	8.74305528691501E-10
0.2	0.6	9.40086190968911E-10
0.2	0.65	1.01042315241751E-09
0.2	0.7	1.08566376585941E-09
0.2	0.75	1.16616896297677E-09
0.2	0.8	1.25234968745323E-09
0.2	0.85	1.34464078981474E-09
0.2	0.9	1.44351600500469E-09
0.2	0.95	1.54948346260710E-09
0.2	1.0	1.66311763154688E-09
0.2	1.05	1.78502725059651E-09
0.2	1.1	1.91587485327220E-09
0.2	1.15	2.05641279738693E-09
0.2	1.2	2.20744935737856E-09
0.3	0.0	4.21758421505828E-18
0.3	0.05	1.15824951333766E-08
0.3	0.1	1.34533913326635E-08
0.3	0.15	1.46020829680854E-08
0.3	0.2	1.57859709945495E-08
0.3	0.25	1.70321923176427E-08
0.3	0.3	1.83471970847121E-08
0.3	0.35	1.97370670713803E-08
0.3	0.4	2.12079068847438E-08
0.3	0.45	2.27649593454989E-08
0.3	0.5	2.44144951287646E-08
0.3	0.55	2.61628791466970E-08
0.3	0.6	2.80165761239929E-08
0.3	0.65	2.99825485292472E-08
0.3	0.7	3.20678812024163E-08
0.3	0.75	3.42801543814313E-08
0.3	0.8	3.66276880707607E-08
0.3	0.85	3.91184839663062E-08
0.3	0.9	4.17614958234676E-08
0.3	0.95	4.45670359011645E-08
0.3	1.0	4.75451045633993E-08
0.3	1.05	5.07066477153557E-08
0.3	1.1	5.40634099565232E-08
0.3	1.15	5.76279096064504E-08
0.3	1.2	6.14135847446591E-08
0.4	0.0	2.21752150954134E-19
0.4	0.05	3.34153617181005E-07
0.4	0.1	3.92240816064051E-07
0.4	0.15	4.25826691388778E-07
0.4	0.2	4.59367183806405E-07
0.4	0.25	4.94004131712629E-07
0.4	0.3	5.29972614873105E-07
0.4	0.35	5.67446950470532E-07
0.4	0.4	6.06561135024162E-07
0.4	0.45	6.47446678117834E-07
0.4	0.5	6.90216953825595E-07
0.4	0.55	7.34983485666891E-07
0.4	0.6	7.81845586004972E-07
0.4	0.65	8.30912274139888E-07
0.4	0.7	8.82288430161049E-07
0.4	0.75	9.36079456877212E-07
0.4	0.8	9.92391718989112E-07
0.4	0.85	1.05133553249736E-06
0.4	0.9	1.11302089391284E-06
0.4	0.95	1.17756243877306E-06
0.4	1.0	1.24507605893327E-06
0.4	1.05	1.31568158163716E-06
0.4	1.1	1.38950184982910E-06
0.4	1.15	1.46666246582982E-06
0.4	1.2	1.54729351099686E-06
0.5	0.0	2.63182053696253E-17
0.5	0.05	5.80989938632994E-06
0.5	0.1	7.20741201045586E-06
0.5	0.15	7.77717640832708E-06
0.5	0.2	8.26339725602093E-06
0.5	0.25	8.73628871852656E-06
0.5	0.3	9.20542682169944E-06
0.5	0.35	9.67525585643316E-06
0.5	0.4	1.01484386690026E-05
0.5	0.45	1.06267048880892E-05
0.5	0.5	1.11111391967562E-05
0.5	0.55	1.16025885605190E-05
0.5	0.6	1.21016514041652E-05
0.5	0.65	1.26087593873724E-05
0.5	0.7	1.31242486157476E-05
0.5	0.75	1.36484258802649E-05
0.5	0.8	1.41814621822011E-05
0.5	0.85	1.47235925733480E-05
0.5	0.9	1.52749287277918E-05
0.5	0.95	1.58356138653586E-05
0.5	1.0	1.64057786795559E-05
0.5	1.05	1.69854893935046E-05
0.5	1.1	1.75748550947081E-05
0.5	1.15	1.81739402354453E-05
0.5	1.2	1.87828135093734E-05
0.6	0.0	-1.52671293325834E-17
0.6	0.05	2.56509981766269E-05
0.6	0.1	3.78333302323380E-05
0.6	0.15	4.25918467032507E-05
0.6	0.2	4.49076930224795E-05
0.6	0.25	4.67006747286166E-05
0.6	0.3	4.83364177690817E-05
0.6	0.35	4.98900830193698E-05
0.6	0.4	5.13942957034621E-05
0.6	0.45	5.28667952602950E-05
0.6	0.5	5.43183346865920E-05
0.6	0.55	5.57551542281462E-05
0.6	0.6	5.71818826146474E-05
0.6	0.65	5.86013486163177E-05
0.6	0.7	6.00159912455153E-05
0.6	0.75	6.14273768465106E-05
0.6	0.8	6.28368656349156E-05
0.6	0.85	6.42455290499866E-05
0.6	0.9	6.56541618494804E-05
0.6	0.95	6.70634174242493E-05
0.6	1.0	6.84740006136300E-05
0.6	1.05	6.98861744802035E-05
0.6	1.1	7.13005344514693E-05
0.6	1.15	7.27173387655602E-05
0.6	1.2	7.41368672193731E-05
0.7	0.0	-4.40303782358242E-17
0.7	0.05	4.96921513936739E-05
0.7	0.1	8.23326492254737E-05
0.7	0.15	1.01219230464617E-04
0.7	0.2	1.10910733871999E-04
0.7	0.25	1.16074157209590E-04
0.7	0.3	1.19666538545476E-04
0.7	0.35	1.22715127699632E-04
0.7	0.4	1.25496931293183E-04
0.7	0.45	1.28123538121413E-04
0.7	0.5	1.30650838904682E-04
0.7	0.55	1.33108747679825E-04
0.7	0.6	1.35514474327030E-04
0.7	0.65	1.37878765913381E-04
0.7	0.7	1.40209801163170E-04
0.7	0.75	1.42512637743933E-04
0.7	0.8	1.44791844067086E-04
0.7	0.85	1.47050414512617E-04
0.7	0.9	1.49290974757465E-04
0.7	0.95	1.51515596516766E-04
0.7	1.0	1.53726072603354E-04
0.7	1.05	1.55923819250827E-04
0.7	1.1	1.58110208306007E-04
0.7	1.15	1.60286145069905E-04
0.7	1.2	1.62452839468001E-04
0.8	0.0	1.18240184585626E-17
0.8	0.05	7.17917269558175E-05
0.8	0.1	1.25640278193842E-04
0.8	0.15	1.63409634439327E-04
0.8	0.2	1.87870693617849E-04
0.8	0.25	2.02508023291149E-04
0.8	0.3	2.11145550320569E-04
0.8	0.35	2.16935675586188E-04
0.8	0.4	2.21537582605651E-04
0.8	0.45	2.25570946207900E-04
0.8	0.5	2.29286050490654E-04
0.8	0.55	2.32807865387015E-04
0.8	0.6	2.36198541032042E-04
0.8	0.65	2.39491524115090E-04
0.8	0.7	2.42707513443526E-04
0.8	0.75	2.45859923307639E-04
0.8	0.8	2.48958774372153E-04
0.8	0.85	2.52011166824803E-04
0.8	0.9	2.55022321655061E-04
0.8	0.95	2.57997449775400E-04
0.8	1.0	2.60939598281184E-04
0.8	1.05	2.63851776909400E-04
0.8	1.1	2.66736874621479E-04
0.8	1.15	2.69596682341145E-04
0.8	1.2	2.72433389339580E-04
0.9	0.0	2.57222281286083E-19
0.9	0.05	9.10370490879373E-05
0.9	0.1	1.64167483772811E-04
0.9	0.15	2.20542753834101E-04
0.9	0.2	2.61997665989851E-04
0.9	0.25	2.90830466532634E-04
0.9	0.3	3.09791758649621E-04
0.9	0.35	3.21961814851170E-04
0.9	0.4	3.30220848776602E-04
0.9	0.45	3.36527331975667E-04
0.9	0.5	3.41853421115893E-04
0.9	0.55	3.46643084875353E-04
0.9	0.6	3.51114005870032E-04
0.9	0.65	3.55376500387855E-04
0.9	0.7	3.59488394995470E-04
0.9	0.75	3.63482776769833E-04
0.9	0.8	3.67380905128758E-04
0.9	0.85	3.71198334986676E-04
0.9	0.9	3.74945892790405E-04
0.9	0.95	3.78631742102861E-04
0.9	1.0	3.82262246591604E-04
0.9	1.05	3.85843049460834E-04
0.9	1.1	3.89378400819681E-04
0.9	1.15	3.92872083906975E-04
0.9	1.2	3.96327134489586E-04
1.0	0.0	-3.95835018516309E-17
1.0	0.05	1.07525784387507E-04
1.0	0.1	1.97565414751037E-04
1.0	0.15	2.70867916628003E-04
1.0	0.2	3.28757471408149E-04
1.0	0.25	3.72861607704206E-04
1.0	0.3	4.05093964331249E-04
1.0	0.35	4.27684063238474E-04
1.0	0.4	4.43133613673379E-04
1.0	0.45	4.53936452321594E-04
1.0	0.5	4.62073691654111E-04
1.0	0.55	4.68757749518231E-04
1.0	0.6	4.74635019870087E-04
1.0	0.65	4.80039326454322E-04
1.0	0.7	4.85139330362041E-04
1.0	0.75	4.90024891186128E-04
1.0	0.8	4.94746577767724E-04
1.0	0.85	4.99336589076753E-04
1.0	0.9	5.03816027157077E-04
1.0	0.95	5.08200161404176E-04
1.0	1.0	5.12502113237314E-04
1.0	1.05	5.16727944198626E-04
1.0	1.1	5.20888401468476E-04
1.0	1.15	5.24988254206944E-04
1.0	1.2	5.29031561421789E-04
1.1	0.0	-7.56015063022036E-18
1.1	0.05	1.21588056878958E-04
1.1	0.1	2.26255734929977E-04
1.1	0.15	3.14517633825447E-04
1.1	0.2	3.87401479572908E-04
1.1	0.25	4.46147496419896E-04
1.1	0.3	4.92166664072815E-04
1.1	0.35	5.27063827245227E-04
1.1	0.4	5.52674279590752E-04
1.1	0.45	5.71054873256769E-04
1.1	0.5	5.84330360857220E-04
1.1	0.55	5.94361597007716E-04
1.1	0.6	6.02470620803742E-04
1.1	0.65	6.09467447094576E-04
1.1	0.7	6.15807818808282E-04
1.1	0.75	6.21732269665393E-04
1.1	0.8	6.27367427684424E-04
1.1	0.85	6.32784931128193E-04
1.1	0.9	6.38029399908358E-04
1.1	0.95	6.43131436945062E-04
1.1	1.0	6.48110897659942E-04
1.1	1.05	6.52984252682201E-04
1.1	1.1	6.57765045945173E-04
1.1	1.15	6.62460111602529E-04
1.1	1.2	6.67081184853862E-04
1.2	0.0	2.02214488862545E-17
1.2	0.05	1.33594859189068E-04
1.2	0.1	2.50861862023870E-04
1.2	0.15	3.52180271000074E-04
1.2	0.2	4.38404117187926E-04
1.2	0.25	5.10545215418529E-04
1.2	0.3	5.69714224402783E-04
1.2	0.35	6.17127139137470E-04
1.2	0.4	6.54136666617078E-04
1.2	0.45	6.82270030236941E-04
1.2	0.5	7.03236228144672E-04
1.2	0.55	7.18839535372640E-04
1.2	0.6	7.30765048536516E-04
1.2	0.65	7.40347690478650E-04
1.2	0.7	7.48503397939094E-04
1.2	0.75	7.55795535641762E-04
1.2	0.8	7.62543646836715E-04
1.2	0.85	7.68917841808011E-04
1.2	0.9	7.75012108676435E-04
1.2	0.95	7.80888889057522E-04
1.2	1.0	7.86585961795671E-04
1.2	1.05	7.92132606364573E-04
1.2	1.1	7.97548934284801E-04
1.2	1.15	8.02850750758526E-04
1.2	1.2	8.08051729142816E-04