vg	vd	ids
0.0	0.0	-6.05514337156646E-17
0.0	0.05	9.05450475315618E-12
0.0	0.1	1.19626407330134E-11
0.0	0.15	1.53490612542282E-11
0.0	0.2	1.98608008654662E-11
0.0	0.25	2.59306466350829E-11
0.0	0.3	3.41680588435365E-11
0.0	0.35	4.54278581926483E-11
0.0	0.4	6.09109647149793E-11
0.0	0.45	8.22665253382983E-11
0.0	0.5	1.11860624575251E-10
0.0	0.55	1.53050843459257E-10
0.0	0.6	2.10529038092122E-10
0.0	0.65	2.90867219226171E-10
0.0	0.7	4.03252409985646E-10
0.0	0.75	5.60491096143760E-10
0.0	0.8	7.80293460540958E-10
0.0	0.85	1.08718536992299E-09
0.0	0.9	1.51496352650348E-09
0.0	0.95	2.10990105480509E-09
0.0	1.0	2.93547476717167E-09
0.0	1.05	4.07753663398911E-09
0.0	1.1	5.65261577549617E-09
0.0	1.15	7.81749332722701E-09
0.0	1.2	1.07817245511861E-08
0.1	0.0	-2.43176310986964E-17
0.1	0.05	1.67176713233697E-10
0.1	0.1	2.11162777191146E-10
0.1	0.15	2.55718760361889E-10
0.1	0.2	3.10439819035430E-10
0.1	0.25	3.78290185158684E-10
0.1	0.3	4.63107514926287E-10
0.1	0.35	5.69979162221137E-10
0.1	0.4	7.05705936869784E-10
0.1	0.45	8.79375179850658E-10
0.1	0.5	1.10314883376538E-09
0.1	0.55	1.39322105592825E-09
0.1	0.6	1.77122427434902E-09
0.1	0.65	2.26673783187157E-09
0.1	0.7	2.91793838812799E-09
0.1	0.75	3.77545479946751E-09
0.1	0.8	4.90710600294349E-09
0.1	0.85	6.40510235570900E-09
0.1	0.9	8.39093992201067E-09
0.1	0.95	1.10264619132369E-08
0.1	1.0	1.45221583434294E-08
0.1	1.05	1.91568380934992E-08
0.1	1.1	2.52942875683254E-08
0.1	1.15	3.34068928689798E-08
0.1	1.2	4.41069591529243E-08
0.2	0.0	-4.11648409636928E-17
0.2	0.05	3.61408311045315E-09
0.2	0.1	4.47592214272627E-09
0.2	0.15	5.25785127978158E-09
0.2	0.2	6.16169711135686E-09
0.2	0.25	7.21454583045008E-09
0.2	0.3	8.44707339594799E-09
0.2	0.35	9.89722285459737E-09
0.2	0.4	1.16124576105915E-08
0.2	0.45	1.36521511353692E-08
0.2	0.5	1.60904704625002E-08
0.2	0.55	1.90176683962609E-08
0.2	0.6	2.25640630255787E-08
0.2	0.65	2.68682404624435E-08
0.2	0.7	3.21045834745992E-08
0.2	0.75	3.85723386374068E-08
0.2	0.8	4.65179848950307E-08
0.2	0.85	5.63408303069380E-08
0.2	0.9	6.85324610963596E-08
0.2	0.95	8.37018087266904E-08
0.2	1.0	1.02613472423532E-07
0.2	1.05	1.26221984165660E-07
0.2	1.1	1.55711183792973E-07
0.2	1.15	1.92494832178814E-07
0.2	1.2	2.38390830412412E-07
0.3	0.0	-1.25366082125291E-16
0.3	0.05	8.27652762651052E-08
0.3	0.1	1.01982068353359E-07
0.3	0.15	1.17907418613180E-07
0.3	0.2	1.35474048201401E-07
0.3	0.25	1.55021481602320E-07
0.3	0.3	1.76835045613427E-07
0.3	0.35	2.01238593172948E-07
0.3	0.4	2.28603684037017E-07
0.3	0.45	2.59363892939219E-07
0.3	0.5	2.94022133369211E-07
0.3	0.55	3.33089351852067E-07
0.3	0.6	3.77506054147240E-07
0.3	0.65	4.27728676344634E-07
0.3	0.7	4.85158958925493E-07
0.3	0.75	5.50572695591920E-07
0.3	0.8	6.25468654649303E-07
0.3	0.85	7.11413355380710E-07
0.3	0.9	8.10283470649162E-07
0.3	0.95	9.24284686067383E-07
0.3	1.0	1.05599294638352E-06
0.3	1.05	1.20843803157200E-06
0.3	1.1	1.38511143777806E-06
0.3	1.15	1.59004841493759E-06
0.3	1.2	1.82793952813104E-06
0.4	0.0	-9.69166814226562E-17
0.4	0.05	1.69726993634765E-06
0.4	0.1	2.10778674034344E-06
0.4	0.15	2.39714908286728E-06
0.4	0.2	2.69482411040052E-06
0.4	0.25	3.00790829992056E-06
0.4	0.3	3.33857595041726E-06
0.4	0.35	3.68861401968252E-06
0.4	0.4	4.05968098128283E-06
0.4	0.45	4.45340770119754E-06
0.4	0.5	4.87151579366423E-06
0.4	0.55	5.31575902736256E-06
0.4	0.6	5.78808987508040E-06
0.4	0.65	6.29053966982606E-06
0.4	0.7	6.82537716286491E-06
0.4	0.75	7.39509735898369E-06
0.4	0.8	8.00238096210379E-06
0.4	0.85	8.65019499944306E-06
0.4	0.9	9.34177414835247E-06
0.4	0.95	1.00807176155977E-05
0.4	1.0	1.08708980265983E-05
0.4	1.05	1.17165747205402E-05
0.4	1.1	1.26223521613837E-05
0.4	1.15	1.35931741208495E-05
0.4	1.2	1.46343884421118E-05
0.5	0.0	5.87896097273321E-19
0.5	0.05	1.52820502573947E-05
0.5	0.1	2.05197716230813E-05
0.5	0.15	2.28656296416387E-05
0.5	0.2	2.47771513213455E-05
0.5	0.25	2.66038469694077E-05
0.5	0.3	2.83940909685995E-05
0.5	0.35	3.01667684910137E-05
0.5	0.4	3.19333565806023E-05
0.5	0.45	3.37015309720602E-05
0.5	0.5	3.54777537282206E-05
0.5	0.55	3.72666811346974E-05
0.5	0.6	3.90726003144073E-05
0.5	0.65	4.08992411972699E-05
0.5	0.7	4.27500103381164E-05
0.5	0.75	4.46285866196150E-05
0.5	0.8	4.65379443898264E-05
0.5	0.85	4.84819117770357E-05
0.5	0.9	5.04637477484536E-05
0.5	0.95	5.24872504469933E-05
0.5	1.0	5.45562704209584E-05
0.5	1.05	5.66748722665624E-05
0.5	1.1	5.88469950598013E-05
0.5	1.15	6.10775009904044E-05
0.5	1.2	6.33705896800282E-05
0.6	0.0	-1.30258001434873E-16
0.6	0.05	4.27840206209246E-05
0.6	0.1	6.65904555185864E-05
0.6	0.15	7.80239671469821E-05
0.6	0.2	8.40866174137907E-05
0.6	0.25	8.86377108836812E-05
0.6	0.3	9.27096978002443E-05
0.6	0.35	9.65236215663518E-05
0.6	0.4	1.00163159220258E-04
0.6	0.45	1.03677354606025E-04
0.6	0.5	1.07099395347445E-04
0.6	0.55	1.10451945577994E-04
0.6	0.6	1.13753865575963E-04
0.6	0.65	1.17016832148299E-04
0.6	0.7	1.20252207949059E-04
0.6	0.75	1.23469523253920E-04
0.6	0.8	1.26676396707206E-04
0.6	0.85	1.29880253727835E-04
0.6	0.9	1.33087727756693E-04
0.6	0.95	1.36305459024661E-04
0.6	1.0	1.39539042307898E-04
0.6	1.05	1.42794479991097E-04
0.6	1.1	1.46077979910909E-04
0.6	1.15	1.49394825622250E-04
0.6	1.2	1.52750426374929E-04
0.7	0.0	-8.96111143583988E-17
0.7	0.05	7.08171416817422E-05
0.7	0.1	1.20000100477278E-04
0.7	0.15	1.51015245858625E-04
0.7	0.2	1.68929447018981E-04
0.7	0.25	1.79483222912390E-04
0.7	0.3	1.87018374454399E-04
0.7	0.35	1.93390228385161E-04
0.7	0.4	1.99153456196568E-04
0.7	0.45	2.04515828828778E-04
0.7	0.5	2.09593810353550E-04
0.7	0.55	2.14461011734519E-04
0.7	0.6	2.19168066118057E-04
0.7	0.65	2.23750470187285E-04
0.7	0.7	2.28233909195161E-04
0.7	0.75	2.32639523933793E-04
0.7	0.8	2.36983456070039E-04
0.7	0.85	2.41278941592266E-04
0.7	0.9	2.45538391866311E-04
0.7	0.95	2.49772700119877E-04
0.7	1.0	2.53990855228757E-04
0.7	1.05	2.58201614250895E-04
0.7	1.1	2.62414467934747E-04
0.7	1.15	2.66634837886964E-04
0.7	1.2	2.70872565670781E-04
0.8	0.0	6.48216933296931E-17
0.8	0.05	9.55242467106681E-05
0.8	0.1	1.69054543038883E-04
0.8	0.15	2.22555757508824E-04
0.8	0.2	2.59119912047173E-04
0.8	0.25	2.82694114008375E-04
0.8	0.3	2.97815325542656E-04
0.8	0.35	3.08533319594388E-04
0.8	0.4	3.17228560531466E-04
0.8	0.45	3.24852714014214E-04
0.8	0.5	3.31794291244030E-04
0.8	0.55	3.38265485906015E-04
0.8	0.6	3.44396023892987E-04
0.8	0.65	3.50271166724378E-04
0.8	0.7	3.55949811453637E-04
0.8	0.75	3.61472950172222E-04
0.8	0.8	3.66870691063766E-04
0.8	0.85	3.72168842793037E-04
0.8	0.9	3.77384674915530E-04
0.8	0.95	3.82538509167997E-04
0.8	1.0	3.87640342726568E-04
0.8	1.05	3.92705935192800E-04
0.8	1.1	3.97748015905310E-04
0.8	1.15	4.02771647472919E-04
0.8	1.2	4.07791235978385E-04
0.9	0.0	-1.75771881379358E-16
0.9	0.05	1.16637399674400E-04
0.9	0.1	2.11718888932913E-04
0.9	0.15	2.86444458187579E-04
0.9	0.2	3.42880752755098E-04
0.9	0.25	3.83643352498448E-04
0.9	0.3	4.11897720496326E-04
0.9	0.35	4.31252823061173E-04
0.9	0.4	4.45204357100496E-04
0.9	0.45	4.56258912226615E-04
0.9	0.5	4.65715578703952E-04
0.9	0.55	4.74162654818292E-04
0.9	0.6	4.81921307438694E-04
0.9	0.65	4.89196505872773E-04
0.9	0.7	4.96117563405700E-04
0.9	0.75	5.02770103363745E-04
0.9	0.8	5.09212096262051E-04
0.9	0.85	5.15486843266753E-04
0.9	0.9	5.21625728099588E-04
0.9	0.95	5.27657113326006E-04
0.9	1.0	5.33598568573682E-04
0.9	1.05	5.39471269311323E-04
0.9	1.1	5.45290200851877E-04
0.9	1.15	5.51066318817736E-04
0.9	1.2	5.56817057749875E-04
1.0	0.0	-7.75912763288280E-17
1.0	0.05	1.34526844254555E-04
1.0	0.1	2.48233178656567E-04
1.0	0.15	3.41890261310998E-04
1.0	0.2	4.16999095292393E-04
1.0	0.25	4.75429542479378E-04
1.0	0.3	5.19391595416252E-04
1.0	0.35	5.51469859849764E-04
1.0	0.4	5.74579345599660E-04
1.0	0.45	5.91661209367510E-04
1.0	0.5	6.05099910744861E-04
1.0	0.55	6.16387358359713E-04
1.0	0.6	6.26315207347824E-04
1.0	0.65	6.35318937102025E-04
1.0	0.7	6.43675162618784E-04
1.0	0.75	6.51568672956292E-04
1.0	0.8	6.59120053170861E-04
1.0	0.85	6.66404320559939E-04
1.0	0.9	6.73482033686526E-04
1.0	0.95	6.80391877082765E-04
1.0	1.0	6.87164876530603E-04
1.0	1.05	6.93831461043353E-04
1.0	1.1	7.00408892254296E-04
1.0	1.15	7.06917261627875E-04
1.0	1.2	7.13372439405986E-04
1.1	0.0	3.57635744818954E-17
1.1	0.05	1.49673708244447E-04
1.1	0.1	2.79341192856663E-04
1.1	0.15	3.89528757404387E-04
1.1	0.2	4.81410126342540E-04
1.1	0.25	5.56422629735141E-04
1.1	0.3	6.16207534726679E-04
1.1	0.35	6.62638257407189E-04
1.1	0.4	6.97850851312012E-04
1.1	0.45	7.24232810630378E-04
1.1	0.5	7.44243623898334E-04
1.1	0.55	7.60044306646268E-04
1.1	0.6	7.73180539838372E-04
1.1	0.65	7.84586150420210E-04
1.1	0.7	7.94824353281213E-04
1.1	0.75	8.04239957362071E-04
1.1	0.8	8.13075073423435E-04
1.1	0.85	8.21480706028206E-04
1.1	0.9	8.29568253017325E-04
1.1	0.95	8.37400775125003E-04
1.1	1.0	8.45035975232312E-04
1.1	1.05	8.52509575443287E-04
1.1	1.1	8.59853871637360E-04
1.1	1.15	8.67093945021927E-04
1.1	1.2	8.74252617025881E-04
1.2	0.0	-1.67959150962122E-16
1.2	0.05	1.62539989045215E-04
1.2	0.1	3.05864390266237E-04
1.2	0.15	4.30361574449446E-04
1.2	0.2	5.37015022423950E-04
1.2	0.25	6.27005937475104E-04
1.2	0.3	7.01635392524720E-04
1.2	0.35	7.62335977211279E-04
1.2	0.4	8.10695845763750E-04
1.2	0.45	8.48498820791108E-04
1.2	0.5	8.77719299655532E-04
1.2	0.55	9.00420056460360E-04
1.2	0.6	9.18513790074264E-04
1.2	0.65	9.33505383547857E-04
1.2	0.7	9.46407770976400E-04
1.2	0.75	9.57884532658545E-04
1.2	0.8	9.68359090732780E-04
1.2	0.85	9.78126308706065E-04
1.2	0.9	9.87376132546486E-04
1.2	0.95	9.96241155407041E-04
1.2	1.0	1.00480851585600E-03
1.2	1.05	1.01314439503773E-03
1.2	1.1	1.02128861102773E-03
1.2	1.15	1.02928645952568E-03
1.2	1.2	1.03716321048683E-03