vg	vd	ids
0.0	0.0	8.15567025281609E-17
0.0	0.05	3.81834635043598E-13
0.0	0.1	4.25818886076520E-13
0.0	0.15	4.52075107579238E-13
0.0	0.2	4.79318967687458E-13
0.0	0.25	5.07966226338391E-13
0.0	0.3	5.38110735664946E-13
0.0	0.35	5.69717645295540E-13
0.0	0.4	6.02886019116023E-13
0.0	0.45	6.38575723785506E-13
0.0	0.5	6.75555066338850E-13
0.0	0.55	7.15058509018094E-13
0.0	0.6	7.56675682439059E-13
0.0	0.65	8.00585127008237E-13
0.0	0.7	8.47163842023683E-13
0.0	0.75	8.96636296481436E-13
0.0	0.8	9.49047246403344E-13
0.0	0.85	1.00449114969246E-12
0.0	0.9	1.06363056152271E-12
0.0	0.95	1.12616318609489E-12
0.0	1.0	1.19267932891822E-12
0.0	1.05	1.26375693474297E-12
0.0	1.1	1.33909862402522E-12
0.0	1.15	1.41992439796595E-12
0.0	1.2	1.50541394772850E-12
0.1	0.0	4.68204987766827E-18
0.1	0.05	1.22756473998800E-11
0.1	0.1	1.37521542678978E-11
0.1	0.15	1.46080854769169E-11
0.1	0.2	1.54919854299802E-11
0.1	0.25	1.64143769341221E-11
0.1	0.3	1.73790035479234E-11
0.1	0.35	1.83882532686264E-11
0.1	0.4	1.94459118976016E-11
0.1	0.45	2.05551917948587E-11
0.1	0.5	2.17192119527968E-11
0.1	0.55	2.29411992588771E-11
0.1	0.6	2.42259404008837E-11
0.1	0.65	2.55763277257802E-11
0.1	0.7	2.69983810373187E-11
0.1	0.75	2.84945390620825E-11
0.1	0.8	3.00713998060805E-11
0.1	0.85	3.17312038663633E-11
0.1	0.9	3.34831612284361E-11
0.1	0.95	3.53283294969399E-11
0.1	1.0	3.72779546981341E-11
0.1	1.05	3.93329043052709E-11
0.1	1.1	4.15036920671798E-11
0.1	1.15	4.37970264719977E-11
0.1	1.2	4.62208805238433E-11
0.2	0.0	-9.61541868947265E-17
0.2	0.05	3.97654707853714E-10
0.2	0.1	4.47622140988827E-10
0.2	0.15	4.76048297653344E-10
0.2	0.2	5.05118628412520E-10
0.2	0.25	5.35267793831758E-10
0.2	0.3	5.66591340674851E-10
0.2	0.35	5.99182828471598E-10
0.2	0.4	6.33133002582279E-10
0.2	0.45	6.68535077780127E-10
0.2	0.5	7.05484280077429E-10
0.2	0.55	7.44076086641466E-10
0.2	0.6	7.84389734988117E-10
0.2	0.65	8.26600862794245E-10
0.2	0.7	8.70725118413209E-10
0.2	0.75	9.16915946658872E-10
0.2	0.8	9.65334924834930E-10
0.2	0.85	1.01599745759048E-09
0.2	0.9	1.06915021579197E-09
0.2	0.95	1.12483535917020E-09
0.2	1.0	1.18322142452347E-09
0.2	1.05	1.24448407236389E-09
0.2	1.1	1.30875575025957E-09
0.2	1.15	1.37621717913771E-09
0.2	1.2	1.44703835223907E-09
0.3	0.0	6.52465529991949E-17
0.3	0.05	1.28486488567117E-08
0.3	0.1	1.45514873369620E-08
0.3	0.15	1.55019133326716E-08
0.3	0.2	1.64621907063858E-08
0.3	0.25	1.74500445853669E-08
0.3	0.3	1.84689396948017E-08
0.3	0.35	1.95219831827784E-08
0.3	0.4	2.06120586089245E-08
0.3	0.45	2.17419237344009E-08
0.3	0.5	2.29142739474749E-08
0.3	0.55	2.41322006783754E-08
0.3	0.6	2.53971590349217E-08
0.3	0.65	2.67132681649022E-08
0.3	0.7	2.80829909766736E-08
0.3	0.75	2.95079281795408E-08
0.3	0.8	3.09925067566352E-08
0.3	0.85	3.25394452827516E-08
0.3	0.9	3.41509455507263E-08
0.3	0.95	3.58312981608158E-08
0.3	1.0	3.75834171307559E-08
0.3	1.05	3.94107598046779E-08
0.3	1.1	4.13168876525629E-08
0.3	1.15	4.33055290634117E-08
0.3	1.2	4.53805672292469E-08
0.4	0.0	2.14666304843552E-16
0.4	0.05	3.96360023451190E-07
0.4	0.1	4.53670783270505E-07
0.4	0.15	4.83987531543091E-07
0.4	0.2	5.13873822365836E-07
0.4	0.25	5.44175233824817E-07
0.4	0.3	5.75043975543091E-07
0.4	0.35	6.06592779177102E-07
0.4	0.4	6.38913457778311E-07
0.4	0.45	6.72085210202242E-07
0.4	0.5	7.06178903408411E-07
0.4	0.55	7.41259582698734E-07
0.4	0.6	7.77401659392982E-07
0.4	0.65	8.14627927868899E-07
0.4	0.7	8.53025317271016E-07
0.4	0.75	8.92646959373172E-07
0.4	0.8	9.33538049945812E-07
0.4	0.85	9.75762138126478E-07
0.4	0.9	1.01937075272526E-06
0.4	0.95	1.06441853358418E-06
0.4	1.0	1.11096048653151E-06
0.4	1.05	1.15905167715693E-06
0.4	1.1	1.20874748219575E-06
0.4	1.15	1.26010380930275E-06
0.4	1.2	1.31317642775051E-06
0.5	0.0	1.93630954379404E-16
0.5	0.05	7.32045373529651E-06
0.5	0.1	8.87765634468603E-06
0.5	0.15	9.43175393372295E-06
0.5	0.2	9.90202230194437E-06
0.5	0.25	1.03570347481308E-05
0.5	0.3	1.08041504596152E-05
0.5	0.35	1.12467362933405E-05
0.5	0.4	1.16869987700266E-05
0.5	0.45	1.21265000162345E-05
0.5	0.5	1.25664713695683E-05
0.5	0.55	1.30078402259497E-05
0.5	0.6	1.34513230987560E-05
0.5	0.65	1.38975043930977E-05
0.5	0.7	1.43469190470778E-05
0.5	0.75	1.48000218630347E-05
0.5	0.8	1.52571273902870E-05
0.5	0.85	1.57185959669672E-05
0.5	0.9	1.61846843340866E-05
0.5	0.95	1.66556214710682E-05
0.5	1.0	1.71316614225771E-05
0.5	1.05	1.76129650711291E-05
0.5	1.1	1.80997000254632E-05
0.5	1.15	1.85920382908132E-05
0.5	1.2	1.90900864959753E-05
0.6	0.0	1.45900623592708E-17
0.6	0.05	3.22147516133011E-05
0.6	0.1	4.70685966208404E-05
0.6	0.15	5.23411650184621E-05
0.6	0.2	5.46409532849193E-05
0.6	0.25	5.64076368222539E-05
0.6	0.3	5.80273872280267E-05
0.6	0.35	5.95612157478865E-05
0.6	0.4	6.10335707942264E-05
0.6	0.45	6.24599359625268E-05
0.6	0.5	6.38505899410046E-05
0.6	0.55	6.52134199903718E-05
0.6	0.6	6.65536680417394E-05
0.6	0.65	6.78757781179572E-05
0.6	0.7	6.91829507804209E-05
0.6	0.75	7.04778809300483E-05
0.6	0.8	7.17627464880865E-05
0.6	0.85	7.30393860021076E-05
0.6	0.9	7.43093022786437E-05
0.6	0.95	7.55736749887521E-05
0.6	1.0	7.68338273464176E-05
0.6	1.05	7.80905045889652E-05
0.6	1.1	7.93445416236668E-05
0.6	1.15	8.05967739217909E-05
0.6	1.2	8.18477227353203E-05
0.7	0.0	6.80442727757044E-17
0.7	0.05	6.10016515519109E-05
0.7	0.1	1.00857276643492E-04
0.7	0.15	1.23374032585270E-04
0.7	0.2	1.34202014546857E-04
0.7	0.25	1.39448833973955E-04
0.7	0.3	1.42993181342289E-04
0.7	0.35	1.46031909303517E-04
0.7	0.4	1.48811154364574E-04
0.7	0.45	1.51414575581016E-04
0.7	0.5	1.53889569465034E-04
0.7	0.55	1.56267394678461E-04
0.7	0.6	1.58568797751102E-04
0.7	0.65	1.60808679443664E-04
0.7	0.7	1.62997536177070E-04
0.7	0.75	1.65143426909759E-04
0.7	0.8	1.67252987581632E-04
0.7	0.85	1.69331073971259E-04
0.7	0.9	1.71381635038991E-04
0.7	0.95	1.73408449674975E-04
0.7	1.0	1.75414473761283E-04
0.7	1.05	1.77401659928611E-04
0.7	1.1	1.79372489433902E-04
0.7	1.15	1.81328738697217E-04
0.7	1.2	1.83271838499066E-04
0.8	0.0	8.89043699606555E-17
0.8	0.05	8.61265869142323E-05
0.8	0.1	1.50833289890404E-04
0.8	0.15	1.96024464849907E-04
0.8	0.2	2.24795588140880E-04
0.8	0.25	2.41258000862763E-04
0.8	0.3	2.50271744547163E-04
0.8	0.35	2.56028187628499E-04
0.8	0.4	2.60616204047901E-04
0.8	0.45	2.64657928663416E-04
0.8	0.5	2.68354086669950E-04
0.8	0.55	2.71810708083294E-04
0.8	0.6	2.75092239455414E-04
0.8	0.65	2.78240324471963E-04
0.8	0.7	2.81282158412136E-04
0.8	0.75	2.84237723440847E-04
0.8	0.8	2.87120454728363E-04
0.8	0.85	2.89941421792908E-04
0.8	0.9	2.92709333921361E-04
0.8	0.95	2.95430467850429E-04
0.8	1.0	2.98110590801634E-04
0.8	1.05	3.00754286964017E-04
0.8	1.1	3.03365562865949E-04
0.8	1.15	3.05947245270331E-04
0.8	1.2	3.08502957069858E-04
0.9	0.0	-1.64991560256401E-16
0.9	0.05	1.06973989546162E-04
0.9	0.1	1.93244494705358E-04
0.9	0.15	2.59889388785347E-04
0.9	0.2	3.08795028905202E-04
0.9	0.25	3.42411435543513E-04
0.9	0.3	3.63854112772904E-04
0.9	0.35	3.76872433465098E-04
0.9	0.4	3.85239324860077E-04
0.9	0.45	3.91542617025136E-04
0.9	0.5	3.96882588117344E-04
0.9	0.55	4.01648987706443E-04
0.9	0.6	4.06029870542473E-04
0.9	0.65	4.10141714449436E-04
0.9	0.7	4.14055606118434E-04
0.9	0.75	4.17816253757734E-04
0.9	0.8	4.21453679065676E-04
0.9	0.85	4.24988625331954E-04
0.9	0.9	4.28437833720574E-04
0.9	0.95	4.31812424008377E-04
0.9	1.0	4.35121897944043E-04
0.9	1.05	4.38375115967415E-04
0.9	1.1	4.41577469833050E-04
0.9	1.15	4.44733214936673E-04
0.9	1.2	4.47848029467713E-04
1.0	0.0	-1.18618115234782E-16
1.0	0.05	1.24100595886598E-04
1.0	0.1	2.28469706614901E-04
1.0	0.15	3.13793742823374E-04
1.0	0.2	3.81387726118232E-04
1.0	0.25	4.32880899134125E-04
1.0	0.3	4.70248999069630E-04
1.0	0.35	4.95906788467862E-04
1.0	0.4	5.12765906343760E-04
1.0	0.45	5.23986591680553E-04
1.0	0.5	5.32206148561178E-04
1.0	0.55	5.38918263941753E-04
1.0	0.6	5.44768609668986E-04
1.0	0.65	5.50054861213090E-04
1.0	0.7	5.54954163769440E-04
1.0	0.75	5.59578941033466E-04
1.0	0.8	5.63999771721387E-04
1.0	0.85	5.68256968353944E-04
1.0	0.9	5.72383514559160E-04
1.0	0.95	5.76399248289297E-04
1.0	1.0	5.80319810455367E-04
1.0	1.05	5.84158333554965E-04
1.0	1.1	5.87925770996596E-04
1.0	1.15	5.91626440871830E-04
1.0	1.2	5.95270327085024E-04
1.1	0.0	5.17949509957169E-17
1.1	0.05	1.38203357500783E-04
1.1	0.1	2.57639933508869E-04
1.1	0.15	3.58810735008237E-04
1.1	0.2	4.42751852405714E-04
1.1	0.25	5.10685801621922E-04
1.1	0.3	5.63999051321774E-04
1.1	0.35	6.04294105559313E-04
1.1	0.4	6.33479853711734E-04
1.1	0.45	6.53845177541066E-04
1.1	0.5	6.67972202473459E-04
1.1	0.55	6.78289055702316E-04
1.1	0.6	6.86489586310617E-04
1.1	0.65	6.93469317401995E-04
1.1	0.7	6.99671471974273E-04
1.1	0.75	7.05347042591298E-04
1.1	0.8	7.10656518030250E-04
1.1	0.85	7.15699937941446E-04
1.1	0.9	7.20539659413845E-04
1.1	0.95	7.25214130035766E-04
1.1	1.0	7.29752704888025E-04
1.1	1.05	7.34177107640470E-04
1.1	1.1	7.38500272012936E-04
1.1	1.15	7.42735667995339E-04
1.1	1.2	7.46894874311075E-04
1.2	0.0	-5.75037759824348E-17
1.2	0.05	1.49903115727820E-04
1.2	0.1	2.81904236598320E-04
1.2	0.15	3.96421586786899E-04
1.2	0.2	4.94357704318936E-04
1.2	0.25	5.76732500967072E-04
1.2	0.3	6.44632156296593E-04
1.2	0.35	6.99226566323238E-04
1.2	0.4	7.41826324869292E-04
1.2	0.45	7.73962618060363E-04
1.2	0.5	7.97458757453569E-04
1.2	0.55	8.14409520000989E-04
1.2	0.6	8.26934507488846E-04
1.2	0.65	8.36750338383793E-04
1.2	0.7	8.44937635646652E-04
1.2	0.75	8.52089336111594E-04
1.2	0.8	8.58554545404084E-04
1.2	0.85	8.64544321580654E-04
1.2	0.9	8.70195659868437E-04
1.2	0.95	8.75592948828199E-04
1.2	1.0	8.80791313339638E-04
1.2	1.05	8.85824525204510E-04
1.2	1.1	8.90719743043322E-04
1.2	1.15	8.95497018008062E-04
1.2	1.2	9.00170000418439E-04