vg	vd	ids
0.0	0.0	-6.18920084461841E-18
0.0	0.05	2.03634718936246E-13
0.0	0.1	2.38686761003408E-13
0.0	0.15	2.59782064395718E-13
0.0	0.2	2.81774404844255E-13
0.0	0.25	3.05403551712074E-13
0.0	0.3	3.30810452457335E-13
0.0	0.35	3.58129072915655E-13
0.0	0.4	3.87548578068066E-13
0.0	0.45	4.19269087090379E-13
0.0	0.5	4.53482648237112E-13
0.0	0.55	4.90434245756870E-13
0.0	0.6	5.30330848392918E-13
0.0	0.65	5.73499032842633E-13
0.0	0.7	6.20211223197122E-13
0.0	0.75	6.70847233998762E-13
0.0	0.8	7.25727917110934E-13
0.0	0.85	7.85263323953178E-13
0.0	0.9	8.50126108580047E-13
0.0	0.95	9.20338618628122E-13
0.0	1.0	9.97362127100749E-13
0.0	1.05	1.08104916082161E-12
0.0	1.1	1.17240942291728E-12
0.0	1.15	1.27196994473883E-12
0.0	1.2	1.38220396317838E-12
0.1	0.0	8.59241621630198E-18
0.1	0.05	5.92096459203899E-12
0.1	0.1	6.96125212435340E-12
0.1	0.15	7.57773145370818E-12
0.1	0.2	8.21317516933582E-12
0.1	0.25	8.89048176402449E-12
0.1	0.3	9.61326609063673E-12
0.1	0.35	1.03851657061902E-11
0.1	0.4	1.12100451235099E-11
0.1	0.45	1.20921632586414E-11
0.1	0.5	1.30359318742770E-11
0.1	0.55	1.40458214772247E-11
0.1	0.6	1.51278732016527E-11
0.1	0.65	1.62873396581675E-11
0.1	0.7	1.75304362199678E-11
0.1	0.75	1.88623797377015E-11
0.1	0.8	2.02968679053922E-11
0.1	0.85	2.18345963630586E-11
0.1	0.9	2.34862883197884E-11
0.1	0.95	2.52503753058766E-11
0.1	1.0	2.71746102461528E-11
0.1	1.05	2.92362744024873E-11
0.1	1.1	3.14509592116096E-11
0.1	1.15	3.38369350508723E-11
0.1	1.2	3.64255928347166E-11
0.2	0.0	6.35355947737499E-18
0.2	0.05	1.73475715153239E-10
0.2	0.1	2.04765310589814E-10
0.2	0.15	2.23089537567721E-10
0.2	0.2	2.41772387240392E-10
0.2	0.25	2.61543955470956E-10
0.2	0.3	2.82498191425880E-10
0.2	0.35	3.04724179305253E-10
0.2	0.4	3.28315884155578E-10
0.2	0.45	3.53369040927313E-10
0.2	0.5	3.79990189577261E-10
0.2	0.55	4.08288946785840E-10
0.2	0.6	4.38383026531437E-10
0.2	0.65	4.70292734692826E-10
0.2	0.7	5.04330515293780E-10
0.2	0.75	5.40738648814037E-10
0.2	0.8	5.79266524706555E-10
0.2	0.85	6.20503790419856E-10
0.2	0.9	6.64280435133022E-10
0.2	0.95	7.10903674677602E-10
0.2	1.0	7.60890776915730E-10
0.2	1.05	8.13945475577207E-10
0.2	1.1	8.70721054297226E-10
0.2	1.15	9.31227578034522E-10
0.2	1.2	9.95825858355621E-10
0.3	0.0	6.99385664437324E-18
0.3	0.05	5.06770867873663E-09
0.3	0.1	6.01364025707554E-09
0.3	0.15	6.56203409791186E-09
0.3	0.2	7.11406743913062E-09
0.3	0.25	7.69348225243543E-09
0.3	0.3	8.30294538886632E-09
0.3	0.35	8.94474746744232E-09
0.3	0.4	9.62094817688076E-09
0.3	0.45	1.03346166889759E-08
0.3	0.5	1.10874590146754E-08
0.3	0.55	1.18822450023353E-08
0.3	0.6	1.27216038544882E-08
0.3	0.65	1.36071842562743E-08
0.3	0.7	1.45453156818795E-08
0.3	0.75	1.55356318205998E-08
0.3	0.8	1.65813223302609E-08
0.3	0.85	1.76871765240792E-08
0.3	0.9	1.88599151212555E-08
0.3	0.95	2.00978876936732E-08
0.3	1.0	2.14073629745759E-08
0.3	1.05	2.27926550584352E-08
0.3	1.1	2.42583970607664E-08
0.3	1.15	2.58092272004097E-08
0.3	1.2	2.74504870372484E-08
0.4	0.0	-9.65671441337672E-19
0.4	0.05	1.42501169244630E-07
0.4	0.1	1.70631899866175E-07
0.4	0.15	1.86468204595981E-07
0.4	0.2	2.02033782461174E-07
0.4	0.25	2.18144961929054E-07
0.4	0.3	2.34886644661078E-07
0.4	0.35	2.52317139335028E-07
0.4	0.4	2.70488871990039E-07
0.4	0.45	2.89337907716656E-07
0.4	0.5	3.09133756624173E-07
0.4	0.55	3.29888205835803E-07
0.4	0.6	3.51491251975509E-07
0.4	0.65	3.74110753939663E-07
0.4	0.7	3.97764813976019E-07
0.4	0.75	4.22468569182180E-07
0.4	0.8	4.48305080271909E-07
0.4	0.85	4.75329396277713E-07
0.4	0.9	5.03585927322920E-07
0.4	0.95	5.33131535340278E-07
0.4	1.0	5.64020754474264E-07
0.4	1.05	5.96314542285785E-07
0.4	1.1	6.30074058788177E-07
0.4	1.15	6.65361427742813E-07
0.4	1.2	7.02240447282498E-07
0.5	0.0	1.15160462406903E-18
0.5	0.05	2.73439944605853E-06
0.5	0.1	3.41617693539152E-06
0.5	0.15	3.71790644280818E-06
0.5	0.2	3.97858016780540E-06
0.5	0.25	4.23574754097611E-06
0.5	0.3	4.49344988364717E-06
0.5	0.35	4.75160341714198E-06
0.5	0.4	5.01397662741768E-06
0.5	0.45	5.27983271587895E-06
0.5	0.5	5.55040780221265E-06
0.5	0.55	5.82378234136895E-06
0.5	0.6	6.10201818976170E-06
0.5	0.65	6.38460918461117E-06
0.5	0.7	6.67240464186803E-06
0.5	0.75	6.96533682093894E-06
0.5	0.8	7.26351412673895E-06
0.5	0.85	7.56719220375643E-06
0.5	0.9	7.87651395035230E-06
0.5	0.95	8.19161437175595E-06
0.5	1.0	8.51264097979425E-06
0.5	1.05	8.83969628520446E-06
0.5	1.1	9.17290328651172E-06
0.5	1.15	9.51238141194797E-06
0.5	1.2	9.85821471839904E-06
0.6	0.0	-1.83486761581497E-18
0.6	0.05	1.44912643729478E-05
0.6	0.1	2.12771291538080E-05
0.6	0.15	2.40211887957031E-05
0.6	0.2	2.54644366845035E-05
0.6	0.25	2.66210883109970E-05
0.6	0.3	2.76983745660155E-05
0.6	0.35	2.87310570255785E-05
0.6	0.4	2.97402556442858E-05
0.6	0.45	3.07289434077474E-05
0.6	0.5	3.17028758861371E-05
0.6	0.55	3.26627057828739E-05
0.6	0.6	3.36141729434228E-05
0.6	0.65	3.45583684573635E-05
0.6	0.7	3.54972395653508E-05
0.6	0.75	3.64325800392018E-05
0.6	0.8	3.73652873080665E-05
0.6	0.85	3.82963592296934E-05
0.6	0.9	3.92268025598827E-05
0.6	0.95	4.01572408127725E-05
0.6	1.0	4.10883546627667E-05
0.6	1.05	4.20207267233914E-05
0.6	1.1	4.29548414811076E-05
0.6	1.15	4.38911434670590E-05
0.6	1.2	4.48299629459213E-05
0.7	0.0	8.73136827178988E-18
0.7	0.05	3.05272836319342E-05
0.7	0.1	5.07282501700648E-05
0.7	0.15	6.25871770663417E-05
0.7	0.2	6.88809693680457E-05
0.7	0.25	7.24155504265941E-05
0.7	0.3	7.49638367936133E-05
0.7	0.35	7.71817492626281E-05
0.7	0.4	7.92382986019641E-05
0.7	0.45	8.11930894677441E-05
0.7	0.5	8.30664712986961E-05
0.7	0.55	8.48796474521503E-05
0.7	0.6	8.66440342416601E-05
0.7	0.65	8.83679514219223E-05
0.7	0.7	9.00593626184694E-05
0.7	0.75	9.17232197403927E-05
0.7	0.8	9.33637175841632E-05
0.7	0.85	9.49841856824125E-05
0.7	0.9	9.65877877776535E-05
0.7	0.95	9.81765782426291E-05
0.7	1.0	9.97527937994396E-05
0.7	1.05	1.01318192906523E-04
0.7	1.1	1.02874191095133E-04
0.7	1.15	1.04422159362451E-04
0.7	1.2	1.05963212487692E-04
0.8	0.0	2.92838771414929E-18
0.8	0.05	4.60519842273646E-05
0.8	0.1	8.10573808610156E-05
0.8	0.15	1.06046973411654E-04
0.8	0.2	1.22622756149321E-04
0.8	0.25	1.32881474162959E-04
0.8	0.3	1.39184879753785E-04
0.8	0.35	1.43549286977657E-04
0.8	0.4	1.47111834761819E-04
0.8	0.45	1.50296384189747E-04
0.8	0.5	1.53247900917820E-04
0.8	0.55	1.56032937485528E-04
0.8	0.6	1.58689269074940E-04
0.8	0.65	1.61245468061894E-04
0.8	0.7	1.63720670005296E-04
0.8	0.75	1.66129265618540E-04
0.8	0.8	1.68482258129416E-04
0.8	0.85	1.70787820449830E-04
0.8	0.9	1.73052645399457E-04
0.8	0.95	1.75281841062904E-04
0.8	1.0	1.77480241322087E-04
0.8	1.05	1.79651248980050E-04
0.8	1.1	1.81798135994613E-04
0.8	1.15	1.83923616649966E-04
0.8	1.2	1.86030143550971E-04
0.9	0.0	1.26305850645792E-17
0.9	0.05	6.01569417272635E-05
0.9	0.1	1.09153598883715E-04
0.9	0.15	1.47578044770701E-04
0.9	0.2	1.76430029026595E-04
0.9	0.25	1.97030277606673E-04
0.9	0.3	2.11027170677429E-04
0.9	0.35	2.20335022577437E-04
0.9	0.4	2.26842117023343E-04
0.9	0.45	2.31937556353236E-04
0.9	0.5	2.36335551111873E-04
0.9	0.55	2.40318416650670E-04
0.9	0.6	2.44014574900904E-04
0.9	0.65	2.47497912239469E-04
0.9	0.7	2.50815908282795E-04
0.9	0.75	2.54004163955444E-04
0.9	0.8	2.57087258660481E-04
0.9	0.85	2.60082616019105E-04
0.9	0.9	2.63004523267117E-04
0.9	0.95	2.65863264914710E-04
0.9	1.0	2.68667027711191E-04
0.9	1.05	2.71422912907476E-04
0.9	1.1	2.74136730491914E-04
0.9	1.15	2.76812723134811E-04
0.9	1.2	2.79455145942912E-04
1.0	0.0	-1.96117980417820E-18
1.0	0.05	7.27438782966287E-05
1.0	0.1	1.34466481801008E-04
1.0	0.15	1.85506218243314E-04
1.0	0.2	2.26547630322836E-04
1.0	0.25	2.58491483809373E-04
1.0	0.3	2.82449630653676E-04
1.0	0.35	2.99764883317676E-04
1.0	0.4	3.11999692133032E-04
1.0	0.45	3.20801521473378E-04
1.0	0.5	3.27591144986762E-04
1.0	0.55	3.33284579475899E-04
1.0	0.6	3.38334260534667E-04
1.0	0.65	3.42947765423070E-04
1.0	0.7	3.47242245344421E-04
1.0	0.75	3.51296262837014E-04
1.0	0.8	3.55163258704995E-04
1.0	0.85	3.58881635475960E-04
1.0	0.9	3.62477692622689E-04
1.0	0.95	3.65973000631883E-04
1.0	1.0	3.69381866260926E-04
1.0	1.05	3.72715863533806E-04
1.0	1.1	3.75985221185838E-04
1.0	1.15	3.79197391879787E-04
1.0	1.2	3.82358611349630E-04
1.1	0.0	4.43741362612031E-18
1.1	0.05	8.38969901871334E-05
1.1	0.1	1.57031255137653E-04
1.1	0.15	2.19585231087345E-04
1.1	0.2	2.72055815647253E-04
1.1	0.25	3.15103342048472E-04
1.1	0.3	3.49528191093875E-04
1.1	0.35	3.76280503541137E-04
1.1	0.4	3.96480697647436E-04
1.1	0.45	4.11424677055298E-04
1.1	0.5	4.22520909351481E-04
1.1	0.55	4.31100089071867E-04
1.1	0.6	4.38168489118050E-04
1.1	0.65	4.44320564684580E-04
1.1	0.7	4.49865037124599E-04
1.1	0.75	4.54968759477985E-04
1.1	0.8	4.59741098920021E-04
1.1	0.85	4.64261561743854E-04
1.1	0.9	4.68584100439578E-04
1.1	0.95	4.72748415807138E-04
1.1	1.0	4.76781479557285E-04
1.1	1.05	4.80704339556900E-04
1.1	1.1	4.84533492392835E-04
1.1	1.15	4.88279468274314E-04
1.1	1.2	4.91954476771930E-04
1.2	0.0	1.24672353150960E-17
1.2	0.05	9.37537217013901E-05
1.2	0.1	1.77055715285717E-04
1.2	0.15	2.49987685876777E-04
1.2	0.2	3.12927386064547E-04
1.2	0.25	3.66386050073387E-04
1.2	0.3	4.10974458796361E-04
1.2	0.35	4.47401745934515E-04
1.2	0.4	4.76487681167809E-04
1.2	0.45	4.99182198812883E-04
1.2	0.5	5.16576749874215E-04
1.2	0.55	5.29872283810684E-04
1.2	0.6	5.40266814737405E-04
1.2	0.65	5.48768481938762E-04
1.2	0.7	5.56063696201141E-04
1.2	0.75	5.62555948540318E-04
1.2	0.8	5.68472836111202E-04
1.2	0.85	5.73960127418345E-04
1.2	0.9	5.79118882915763E-04
1.2	0.95	5.84025601116310E-04
1.2	1.0	5.88731669617190E-04
1.2	1.05	5.93276270417844E-04
1.2	1.1	5.97685545810730E-04
1.2	1.15	6.01979605603834E-04
1.2	1.2	6.06176163036572E-04