vg	vd	ids
0.0	0.0	2.30664494878548E-17
0.0	0.05	1.01119577960039E-12
0.0	0.1	1.20601353536196E-12
0.0	0.15	1.34722823976816E-12
0.0	0.2	1.50217310547247E-12
0.0	0.25	1.67511977613137E-12
0.0	0.3	1.86840654652828E-12
0.0	0.35	2.08574613866113E-12
0.0	0.4	2.33054263226192E-12
0.0	0.45	2.60742487311622E-12
0.0	0.5	2.92196768913096E-12
0.0	0.55	3.28097800297304E-12
0.0	0.6	3.69267786755210E-12
0.0	0.65	4.16672197774928E-12
0.0	0.7	4.71589320463859E-12
0.0	0.75	5.35544252486659E-12
0.0	0.8	6.10398289398632E-12
0.0	0.85	6.98512405325420E-12
0.0	0.9	8.02828963446483E-12
0.0	0.95	9.27003115452650E-12
0.0	1.0	1.07565450190459E-11
0.0	1.05	1.25456804155399E-11
0.0	1.1	1.47104064233262E-11
0.0	1.15	1.73428225722897E-11
0.0	1.2	2.05601310125326E-11
0.1	0.0	1.61787848545776E-17
0.1	0.05	2.84620624714197E-11
0.1	0.1	3.38581095066208E-11
0.1	0.15	3.75441284618349E-11
0.1	0.2	4.14916227469765E-11
0.1	0.25	4.57994259463161E-11
0.1	0.3	5.05090909857229E-11
0.1	0.35	5.56678879122666E-11
0.1	0.4	6.13299138352773E-11
0.1	0.45	6.75566691304421E-11
0.1	0.5	7.44201656836718E-11
0.1	0.55	8.20024830778187E-11
0.1	0.6	9.04010425709147E-11
0.1	0.65	9.97270003385354E-11
0.1	0.7	1.10112870876917E-10
0.1	0.75	1.21713810992661E-10
0.1	0.8	1.34715505488374E-10
0.1	0.85	1.49331357541628E-10
0.1	0.9	1.65826703073659E-10
0.1	0.95	1.84503442804688E-10
0.1	1.0	2.05741743175308E-10
0.1	1.05	2.29975814379651E-10
0.1	1.1	2.57759341610536E-10
0.1	1.15	2.89741948527166E-10
0.1	1.2	3.26703791734285E-10
0.2	0.0	-1.27123546101898E-17
0.2	0.05	8.20306781215986E-10
0.2	0.1	9.76734296021215E-10
0.2	0.15	1.07910353407394E-09
0.2	0.2	1.18655006489647E-09
0.2	0.25	1.30193076075988E-09
0.2	0.3	1.42601297963559E-09
0.2	0.35	1.55962776104276E-09
0.2	0.4	1.70366986767077E-09
0.2	0.45	1.85916750642143E-09
0.2	0.5	2.02719562759694E-09
0.2	0.55	2.20900010990594E-09
0.2	0.6	2.40596650177068E-09
0.2	0.65	2.61958482334631E-09
0.2	0.7	2.85168995366368E-09
0.2	0.75	3.10415555503847E-09
0.2	0.8	3.37928176202332E-09
0.2	0.85	3.67948311540979E-09
0.2	0.9	4.00784856611859E-09
0.2	0.95	4.36726343354173E-09
0.2	1.0	4.76199589598498E-09
0.2	1.05	5.19598254934982E-09
0.2	1.1	5.67406845095796E-09
0.2	1.15	6.20246037301176E-09
0.2	1.2	6.78761680842328E-09
0.3	0.0	-3.57744818232287E-17
0.3	0.05	2.36881300468449E-08
0.3	0.1	2.83203713075848E-08
0.3	0.15	3.12428882472343E-08
0.3	0.2	3.42467126393258E-08
0.3	0.25	3.74233084190336E-08
0.3	0.3	4.07892097749747E-08
0.3	0.35	4.43605889161775E-08
0.3	0.4	4.81540018182322E-08
0.3	0.45	5.21868675227493E-08
0.3	0.5	5.64775310457323E-08
0.3	0.55	6.10470954771248E-08
0.3	0.6	6.59125875566630E-08
0.3	0.65	7.11016372783105E-08
0.3	0.7	7.66360781033710E-08
0.3	0.75	8.25430462847585E-08
0.3	0.8	8.88549474712574E-08
0.3	0.85	9.55985483437494E-08
0.3	0.9	1.02812605260305E-07
0.3	0.95	1.10536331039230E-07
0.3	1.0	1.18809486709517E-07
0.3	1.05	1.27678788583152E-07
0.3	1.1	1.37198169187309E-07
0.3	1.15	1.47422880043180E-07
0.3	1.2	1.58415953414609E-07
0.4	0.0	-2.64436216458343E-18
0.4	0.05	6.30837714795698E-07
0.4	0.1	7.62914605900157E-07
0.4	0.15	8.39462124210871E-07
0.4	0.2	9.14853381221003E-07
0.4	0.25	9.92537294478657E-07
0.4	0.3	1.07293899512307E-06
0.4	0.35	1.15634748265096E-06
0.4	0.4	1.24299926634452E-06
0.4	0.45	1.33313693199218E-06
0.4	0.5	1.42694690185980E-06
0.4	0.55	1.52463837146812E-06
0.4	0.6	1.62639829679277E-06
0.4	0.65	1.73242241003607E-06
0.4	0.7	1.84293263886488E-06
0.4	0.75	1.95812347466189E-06
0.4	0.8	2.07819829121855E-06
0.4	0.85	2.20339641357976E-06
0.4	0.9	2.33394266722181E-06
0.4	0.95	2.47007207758308E-06
0.4	1.0	2.61203820629665E-06
0.4	1.05	2.76010434940622E-06
0.4	1.1	2.91454545607900E-06
0.4	1.15	3.07564641250452E-06
0.4	1.2	3.24371161392678E-06
0.5	0.0	-4.76368014496057E-17
0.5	0.05	8.30865161544346E-06
0.5	0.1	1.08543966119930E-05
0.5	0.15	1.18718410097428E-05
0.5	0.2	1.26679442056755E-05
0.5	0.25	1.34287538236360E-05
0.5	0.3	1.41751895442289E-05
0.5	0.35	1.49145883526038E-05
0.5	0.4	1.56503567209917E-05
0.5	0.45	1.63849047567217E-05
0.5	0.5	1.71201517606217E-05
0.5	0.55	1.78576897689531E-05
0.5	0.6	1.85985531526561E-05
0.5	0.65	1.93437805600814E-05
0.5	0.7	2.00941094173373E-05
0.5	0.75	2.08503347110789E-05
0.5	0.8	2.16129239929491E-05
0.5	0.85	2.23825313902628E-05
0.5	0.9	2.31596554809502E-05
0.5	0.95	2.39447669145563E-05
0.5	1.0	2.47383317507750E-05
0.5	1.05	2.55407889134787E-05
0.5	1.1	2.63525937978967E-05
0.5	1.15	2.71740912251840E-05
0.5	1.2	2.80057699490620E-05
0.6	0.0	-2.00536693917560E-17
0.6	0.05	2.85478073976189E-05
0.6	0.1	4.41779615797101E-05
0.6	0.15	5.13686965863367E-05
0.6	0.2	5.48710253259134E-05
0.6	0.25	5.73560525228517E-05
0.6	0.3	5.95649972854875E-05
0.6	0.35	6.16408196016948E-05
0.6	0.4	6.36255771417049E-05
0.6	0.45	6.55424150360192E-05
0.6	0.5	6.74072169149166E-05
0.6	0.55	6.92305207184508E-05
0.6	0.6	7.10206086092255E-05
0.6	0.65	7.27834404241239E-05
0.6	0.7	7.45237327450724E-05
0.6	0.75	7.62455019136760E-05
0.6	0.8	7.79518513710150E-05
0.6	0.85	7.96453330155548E-05
0.6	0.9	8.13286143257656E-05
0.6	0.95	8.30033729666042E-05
0.6	1.0	8.46714903028369E-05
0.6	1.05	8.63346398435049E-05
0.6	1.1	8.79942509434018E-05
0.6	1.15	8.96515230452863E-05
0.6	1.2	9.13076926413731E-05
0.7	0.0	7.58302793871795E-17
0.7	0.05	5.08252057181443E-05
0.7	0.1	8.66046847107165E-05
0.7	0.15	1.09416553681939E-04
0.7	0.2	1.22506642949691E-04
0.7	0.25	1.29822438617500E-04
0.7	0.3	1.34674856215197E-04
0.7	0.35	1.38660974875653E-04
0.7	0.4	1.42253761651558E-04
0.7	0.45	1.45595727061347E-04
0.7	0.5	1.48756065887675E-04
0.7	0.55	1.51778203889168E-04
0.7	0.6	1.54692302833199E-04
0.7	0.65	1.57518453657222E-04
0.7	0.7	1.60272112446592E-04
0.7	0.75	1.62964958206024E-04
0.7	0.8	1.65605657658050E-04
0.7	0.85	1.68201644075619E-04
0.7	0.9	1.70759355401947E-04
0.7	0.95	1.73282938209189E-04
0.7	1.0	1.75777166391007E-04
0.7	1.05	1.78246113826978E-04
0.7	1.1	1.80692519347619E-04
0.7	1.15	1.83119325521155E-04
0.7	1.2	1.85529297724053E-04
0.8	0.0	2.68943845786963E-17
0.8	0.05	7.09991495443606E-05
0.8	0.1	1.26711568826780E-04
0.8	0.15	1.68135568695752E-04
0.8	0.2	1.97024715911231E-04
0.8	0.25	2.15815151778775E-04
0.8	0.3	2.27558370335958E-04
0.8	0.35	2.35364958472693E-04
0.8	0.4	2.41399038797960E-04
0.8	0.45	2.46604796424045E-04
0.8	0.5	2.51319521724807E-04
0.8	0.55	2.55694451896019E-04
0.8	0.6	2.59818469875334E-04
0.8	0.65	2.63750021669119E-04
0.8	0.7	2.67530132880025E-04
0.8	0.75	2.71186069299105E-04
0.8	0.8	2.74738599353674E-04
0.8	0.85	2.78203498532225E-04
0.8	0.9	2.81592811534007E-04
0.8	0.95	2.84916778083095E-04
0.8	1.0	2.88182874252597E-04
0.8	1.05	2.91399153738104E-04
0.8	1.1	2.94571172821434E-04
0.8	1.15	2.97703355895226E-04
0.8	1.2	3.00800340175330E-04
0.9	0.0	-4.00363071930956E-17
0.9	0.05	8.85177586999052E-05
0.9	0.1	1.62126005792400E-04
0.9	0.15	2.21304066487664E-04
0.9	0.2	2.67089995015740E-04
0.9	0.25	3.00938962335396E-04
0.9	0.3	3.24755147049550E-04
0.9	0.35	3.40911295175363E-04
0.9	0.4	3.52037240400503E-04
0.9	0.45	3.60395005435842E-04
0.9	0.5	3.67335908884612E-04
0.9	0.55	3.73454252184022E-04
0.9	0.6	3.79022980559327E-04
0.9	0.65	3.84200586582857E-04
0.9	0.7	3.89085927385349E-04
0.9	0.75	3.93746280590946E-04
0.9	0.8	3.98227057983877E-04
0.9	0.85	4.02559947097515E-04
0.9	0.9	4.06767789276138E-04
0.9	0.95	4.10871155049943E-04
0.9	1.0	4.14882128896175E-04
0.9	1.05	4.18812598433917E-04
0.9	1.1	4.22672675824948E-04
0.9	1.15	4.26472610916705E-04
0.9	1.2	4.30214328472165E-04
1.0	0.0	2.42388766703617E-17
1.0	0.05	1.03528681570933E-04
1.0	0.1	1.92748094703383E-04
1.0	0.15	2.67858661133379E-04
1.0	0.2	3.29524675640428E-04
1.0	0.25	3.78688244179538E-04
1.0	0.3	4.16564429537239E-04
1.0	0.35	4.44683671687309E-04
1.0	0.4	4.64930796085873E-04
1.0	0.45	4.79462213371279E-04
1.0	0.5	4.90366467026309E-04
1.0	0.55	4.99183790049646E-04
1.0	0.6	5.06771943639885E-04
1.0	0.65	5.13550818945348E-04
1.0	0.7	5.19760967237843E-04
1.0	0.75	5.25560147913160E-04
1.0	0.8	5.31048558315679E-04
1.0	0.85	5.36297335663424E-04
1.0	0.9	5.41349305380351E-04
1.0	0.95	5.46240912613128E-04
1.0	1.0	5.50996982048075E-04
1.0	1.05	5.55633349127114E-04
1.0	1.1	5.60170039112408E-04
1.0	1.15	5.64616690546816E-04
1.0	1.2	5.68983341146422E-04
1.1	0.0	-4.31002992894779E-17
1.1	0.05	1.16342550323035E-04
1.1	0.1	2.19032076691036E-04
1.1	0.15	3.08116350439347E-04
1.1	0.2	3.84053642450973E-04
1.1	0.25	4.47503130521437E-04
1.1	0.3	4.99296185206823E-04
1.1	0.35	5.40453886880017E-04
1.1	0.4	5.72232063990955E-04
1.1	0.45	5.96151982619381E-04
1.1	0.5	6.13979843331277E-04
1.1	0.55	6.27537808351401E-04
1.1	0.6	6.38371902701003E-04
1.1	0.65	6.47511828675596E-04
1.1	0.7	6.55546364872090E-04
1.1	0.75	6.62805654982698E-04
1.1	0.8	6.69505089024812E-04
1.1	0.85	6.75796722051856E-04
1.1	0.9	6.81773547253371E-04
1.1	0.95	6.87506796020022E-04
1.1	1.0	6.93037028129544E-04
1.1	1.05	6.98399854368777E-04
1.1	1.1	7.03620853992438E-04
1.1	1.15	7.08716744097092E-04
1.1	1.2	7.13705864479350E-04
1.2	0.0	-5.08656545812631E-17
1.2	0.05	1.27292348859713E-04
1.2	0.1	2.41566194713344E-04
1.2	0.15	3.42788589951046E-04
1.2	0.2	4.31304414491500E-04
1.2	0.25	5.07614111642364E-04
1.2	0.3	5.72330604899606E-04
1.2	0.35	6.26179368681469E-04
1.2	0.4	6.70029189373921E-04
1.2	0.45	7.04918067732631E-04
1.2	0.5	7.32094407470661E-04
1.2	0.55	7.53009048637990E-04
1.2	0.6	7.69217218998619E-04
1.2	0.65	7.82165261996354E-04
1.2	0.7	7.92953802011256E-04
1.2	0.75	8.02300182976338E-04
1.2	0.8	8.10643275710676E-04
1.2	0.85	8.18262122928222E-04
1.2	0.9	8.25349454577240E-04
1.2	0.95	8.32043332388895E-04
1.2	1.0	8.38431244777864E-04
1.2	1.05	8.44574473638574E-04
1.2	1.1	8.50515493323763E-04
1.2	1.15	8.56287028239856E-04
1.2	1.2	8.61910808929906E-04