vg	vd	ids
0.0	0.0	-3.72255055765061E-17
0.0	0.05	5.18999655612553E-12
0.0	0.1	6.14799900914335E-12
0.0	0.15	7.09635990063536E-12
0.0	0.2	8.21939750326241E-12
0.0	0.25	9.56073909331860E-12
0.0	0.3	1.11770321541389E-11
0.0	0.35	1.31424393195708E-11
0.0	0.4	1.55529960437069E-11
0.0	0.45	1.85366336613017E-11
0.0	0.5	2.22617766479391E-11
0.0	0.55	2.69514337715098E-11
0.0	0.6	3.29003461687743E-11
0.0	0.65	4.05017280677290E-11
0.0	0.7	5.02795123323120E-11
0.0	0.75	6.29259995184410E-11
0.0	0.8	7.93638578831552E-11
0.0	0.85	1.00776205901989E-10
0.0	0.9	1.28781854874458E-10
0.0	0.95	1.65589311739251E-10
0.0	1.0	2.14074890560260E-10
0.0	1.05	2.78106512590331E-10
0.0	1.1	3.62799370247543E-10
0.0	1.15	4.74917117746825E-10
0.0	1.2	6.23421110358151E-10
0.1	0.0	5.08623249754117E-17
0.1	0.05	1.36122943259532E-10
0.1	0.1	1.58741657191944E-10
0.1	0.15	1.78838777487550E-10
0.1	0.2	2.01473930530734E-10
0.1	0.25	2.27107474325709E-10
0.1	0.3	2.56292858372410E-10
0.1	0.35	2.89707743574059E-10
0.1	0.4	3.28190726229005E-10
0.1	0.45	3.72775584233770E-10
0.1	0.5	4.24752814569821E-10
0.1	0.55	4.85751182503401E-10
0.1	0.6	5.57812416351615E-10
0.1	0.65	6.43521065530274E-10
0.1	0.7	7.46100975472779E-10
0.1	0.75	8.69850332101240E-10
0.1	0.8	1.01988976621175E-09
0.1	0.85	1.20268840898979E-09
0.1	0.9	1.42775074526416E-09
0.1	0.95	1.70516123763965E-09
0.1	1.0	2.04927433505268E-09
0.1	1.05	2.47791745727696E-09
0.1	1.1	3.01401101944921E-09
0.1	1.15	3.68649180377429E-09
0.1	1.2	4.53169788637172E-09
0.2	0.0	2.82555921972314E-20
0.2	0.05	3.81108525923368E-09
0.2	0.1	4.42221289124579E-09
0.2	0.15	4.92105923090242E-09
0.2	0.2	5.46439034470561E-09
0.2	0.25	6.05881417225652E-09
0.2	0.3	6.71127837169098E-09
0.2	0.35	7.42975943982880E-09
0.2	0.4	8.22346729918856E-09
0.2	0.45	9.10320354858524E-09
0.2	0.5	1.00814577884436E-08
0.2	0.55	1.11732985597474E-08
0.2	0.6	1.23964663015048E-08
0.2	0.65	1.37706949008085E-08
0.2	0.7	1.53260984288456E-08
0.2	0.75	1.70850579956736E-08
0.2	0.8	1.90917556646374E-08
0.2	0.85	2.13939251648760E-08
0.2	0.9	2.40353323842410E-08
0.2	0.95	2.70859762813978E-08
0.2	1.0	3.06254272988969E-08
0.2	1.05	3.47510509496127E-08
0.2	1.1	3.95796678874493E-08
0.2	1.15	4.52560194334004E-08
0.2	1.2	5.19553580477203E-08
0.3	0.0	-5.46543891089776E-17
0.3	0.05	1.08669211699641E-07
0.3	0.1	1.26307386633117E-07
0.3	0.15	1.39611917436382E-07
0.3	0.2	1.53684253879653E-07
0.3	0.25	1.68665012347968E-07
0.3	0.3	1.84662092513607E-07
0.3	0.35	2.01785336084655E-07
0.3	0.4	2.20152309974320E-07
0.3	0.45	2.39889931940862E-07
0.3	0.5	2.61138602398507E-07
0.3	0.55	2.84053065101039E-07
0.3	0.6	3.08807466919855E-07
0.3	0.65	3.35596082506207E-07
0.3	0.7	3.64639440969335E-07
0.3	0.75	3.96153806685985E-07
0.3	0.8	4.30518518772729E-07
0.3	0.85	4.67958607681900E-07
0.3	0.9	5.08871759922882E-07
0.3	0.95	5.53675356059546E-07
0.3	1.0	6.02851873165318E-07
0.3	1.05	6.56951577658628E-07
0.3	1.1	7.16610973032303E-07
0.3	1.15	7.82555470033986E-07
0.3	1.2	8.55623153714329E-07
0.4	0.0	-3.39410755944795E-17
0.4	0.05	2.71422988636305E-06
0.4	0.1	3.19579567672858E-06
0.4	0.15	3.49851439515651E-06
0.4	0.2	3.80163647629121E-06
0.4	0.25	4.11122801601951E-06
0.4	0.3	4.42928756582877E-06
0.4	0.35	4.75718330521157E-06
0.4	0.4	5.09599708850979E-06
0.4	0.45	5.44670516430340E-06
0.4	0.5	5.81016975848270E-06
0.4	0.55	6.18725237923015E-06
0.4	0.6	6.57876694946235E-06
0.4	0.65	6.98557795603371E-06
0.4	0.7	7.40852517839355E-06
0.4	0.75	7.84853709728325E-06
0.4	0.8	8.30653492664330E-06
0.4	0.85	8.78353857645877E-06
0.4	0.9	9.28060119620313E-06
0.4	0.95	9.79886709092650E-06
0.4	1.0	1.03395428544283E-05
0.4	1.05	1.09039736109321E-05
0.4	1.1	1.14935327775049E-05
0.4	1.15	1.21097841900656E-05
0.4	1.2	1.27543784677856E-05
0.5	0.0	-1.42430367335004E-17
0.5	0.05	2.59183458462709E-05
0.5	0.1	3.37936053253516E-05
0.5	0.15	3.65515719160004E-05
0.5	0.2	3.86721629175778E-05
0.5	0.25	4.06627469413278E-05
0.5	0.3	4.25820084263670E-05
0.5	0.35	4.44545074533663E-05
0.5	0.4	4.62948333245804E-05
0.5	0.45	4.81127879259531E-05
0.5	0.5	4.99157873243351E-05
0.5	0.55	5.17090253936004E-05
0.5	0.6	5.34968228312117E-05
0.5	0.65	5.52826840348313E-05
0.5	0.7	5.70694891160665E-05
0.5	0.75	5.88597426010115E-05
0.5	0.8	6.06559536766053E-05
0.5	0.85	6.24599041388887E-05
0.5	0.9	6.42738492911671E-05
0.5	0.95	6.60994843605726E-05
0.5	1.0	6.79387138748673E-05
0.5	1.05	6.97931965566237E-05
0.5	1.1	7.16649385194442E-05
0.5	1.15	7.35554364564490E-05
0.5	1.2	7.54666479199429E-05
0.6	0.0	-1.23939327169385E-18
0.6	0.05	6.89265718779706E-05
0.6	0.1	1.06756654729017E-04
0.6	0.15	1.23372660054516E-04
0.6	0.2	1.30676944157682E-04
0.6	0.25	1.35705910256458E-04
0.6	0.3	1.40118397600350E-04
0.6	0.35	1.44195625632514E-04
0.6	0.4	1.48043036952237E-04
0.6	0.45	1.51723510876472E-04
0.6	0.5	1.55275483564298E-04
0.6	0.55	1.58726894671535E-04
0.6	0.6	1.62096373590374E-04
0.6	0.65	1.65398219431577E-04
0.6	0.7	1.68644433845915E-04
0.6	0.75	1.71843543286008E-04
0.6	0.8	1.75003058540247E-04
0.6	0.85	1.78129838178495E-04
0.6	0.9	1.81229678424940E-04
0.6	0.95	1.84306795780799E-04
0.6	1.0	1.87366138462354E-04
0.6	1.05	1.90411411858077E-04
0.6	1.1	1.93446862000520E-04
0.6	1.15	1.96475175828706E-04
0.6	1.2	1.99499951140559E-04
0.7	0.0	2.43488738915763E-17
0.7	0.05	1.08476673468179E-04
0.7	0.1	1.84131036463296E-04
0.7	0.15	2.31228614904699E-04
0.7	0.2	2.56835633340741E-04
0.7	0.25	2.70015657574799E-04
0.7	0.3	2.78436918860537E-04
0.7	0.35	2.85305014569956E-04
0.7	0.4	2.91412935591930E-04
0.7	0.45	2.97032537918037E-04
0.7	0.5	3.02309392893115E-04
0.7	0.55	3.07332743599689E-04
0.7	0.6	3.12158905280761E-04
0.7	0.65	3.16825846751056E-04
0.7	0.7	3.21362460572715E-04
0.7	0.75	3.25789451280269E-04
0.7	0.8	3.30121770213295E-04
0.7	0.85	3.34375021231573E-04
0.7	0.9	3.38559925804526E-04
0.7	0.95	3.42684329963604E-04
0.7	1.0	3.46757724943284E-04
0.7	1.05	3.50787573798097E-04
0.7	1.1	3.54779747095547E-04
0.7	1.15	3.58739034950556E-04
0.7	1.2	3.62672006069041E-04
0.8	0.0	-9.03776724776593E-18
0.8	0.05	1.40101816373515E-04
0.8	0.1	2.48897947066104E-04
0.8	0.15	3.28411777579168E-04
0.8	0.2	3.82293690586580E-04
0.8	0.25	4.15660346497224E-04
0.8	0.3	4.35141589092179E-04
0.8	0.35	4.47495115053907E-04
0.8	0.4	4.56934040674998E-04
0.8	0.45	4.64994151699270E-04
0.8	0.5	4.72223920124817E-04
0.8	0.55	4.78903125598869E-04
0.8	0.6	4.85189439838572E-04
0.8	0.65	4.91181531077521E-04
0.8	0.7	4.96940055830556E-04
0.8	0.75	5.02509205725602E-04
0.8	0.8	5.07920871000590E-04
0.8	0.85	5.13197512411778E-04
0.8	0.9	5.18358973347271E-04
0.8	0.95	5.23423457931047E-04
0.8	1.0	5.28397561052952E-04
0.8	1.05	5.33300199706158E-04
0.8	1.1	5.38138227303562E-04
0.8	1.15	5.42916223115098E-04
0.8	1.2	5.47645297128270E-04
0.9	0.0	-2.70686295388857E-17
0.9	0.05	1.64791041958804E-04
0.9	0.1	3.00391241100669E-04
0.9	0.15	4.07954232762869E-04
0.9	0.2	4.89688150762582E-04
0.9	0.25	5.48524000913036E-04
0.9	0.3	5.88254013278405E-04
0.9	0.35	6.13753166133891E-04
0.9	0.4	6.30462923555807E-04
0.9	0.45	6.42732502323216E-04
0.9	0.5	6.52808564615145E-04
0.9	0.55	6.61612303096275E-04
0.9	0.6	6.69597833824663E-04
0.9	0.65	6.77029742399806E-04
0.9	0.7	6.84059562325942E-04
0.9	0.75	6.90782534674062E-04
0.9	0.8	6.97260700456561E-04
0.9	0.85	7.03531557280727E-04
0.9	0.9	7.09634657452704E-04
0.9	0.95	7.15591559268179E-04
0.9	1.0	7.21420019962508E-04
0.9	1.05	7.27142120019032E-04
0.9	1.1	7.32768649115987E-04
0.9	1.15	7.38312085112509E-04
0.9	1.2	7.43783137717760E-04
1.0	0.0	2.08672153257630E-18
1.0	0.05	1.84132185049850E-04
1.0	0.1	3.41037559774345E-04
1.0	0.15	4.71554912962457E-04
1.0	0.2	5.77313241733785E-04
1.0	0.25	6.60266617866150E-04
1.0	0.3	7.22739430733807E-04
1.0	0.35	7.67617476284172E-04
1.0	0.4	7.98532698979483E-04
1.0	0.45	8.19721798152400E-04
1.0	0.5	8.35134417200757E-04
1.0	0.55	8.47392402617092E-04
1.0	0.6	8.57832529860638E-04
1.0	0.65	8.67127027479515E-04
1.0	0.7	8.75662159947631E-04
1.0	0.75	8.83669743890352E-04
1.0	0.8	8.91286780555273E-04
1.0	0.85	8.98594346492032E-04
1.0	0.9	9.05655507824691E-04
1.0	0.95	9.12506991389998E-04
1.0	1.0	9.19184196494462E-04
1.0	1.05	9.25710484052362E-04
1.0	1.1	9.32107181754784E-04
1.0	1.15	9.38391590527112E-04
1.0	1.2	9.44574959484536E-04
1.1	0.0	4.97573116310852E-17
1.1	0.05	1.99482788239517E-04
1.1	0.1	3.73370863826069E-04
1.1	0.15	5.22415838915488E-04
1.1	0.2	6.48031984757162E-04
1.1	0.25	7.51770585560011E-04
1.1	0.3	8.35292755782292E-04
1.1	0.35	9.00459323401996E-04
1.1	0.4	9.49493849819273E-04
1.1	0.45	9.85137981878774E-04
1.1	0.5	1.01067559381324E-03
1.1	0.55	1.02944901557958E-03
1.1	0.6	1.04411498627456E-03
1.1	0.65	1.05632520245745E-03
1.1	0.7	1.06699017179190E-03
1.1	0.75	1.07665144125665E-03
1.1	0.8	1.08562552758173E-03
1.1	0.85	1.09411119103155E-03
1.1	0.9	1.10221519874037E-03
1.1	0.95	1.11002118796212E-03
1.1	1.0	1.11757733029746E-03
1.1	1.05	1.12492983765532E-03
1.1	1.1	1.13210672529083E-03
1.1	1.15	1.13913037811872E-03
1.1	1.2	1.14602354579806E-03
1.2	0.0	4.97098964560457E-18
1.2	0.05	2.11869329259384E-04
1.2	0.1	3.99445468550480E-04
1.2	0.15	5.63481201541642E-04
1.2	0.2	7.05331832819581E-04
1.2	0.25	8.26399063694125E-04
1.2	0.3	9.28068480989290E-04
1.2	0.35	1.01173304313377E-03
1.2	0.4	1.07889330140983E-03
1.2	0.45	1.13127894703681E-03
1.2	0.5	1.17100252473850E-03
1.2	0.55	1.20059891620388E-03
1.2	0.6	1.22280498999425E-03
1.2	0.65	1.24008640628005E-03
1.2	0.7	1.25424109756656E-03
1.2	0.75	1.26638853659739E-03
1.2	0.8	1.27723417975813E-03
1.2	0.85	1.28720667204003E-03
1.2	0.9	1.29656106884639E-03
1.2	0.95	1.30545702431550E-03
1.2	1.0	1.31399258859885E-03
1.2	1.05	1.32223559539768E-03
1.2	1.1	1.33023702800252E-03
1.2	1.15	1.33803507564350E-03
1.2	1.2	1.34566156839670E-03