vg	vd	ids
0.0	0.0	-1.29113483208747E-17
0.0	0.05	8.06124692306927E-14
0.0	0.1	9.40267489599319E-14
0.0	0.15	1.00418503370285E-13
0.0	0.2	1.06669898781359E-13
0.0	0.25	1.13242020047942E-13
0.0	0.3	1.20165611887012E-13
0.0	0.35	1.27498746358348E-13
0.0	0.4	1.35260380519275E-13
0.0	0.45	1.43437135557231E-13
0.0	0.5	1.52173262452907E-13
0.0	0.55	1.61381910928526E-13
0.0	0.6	1.71175820373933E-13
0.0	0.65	1.81528015446598E-13
0.0	0.7	1.92533398061384E-13
0.0	0.75	2.04238311735952E-13
0.0	0.8	2.16645872359612E-13
0.0	0.85	2.29838815796233E-13
0.0	0.9	2.43904037240803E-13
0.0	0.95	2.58791457013101E-13
0.0	1.0	2.74681965209469E-13
0.0	1.05	2.91529654449638E-13
0.0	1.1	3.09488393754784E-13
0.0	1.15	3.28625239802471E-13
0.0	1.2	3.48984837639122E-13
0.1	0.0	-3.94865225425259E-17
0.1	0.05	2.46725435198170E-12
0.1	0.1	2.88700554646725E-12
0.1	0.15	3.08824434648435E-12
0.1	0.2	3.28316286197354E-12
0.1	0.25	3.48743588472176E-12
0.1	0.3	3.70226440263030E-12
0.1	0.35	3.92841663209222E-12
0.1	0.4	4.16675971369874E-12
0.1	0.45	4.41789191829528E-12
0.1	0.5	4.68296721766354E-12
0.1	0.55	4.96253814932414E-12
0.1	0.6	5.25807519662652E-12
0.1	0.65	5.56992455979406E-12
0.1	0.7	5.89936638295007E-12
0.1	0.75	6.24768492419592E-12
0.1	0.8	6.61579070860199E-12
0.1	0.85	7.00495395506207E-12
0.1	0.9	7.41654505924152E-12
0.1	0.95	7.85176075806950E-12
0.1	1.0	8.31207596328055E-12
0.1	1.05	8.79913149859586E-12
0.1	1.1	9.31465922238026E-12
0.1	1.15	9.86016477407829E-12
0.1	1.2	1.04377756090397E-11
0.2	0.0	-4.35893938587016E-18
0.2	0.05	7.62906952487306E-11
0.2	0.1	8.96129982421642E-11
0.2	0.15	9.60341641083302E-11
0.2	0.2	1.02201132556730E-10
0.2	0.25	1.08627919903777E-10
0.2	0.3	1.15354457332228E-10
0.2	0.35	1.22403879680005E-10
0.2	0.4	1.29794222472564E-10
0.2	0.45	1.37563059044204E-10
0.2	0.5	1.45710370624726E-10
0.2	0.55	1.54292622119479E-10
0.2	0.6	1.63302026243097E-10
0.2	0.65	1.72789497900019E-10
0.2	0.7	1.82765999768555E-10
0.2	0.75	1.93261756290415E-10
0.2	0.8	2.04315617111513E-10
0.2	0.85	2.15948645494928E-10
0.2	0.9	2.28196427124156E-10
0.2	0.95	2.41092335248522E-10
0.2	1.0	2.54673031352202E-10
0.2	1.05	2.68974879621483E-10
0.2	1.1	2.84037855647019E-10
0.2	1.15	2.99903577558962E-10
0.2	1.2	3.16616115242281E-10
0.3	0.0	1.67244976076464E-18
0.3	0.05	2.35998711224786E-09
0.3	0.1	2.78546099591139E-09
0.3	0.15	2.99174250771104E-09
0.3	0.2	3.18766308254729E-09
0.3	0.25	3.39030856141498E-09
0.3	0.3	3.60111706549514E-09
0.3	0.35	3.82080157409802E-09
0.3	0.4	4.04971150002653E-09
0.3	0.45	4.28930871164430E-09
0.3	0.5	4.54014359300192E-09
0.3	0.55	4.80240337714513E-09
0.3	0.6	5.07704411235163E-09
0.3	0.65	5.36450660635022E-09
0.3	0.7	5.66580080531194E-09
0.3	0.75	5.98149838593997E-09
0.3	0.8	6.31234217471703E-09
0.3	0.85	6.65916873741342E-09
0.3	0.9	7.02273591377639E-09
0.3	0.95	7.40389093324639E-09
0.3	1.0	7.80349791978781E-09
0.3	1.05	8.22245919222491E-09
0.3	1.1	8.66171380133931E-09
0.3	1.15	9.12224284704111E-09
0.3	1.2	9.60507176550074E-09
0.4	0.0	4.30851988207439E-19
0.4	0.05	7.09179187514682E-08
0.4	0.1	8.43972122042951E-08
0.4	0.15	9.08947964812349E-08
0.4	0.2	9.69284996183067E-08
0.4	0.25	1.03084652759661E-07
0.4	0.3	1.09421062354488E-07
0.4	0.35	1.15956542303797E-07
0.4	0.4	1.22730981258261E-07
0.4	0.45	1.29767439113849E-07
0.4	0.5	1.37061692188895E-07
0.4	0.55	1.44645218116681E-07
0.4	0.6	1.52530193228394E-07
0.4	0.65	1.60734127113845E-07
0.4	0.7	1.69272698218388E-07
0.4	0.75	1.78162218277438E-07
0.4	0.8	1.87418008111742E-07
0.4	0.85	1.97056234547725E-07
0.4	0.9	2.07093029874264E-07
0.4	0.95	2.17544795434588E-07
0.4	1.0	2.28428223526794E-07
0.4	1.05	2.39760344538831E-07
0.4	1.1	2.51558501152365E-07
0.4	1.15	2.63840479594932E-07
0.4	1.2	2.76624449762931E-07
0.5	0.0	9.08651438797004E-18
0.5	0.05	1.55252685787038E-06
0.5	0.1	1.92056986160015E-06
0.5	0.15	2.07044367350476E-06
0.5	0.2	2.19330786182018E-06
0.5	0.25	2.31294889440626E-06
0.5	0.3	2.43218104891801E-06
0.5	0.35	2.55225422585586E-06
0.5	0.4	2.67343633377715E-06
0.5	0.45	2.79633325602918E-06
0.5	0.5	2.92119432437006E-06
0.5	0.55	3.04826051226620E-06
0.5	0.6	3.17773414481729E-06
0.5	0.65	3.30976882595667E-06
0.5	0.7	3.44449587015152E-06
0.5	0.75	3.58202777728083E-06
0.5	0.8	3.72246320472358E-06
0.5	0.85	3.86588484552227E-06
0.5	0.9	4.01237362467853E-06
0.5	0.95	4.16199603036330E-06
0.5	1.0	4.31481485765095E-06
0.5	1.05	4.47089087559117E-06
0.5	1.1	4.63027191637177E-06
0.5	1.15	4.79301043444211E-06
0.5	1.2	4.95915292954266E-06
0.6	0.0	1.39861041760967E-17
0.6	0.05	9.61012066122998E-06
0.6	0.1	1.40108040330762E-05
0.6	0.15	1.57358839376243E-05
0.6	0.2	1.65994673979532E-05
0.6	0.25	1.72657917249888E-05
0.6	0.3	1.78778036596874E-05
0.6	0.35	1.84642813242582E-05
0.6	0.4	1.90346873094605E-05
0.6	0.45	1.95948922501794E-05
0.6	0.5	2.01484574620244E-05
0.6	0.55	2.06978302161181E-05
0.6	0.6	2.12447689986900E-05
0.6	0.65	2.17904625443062E-05
0.6	0.7	2.23359276401544E-05
0.6	0.75	2.28818017191002E-05
0.6	0.8	2.34287287001434E-05
0.6	0.85	2.39771203579115E-05
0.6	0.9	2.45273360432122E-05
0.6	0.95	2.50797218931968E-05
0.6	1.0	2.56344649011749E-05
0.6	1.05	2.61918065417142E-05
0.6	1.1	2.67519116530375E-05
0.6	1.15	2.73149035056611E-05
0.6	1.2	2.78809184805207E-05
0.7	0.0	-2.75396972633349E-17
0.7	0.05	2.15699858880141E-05
0.7	0.1	3.59188875181233E-05
0.7	0.15	4.43923198017477E-05
0.7	0.2	4.88848823231944E-05
0.7	0.25	5.13347537232679E-05
0.7	0.3	5.30132125084734E-05
0.7	0.35	5.44282846262917E-05
0.7	0.4	5.57247434282487E-05
0.7	0.45	5.69503253003121E-05
0.7	0.5	5.81285019165996E-05
0.7	0.55	5.92736108434826E-05
0.7	0.6	6.03942841002739E-05
0.7	0.65	6.14966491302464E-05
0.7	0.7	6.25845878176939E-05
0.7	0.75	6.36612539756315E-05
0.7	0.8	6.47287516780184E-05
0.7	0.85	6.57888624307364E-05
0.7	0.9	6.68429574936355E-05
0.7	0.95	6.78921382549595E-05
0.7	1.0	6.89372116874693E-05
0.7	1.05	6.99790746081934E-05
0.7	1.1	7.10182273757616E-05
0.7	1.15	7.20551615094984E-05
0.7	1.2	7.30904775513741E-05
0.8	0.0	-3.19497310114820E-17
0.8	0.05	3.35701305862111E-05
0.8	0.1	5.93455836516490E-05
0.8	0.15	7.79938222764869E-05
0.8	0.2	9.05612461572611E-05
0.8	0.25	9.84453896647819E-05
0.8	0.3	1.03261576304054E-04
0.8	0.35	1.06462634242341E-04
0.8	0.4	1.08953243978895E-04
0.8	0.45	1.11119027248485E-04
0.8	0.5	1.13102695253925E-04
0.8	0.55	1.14970991838605E-04
0.8	0.6	1.16760520939044E-04
0.8	0.65	1.18493251639036E-04
0.8	0.7	1.20183004957838E-04
0.8	0.75	1.21838882558999E-04
0.8	0.8	1.23466997185519E-04
0.8	0.85	1.25072297168013E-04
0.8	0.9	1.26657963681687E-04
0.8	0.95	1.28226974253918E-04
0.8	1.0	1.29781385474219E-04
0.8	1.05	1.31323021757223E-04
0.8	1.1	1.32853198940060E-04
0.8	1.15	1.34373392242326E-04
0.8	1.2	1.35884507165349E-04
0.9	0.0	-3.20858838435429E-18
0.9	0.05	4.47770448426205E-05
0.9	0.1	8.16255016718374E-05
0.9	0.15	1.10908249045398E-04
0.9	0.2	1.33252464071384E-04
0.9	0.25	1.49508548957153E-04
0.9	0.3	1.60761459512078E-04
0.9	0.35	1.68300983144734E-04
0.9	0.4	1.73459971504073E-04
0.9	0.45	1.77318860752204E-04
0.9	0.5	1.80516411358259E-04
0.9	0.55	1.83348657350739E-04
0.9	0.6	1.85955908119210E-04
0.9	0.65	1.88416035026312E-04
0.9	0.7	1.90773892883905E-04
0.9	0.75	1.93056111180952E-04
0.9	0.8	1.95279154859215E-04
0.9	0.85	1.97454524912107E-04
0.9	0.9	1.99590013534680E-04
0.9	0.95	2.01691708262942E-04
0.9	1.0	2.03763728302790E-04
0.9	1.05	2.05809980929878E-04
0.9	1.1	2.07833295846054E-04
0.9	1.15	2.09836040840148E-04
0.9	1.2	2.11819884001568E-04
1.0	0.0	-1.93585674988535E-17
1.0	0.05	5.50192274320888E-05
1.0	0.1	1.02163921785972E-04
1.0	0.15	1.41624382218079E-04
1.0	0.2	1.73810766035487E-04
1.0	0.25	1.99284006166048E-04
1.0	0.3	2.18756995180610E-04
1.0	0.35	2.33109483930819E-04
1.0	0.4	2.43386006770920E-04
1.0	0.45	2.50729210548997E-04
1.0	0.5	2.56206662075161E-04
1.0	0.55	2.60606062560647E-04
1.0	0.6	2.64385859579978E-04
1.0	0.65	2.67786156731612E-04
1.0	0.7	2.70942029249295E-04
1.0	0.75	2.73933445741423E-04
1.0	0.8	2.76806773303270E-04
1.0	0.85	2.79590573979643E-04
1.0	0.9	2.82302598281488E-04
1.0	0.95	2.84955115749421E-04
1.0	1.0	2.87557426761140E-04
1.0	1.05	2.90115776198994E-04
1.0	1.1	2.92636137889936E-04
1.0	1.15	2.95122452863623E-04
1.0	1.2	2.97577608179585E-04
1.1	0.0	-1.94833526646919E-18
1.1	0.05	6.42847074639288E-05
1.1	0.1	1.20846678274980E-04
1.1	0.15	1.69765533290085E-04
1.1	0.2	2.11320702844629E-04
1.1	0.25	2.45906689333363E-04
1.1	0.3	2.74021594823651E-04
1.1	0.35	2.96274686850479E-04
1.1	0.4	3.13400044494775E-04
1.1	0.45	3.26262390057301E-04
1.1	0.5	3.35829135892141E-04
1.1	0.55	3.43074624966093E-04
1.1	0.6	3.48825520646716E-04
1.1	0.65	3.53655758541189E-04
1.1	0.7	3.57911776403162E-04
1.1	0.75	3.61797205999414E-04
1.1	0.8	3.65435785470276E-04
1.1	0.85	3.68902286930685E-04
1.1	0.9	3.72241165741467E-04
1.1	0.95	3.75479572463983E-04
1.1	1.0	3.78636515137366E-04
1.1	1.05	3.81724478850428E-04
1.1	1.1	3.84753229292874E-04
1.1	1.15	3.87729948902690E-04
1.1	1.2	3.90660281626424E-04
1.2	0.0	-1.15755976913116E-17
1.2	0.05	7.26207971290226E-05
1.2	0.1	1.37721512810790E-04
1.2	0.15	1.95307834213913E-04
1.2	0.2	2.45574363588396E-04
1.2	0.25	2.88810582124950E-04
1.2	0.3	3.25382268790960E-04
1.2	0.35	3.55731413088998E-04
1.2	0.4	3.80385098333696E-04
1.2	0.45	3.99967240063602E-04
1.2	0.5	4.15206634271435E-04
1.2	0.55	4.26926045492773E-04
1.2	0.6	4.35988238356721E-04
1.2	0.65	4.43192060159962E-04
1.2	0.7	4.49166841191731E-04
1.2	0.75	4.54343888531638E-04
1.2	0.8	4.58999578787230E-04
1.2	0.85	4.63307279793957E-04
1.2	0.9	4.67374881207368E-04
1.2	0.95	4.71268158537680E-04
1.2	1.0	4.75027435179480E-04
1.2	1.05	4.78678200838862E-04
1.2	1.1	4.82239605923145E-04
1.2	1.15	4.85723999480282E-04
1.2	1.2	4.89141590597852E-04