vg	vd	ids
0.0	0.0	-4.31504517864759E-19
0.0	0.05	2.57896668205521E-12
0.0	0.1	3.29903597165105E-12
0.0	0.15	4.01976803861422E-12
0.0	0.2	4.91254705958479E-12
0.0	0.25	6.03052203657517E-12
0.0	0.3	7.44159174123070E-12
0.0	0.35	9.23690086900624E-12
0.0	0.4	1.15384674257557E-11
0.0	0.45	1.45111846639274E-11
0.0	0.5	1.83780942351191E-11
0.0	0.55	2.34412340006435E-11
0.0	0.6	3.01090941505445E-11
0.0	0.65	3.89358631349552E-11
0.0	0.7	5.06703520960230E-11
0.0	0.75	6.63044585614898E-11
0.0	0.8	8.72160633853083E-11
0.0	0.85	1.15295496212622E-10
0.0	0.9	1.53064076132970E-10
0.0	0.95	2.03954422428095E-10
0.0	1.0	2.72624609314130E-10
0.0	1.05	3.65283788584796E-10
0.0	1.1	4.90346381076754E-10
0.0	1.15	6.59041510420346E-10
0.0	1.2	8.86427345446169E-10
0.1	0.0	-7.17450836270916E-18
0.1	0.05	5.40186075018991E-11
0.1	0.1	6.76694623181487E-11
0.1	0.15	8.00161070137536E-11
0.1	0.2	9.44899114096061E-11
0.1	0.25	1.11621262580127E-10
0.1	0.3	1.31997113461771E-10
0.1	0.35	1.56357051051858E-10
0.1	0.4	1.85637955108690E-10
0.1	0.45	2.21034431695588E-10
0.1	0.5	2.64069240525263E-10
0.1	0.55	3.16695284105961E-10
0.1	0.6	3.81435389115832E-10
0.1	0.65	4.61501698404673E-10
0.1	0.7	5.61249254390364E-10
0.1	0.75	6.85986549451099E-10
0.1	0.8	8.42796813087751E-10
0.1	0.85	1.04081963090623E-09
0.1	0.9	1.29203103809063E-09
0.1	0.95	1.61214641997637E-09
0.1	1.0	2.02158623743367E-09
0.1	1.05	2.54499721819456E-09
0.1	1.1	3.21634675125874E-09
0.1	1.15	4.07869003906537E-09
0.1	1.2	5.18866381289586E-09
0.2	0.0	-7.81120066054114E-18
0.2	0.05	1.22613915026909E-09
0.2	0.1	1.52388777829010E-09
0.2	0.15	1.77440612975617E-09
0.2	0.2	2.05715566487465E-09
0.2	0.25	2.37947079903293E-09
0.2	0.3	2.74773664495640E-09
0.2	0.35	3.16954970399252E-09
0.2	0.4	3.65396034004762E-09
0.2	0.45	4.21187536373669E-09
0.2	0.5	4.85634080687598E-09
0.2	0.55	5.60330802996995E-09
0.2	0.6	6.47215292354972E-09
0.2	0.65	7.48592852294221E-09
0.2	0.7	8.66238103065886E-09
0.2	0.75	1.00714347533666E-08
0.2	0.8	1.17213686664931E-08
0.2	0.85	1.36770409556730E-08
0.2	0.9	1.60059913151660E-08
0.2	0.95	1.87794571805027E-08
0.2	1.0	2.21181519899795E-08
0.2	1.05	2.61275954017152E-08
0.2	1.1	3.09893885274528E-08
0.2	1.15	3.68643155834110E-08
0.2	1.2	4.39983157912498E-08
0.3	0.0	3.92265906216733E-18
0.3	0.05	2.85561872585578E-08
0.3	0.1	3.54881393194903E-08
0.3	0.15	4.09899038227769E-08
0.3	0.2	4.70081812347226E-08
0.3	0.25	5.36753662180739E-08
0.3	0.3	6.10711501416050E-08
0.3	0.35	6.92837760965703E-08
0.3	0.4	7.84115486853229E-08
0.3	0.45	8.85677458150491E-08
0.3	0.5	9.98784908673648E-08
0.3	0.55	1.12494493373986E-07
0.3	0.6	1.26432984537804E-07
0.3	0.65	1.42314648577652E-07
0.3	0.7	1.59932881587059E-07
0.3	0.75	1.79685627445695E-07
0.3	0.8	2.01864016693792E-07
0.3	0.85	2.26765937926237E-07
0.3	0.9	2.54818593363073E-07
0.3	0.95	2.86572314601977E-07
0.3	1.0	3.22544006344970E-07
0.3	1.05	3.63212921149937E-07
0.3	1.1	4.09378811003814E-07
0.3	1.15	4.61900699287161E-07
0.3	1.2	5.21742140089115E-07
0.4	0.0	5.55408579152574E-18
0.4	0.05	6.18331086323872E-07
0.4	0.1	7.74588059887801E-07
0.4	0.15	8.86942704165490E-07
0.4	0.2	1.00395320285340E-06
0.4	0.25	1.12870311947309E-06
0.4	0.3	1.26201512802686E-06
0.4	0.35	1.40460311062067E-06
0.4	0.4	1.55716560810784E-06
0.4	0.45	1.72042470805049E-06
0.4	0.5	1.89509278831900E-06
0.4	0.55	2.08192808643167E-06
0.4	0.6	2.28025166940932E-06
0.4	0.65	2.49455139258035E-06
0.4	0.7	2.72378140006143E-06
0.4	0.75	2.96789455898641E-06
0.4	0.8	3.22865393454508E-06
0.4	0.85	3.50745269767239E-06
0.4	0.9	3.80535158008401E-06
0.4	0.95	4.12387135763354E-06
0.4	1.0	4.46413815795895E-06
0.4	1.05	4.82785266577027E-06
0.4	1.1	5.21671090767521E-06
0.4	1.15	5.63255531155026E-06
0.4	1.2	6.07738815785909E-06
0.5	0.0	3.10507437071129E-18
0.5	0.05	7.26272247338791E-06
0.5	0.1	9.60700959646052E-06
0.5	0.15	1.07840251004614E-05
0.5	0.2	1.18105021502816E-05
0.5	0.25	1.28181436076762E-05
0.5	0.3	1.38248162440597E-05
0.5	0.35	1.48371359716547E-05
0.5	0.4	1.58590303297811E-05
0.5	0.45	1.68932384313514E-05
0.5	0.5	1.79375345587169E-05
0.5	0.55	1.90067154780275E-05
0.5	0.6	2.00875106510966E-05
0.5	0.65	2.11896679065519E-05
0.5	0.7	2.23123229152530E-05
0.5	0.75	2.34552510960782E-05
0.5	0.8	2.46210792980354E-05
0.5	0.85	2.58107814521150E-05
0.5	0.9	2.70253023206639E-05
0.5	0.95	2.82664290691977E-05
0.5	1.0	2.95352217984615E-05
0.5	1.05	3.08331041235137E-05
0.5	1.1	3.21617367483615E-05
0.5	1.15	3.35226182002233E-05
0.5	1.2	3.49175835267905E-05
0.6	0.0	1.40360926810067E-18
0.6	0.05	2.54278983657981E-05
0.6	0.1	3.88524068605750E-05
0.6	0.15	4.51957914151137E-05
0.6	0.2	4.88377507637181E-05
0.6	0.25	5.17655159226209E-05
0.6	0.3	5.44614951380336E-05
0.6	0.35	5.70318000894431E-05
0.6	0.4	5.95127612437608E-05
0.6	0.45	6.19396776370232E-05
0.6	0.5	6.43138326558814E-05
0.6	0.55	6.66570506967393E-05
0.6	0.6	6.89746762821151E-05
0.6	0.65	7.12738058274936E-05
0.6	0.7	7.35608673566906E-05
0.6	0.75	7.58383361851379E-05
0.6	0.8	7.81118225746425E-05
0.6	0.85	8.03849214605853E-05
0.6	0.9	8.26605972717359E-05
0.6	0.95	8.49419983506766E-05
0.6	1.0	8.72320150054843E-05
0.6	1.05	8.95330330938666E-05
0.6	1.1	9.18480542355481E-05
0.6	1.15	9.41793759296003E-05
0.6	1.2	9.65296378419014E-05
0.7	0.0	1.07399522235021E-17
0.7	0.05	4.62960469917833E-05
0.7	0.1	7.77814143211112E-05
0.7	0.15	9.72207040045875E-05
0.7	0.2	1.08425605755637E-04
0.7	0.25	1.15325473682108E-04
0.7	0.3	1.20537880658605E-04
0.7	0.35	1.25085010823829E-04
0.7	0.4	1.29282978873019E-04
0.7	0.45	1.33237170415284E-04
0.7	0.5	1.37015549246245E-04
0.7	0.55	1.40659505506155E-04
0.7	0.6	1.44198287035555E-04
0.7	0.65	1.47654240326478E-04
0.7	0.7	1.51043207982764E-04
0.7	0.75	1.54378120876081E-04
0.7	0.8	1.57669135290709E-04
0.7	0.85	1.60924268066736E-04
0.7	0.9	1.64150609673993E-04
0.7	0.95	1.67354377422907E-04
0.7	1.0	1.70541731791545E-04
0.7	1.05	1.73716972669943E-04
0.7	1.1	1.76884624527328E-04
0.7	1.15	1.80049111963730E-04
0.7	1.2	1.83214672726716E-04
0.8	0.0	8.36076694343083E-18
0.8	0.05	6.57394793279782E-05
0.8	0.1	1.15815069084747E-04
0.8	0.15	1.51852600924948E-04
0.8	0.2	1.76261555610221E-04
0.8	0.25	1.92043120595317E-04
0.8	0.3	2.02448049920278E-04
0.8	0.35	2.10148536150858E-04
0.8	0.4	2.16604200498923E-04
0.8	0.45	2.22388545975013E-04
0.8	0.5	2.27730560355804E-04
0.8	0.55	2.32754075032350E-04
0.8	0.6	2.37538770905803E-04
0.8	0.65	2.42140714895743E-04
0.8	0.7	2.46596276856027E-04
0.8	0.75	2.50934049911764E-04
0.8	0.8	2.55177609387228E-04
0.8	0.85	2.59340392978425E-04
0.8	0.9	2.63437737316114E-04
0.8	0.95	2.67480250531683E-04
0.8	1.0	2.71476830752020E-04
0.8	1.05	2.75435851461566E-04
0.8	1.1	2.79364957783574E-04
0.8	1.15	2.83269825751955E-04
0.8	1.2	2.87156264443000E-04
0.9	0.0	-2.81932752286852E-17
0.9	0.05	8.31215747057607E-05
0.9	0.1	1.50423799545894E-04
0.9	0.15	2.02950486132870E-04
0.9	0.2	2.42356719271063E-04
0.9	0.25	2.70704629226780E-04
0.9	0.3	2.90430400959969E-04
0.9	0.35	3.04203429582646E-04
0.9	0.4	3.14461530174436E-04
0.9	0.45	3.22853614360058E-04
0.9	0.5	3.30200295787663E-04
0.9	0.55	3.36866964098917E-04
0.9	0.6	3.43051217397107E-04
0.9	0.65	3.48879425521249E-04
0.9	0.7	3.54439308286071E-04
0.9	0.75	3.59788203819357E-04
0.9	0.8	3.64971155576038E-04
0.9	0.85	3.70017238528085E-04
0.9	0.9	3.74950624345252E-04
0.9	0.95	3.79790133958454E-04
0.9	1.0	3.84550045034693E-04
0.9	1.05	3.89244032214845E-04
0.9	1.1	3.93882673530711E-04
0.9	1.15	3.98474620793913E-04
0.9	1.2	4.03027883800025E-04
1.0	0.0	1.24234081484491E-17
1.0	0.05	9.84739047557535E-05
1.0	0.1	1.81289849794129E-04
1.0	0.15	2.49141782646150E-04
1.0	0.2	3.03258201892618E-04
1.0	0.25	3.45155645199840E-04
1.0	0.3	3.76606092657144E-04
1.0	0.35	3.99637339157495E-04
1.0	0.4	4.16463501707167E-04
1.0	0.45	4.29218263901674E-04
1.0	0.5	4.39547701969259E-04
1.0	0.55	4.48435807058853E-04
1.0	0.6	4.56389764965589E-04
1.0	0.65	4.63681981541210E-04
1.0	0.7	4.70487750340624E-04
1.0	0.75	4.76933199241274E-04
1.0	0.8	4.83100704378204E-04
1.0	0.85	4.89052411181983E-04
1.0	0.9	4.94826531848340E-04
1.0	0.95	5.00457700416186E-04
1.0	1.0	5.05967686640366E-04
1.0	1.05	5.11376374544265E-04
1.0	1.1	5.16701853135330E-04
1.0	1.15	5.21953833409916E-04
1.0	1.2	5.27145513278170E-04
1.1	0.0	-1.63567227060109E-17
1.1	0.05	1.11973670235283E-04
1.1	0.1	2.08607886748317E-04
1.1	0.15	2.90369267485333E-04
1.1	0.2	3.58217845434891E-04
1.1	0.25	4.13337785803472E-04
1.1	0.3	4.57086685278031E-04
1.1	0.35	4.90995288926673E-04
1.1	0.4	5.16779866958650E-04
1.1	0.45	5.36301631419876E-04
1.1	0.5	5.51403823918248E-04
1.1	0.55	5.63634405216009E-04
1.1	0.6	5.74046395986347E-04
1.1	0.65	5.83258747348923E-04
1.1	0.7	5.91624835678399E-04
1.1	0.75	5.99371998492823E-04
1.1	0.8	6.06655387144755E-04
1.1	0.85	6.13593003703836E-04
1.1	0.9	6.20259225075209E-04
1.1	0.95	6.26711604859581E-04
1.1	1.0	6.32987102295927E-04
1.1	1.05	6.39118085979428E-04
1.1	1.1	6.45128442003525E-04
1.1	1.15	6.51034332101640E-04
1.1	1.2	6.56855495752194E-04
1.2	0.0	2.03544462077880E-17
1.2	0.05	1.23832287714460E-04
1.2	0.1	2.32715280043479E-04
1.2	0.15	3.26964396154698E-04
1.2	0.2	4.07361942873425E-04
1.2	0.25	4.74875693832848E-04
1.2	0.3	5.30597093397308E-04
1.2	0.35	5.75729411522061E-04
1.2	0.4	6.11604634208385E-04
1.2	0.45	6.39690618992783E-04
1.2	0.5	6.61568521162077E-04
1.2	0.55	6.78831384412546E-04
1.2	0.6	6.92890810526830E-04
1.2	0.65	7.04801010624999E-04
1.2	0.7	7.15252281327142E-04
1.2	0.75	7.24669985781893E-04
1.2	0.8	7.33332343753910E-04
1.2	0.85	7.41431499195035E-04
1.2	0.9	7.49106033521871E-04
1.2	0.95	7.56456235883627E-04
1.2	1.0	7.63548386612114E-04
1.2	1.05	7.70436190752810E-04
1.2	1.1	7.77151927541990E-04
1.2	1.15	7.83726937500172E-04
1.2	1.2	7.90182165327801E-04