vg	vd	ids
0.0	0.0	7.00188281438667E-17
0.0	0.05	1.65025238652932E-13
0.0	0.1	1.92332912740352E-13
0.0	0.15	2.05672645877170E-13
0.0	0.2	2.18962131025943E-13
0.0	0.25	2.32909979175962E-13
0.0	0.3	2.47697599257889E-13
0.0	0.35	2.63705977824285E-13
0.0	0.4	2.80138024203427E-13
0.0	0.45	2.97858702080536E-13
0.0	0.5	3.16805495518643E-13
0.0	0.55	3.36859493459933E-13
0.0	0.6	3.58182445338217E-13
0.0	0.65	3.80922638717066E-13
0.0	0.7	4.05137477289630E-13
0.0	0.75	4.31013717706676E-13
0.0	0.8	4.58628804149010E-13
0.0	0.85	4.87856714456654E-13
0.0	0.9	5.19361248292906E-13
0.0	0.95	5.52575265301391E-13
0.0	1.0	5.88224477177377E-13
0.0	1.05	6.26560017141770E-13
0.0	1.1	6.67617557216141E-13
0.0	1.15	7.11736420186252E-13
0.0	1.2	7.58191548550413E-13
0.1	0.0	1.79792555857828E-17
0.1	0.05	5.31065337207013E-12
0.1	0.1	6.20479059998552E-12
0.1	0.15	6.63788218934932E-12
0.1	0.2	7.06220248187613E-12
0.1	0.25	7.50847720138640E-12
0.1	0.3	7.97899722589599E-12
0.1	0.35	8.47293640782950E-12
0.1	0.4	8.99506867501403E-12
0.1	0.45	9.55102534950412E-12
0.1	0.5	1.01351190711886E-11
0.1	0.55	1.07524837632433E-11
0.1	0.6	1.14061902832402E-11
0.1	0.65	1.21005425960021E-11
0.1	0.7	1.28338236217442E-11
0.1	0.75	1.36072806429627E-11
0.1	0.8	1.44277149655233E-11
0.1	0.85	1.52969427965118E-11
0.1	0.9	1.62169262029293E-11
0.1	0.95	1.71917317305912E-11
0.1	1.0	1.82249959516487E-11
0.1	1.05	1.93199009069486E-11
0.1	1.1	2.04815199591751E-11
0.1	1.15	2.17144946695627E-11
0.1	1.2	2.30233084561845E-11
0.2	0.0	-9.30098422844788E-17
0.2	0.05	1.72777366826364E-10
0.2	0.1	2.02418881077055E-10
0.2	0.15	2.16682269382158E-10
0.2	0.2	2.30497700857428E-10
0.2	0.25	2.44941984744116E-10
0.2	0.3	2.60090702885990E-10
0.2	0.35	2.75991527955793E-10
0.2	0.4	2.92520339255256E-10
0.2	0.45	3.10111508056846E-10
0.2	0.5	3.28645092706076E-10
0.2	0.55	3.48080289539347E-10
0.2	0.6	3.68488090687177E-10
0.2	0.65	3.89957646039098E-10
0.2	0.7	4.12568012369835E-10
0.2	0.75	4.36374988286636E-10
0.2	0.8	4.61431956539443E-10
0.2	0.85	4.87806904584801E-10
0.2	0.9	5.15575567702791E-10
0.2	0.95	5.44821741439233E-10
0.2	1.0	5.75628157615131E-10
0.2	1.05	6.08082931440034E-10
0.2	1.1	6.42280230026699E-10
0.2	1.15	6.78320446908252E-10
0.2	1.2	7.16310713958581E-10
0.3	0.0	-1.23336394243933E-16
0.3	0.05	5.62751636582737E-09
0.3	0.1	6.61783156646961E-09
0.3	0.15	7.09150154594478E-09
0.3	0.2	7.54406088786952E-09
0.3	0.25	8.01339833075175E-09
0.3	0.3	8.50288285153228E-09
0.3	0.35	9.01350788866520E-09
0.3	0.4	9.54216640769320E-09
0.3	0.45	1.01014608212606E-08
0.3	0.5	1.06859907012146E-08
0.3	0.55	1.12970263250429E-08
0.3	0.6	1.19361914990817E-08
0.3	0.65	1.26050620392643E-08
0.3	0.7	1.33052196826508E-08
0.3	0.75	1.40382905575346E-08
0.3	0.8	1.48059252945176E-08
0.3	0.85	1.56098476519433E-08
0.3	0.9	1.64518259494251E-08
0.3	0.95	1.73337046509341E-08
0.3	1.0	1.82573999527146E-08
0.3	1.05	1.92249283895653E-08
0.3	1.1	2.02384006115812E-08
0.3	1.15	2.13000296627245E-08
0.3	1.2	2.24121483897066E-08
0.4	0.0	1.36671925997058E-16
0.4	0.05	1.75472104114752E-07
0.4	0.1	2.08157458327673E-07
0.4	0.15	2.23328186455927E-07
0.4	0.2	2.37369593820703E-07
0.4	0.25	2.51685759555368E-07
0.4	0.3	2.66417403457800E-07
0.4	0.35	2.81675913330046E-07
0.4	0.4	2.97523251910003E-07
0.4	0.45	3.13900737768590E-07
0.4	0.5	3.30874020567359E-07
0.4	0.55	3.48483793830323E-07
0.4	0.6	3.66760852105212E-07
0.4	0.65	3.85734440311047E-07
0.4	0.7	4.05433645090496E-07
0.4	0.75	4.25887348362010E-07
0.4	0.8	4.47124509329550E-07
0.4	0.85	4.69174359413812E-07
0.4	0.9	4.92066253353501E-07
0.4	0.95	5.15830302467858E-07
0.4	1.0	5.40496734793893E-07
0.4	1.05	5.66096634135539E-07
0.4	1.1	5.92661694613202E-07
0.4	1.15	6.20224097736794E-07
0.4	1.2	6.48817126417053E-07
0.5	0.0	4.50822984007224E-17
0.5	0.05	3.33524237297223E-06
0.5	0.1	4.20220921578631E-06
0.5	0.15	4.51620761740855E-06
0.5	0.2	4.75287940677304E-06
0.5	0.25	4.97928752967081E-06
0.5	0.3	5.20431475234373E-06
0.5	0.35	5.42968151321537E-06
0.5	0.4	5.65662835003942E-06
0.5	0.45	5.88587592601958E-06
0.5	0.5	6.11791236505952E-06
0.5	0.55	6.35307483989626E-06
0.5	0.6	6.59160463521789E-06
0.5	0.65	6.83369730890522E-06
0.5	0.7	7.07949732845910E-06
0.5	0.75	7.32914111123062E-06
0.5	0.8	7.58271767685844E-06
0.5	0.85	7.84033352405397E-06
0.5	0.9	8.10204954406299E-06
0.5	0.95	8.36794374484226E-06
0.5	1.0	8.63807623412847E-06
0.5	1.05	8.91249313944526E-06
0.5	1.1	9.19125647742821E-06
0.5	1.15	9.47439998995082E-06
0.5	1.2	9.76196884382959E-06
0.6	0.0	-2.61525583219576E-17
0.6	0.05	1.55151828911097E-05
0.6	0.1	2.34464432426846E-05
0.6	0.15	2.67935751354696E-05
0.6	0.2	2.83126901779429E-05
0.6	0.25	2.93508433902927E-05
0.6	0.3	3.02677979398850E-05
0.6	0.35	3.11380536205922E-05
0.6	0.4	3.19838707437905E-05
0.6	0.45	3.28149548390334E-05
0.6	0.5	3.36365579695134E-05
0.6	0.55	3.44516719131612E-05
0.6	0.6	3.52624333297837E-05
0.6	0.65	3.60702236983798E-05
0.6	0.7	3.68762063639772E-05
0.6	0.75	3.76811269853752E-05
0.6	0.8	3.84857260917953E-05
0.6	0.85	3.92904553793231E-05
0.6	0.9	4.00957809256536E-05
0.6	0.95	4.09020478951869E-05
0.6	1.0	4.17095587698377E-05
0.6	1.05	4.25185459321751E-05
0.6	1.1	4.33292980727503E-05
0.6	1.15	4.41419019940514E-05
0.6	1.2	4.49565995654510E-05
0.7	0.0	-2.98827213285110E-17
0.7	0.05	3.10199663795327E-05
0.7	0.1	5.25006668155261E-05
0.7	0.15	6.58823121085136E-05
0.7	0.2	7.33198024619644E-05
0.7	0.25	7.72925172861065E-05
0.7	0.3	7.97786436108576E-05
0.7	0.35	8.17452213455668E-05
0.7	0.4	8.35097717487216E-05
0.7	0.45	8.51753883099361E-05
0.7	0.5	8.67820335691740E-05
0.7	0.55	8.83482806792120E-05
0.7	0.6	8.98840077356072E-05
0.7	0.65	9.13959435569674E-05
0.7	0.7	9.28883813554815E-05
0.7	0.75	9.43643724134891E-05
0.7	0.8	9.58266417947517E-05
0.7	0.85	9.72767660447495E-05
0.7	0.9	9.87165851116971E-05
0.7	0.95	1.00147195252125E-04
0.7	1.0	1.01569645363661E-04
0.7	1.05	1.02984973974366E-04
0.7	1.1	1.04393875357618E-04
0.7	1.15	1.05796792615172E-04
0.7	1.2	1.07194729866825E-04
0.8	0.0	9.39864852403854E-17
0.8	0.05	4.59654570995312E-05
0.8	0.1	8.19200112503668E-05
0.8	0.15	1.08548817813771E-04
0.8	0.2	1.27009729818276E-04
0.8	0.25	1.38895243505153E-04
0.8	0.3	1.46167012392514E-04
0.8	0.35	1.50788215606748E-04
0.8	0.4	1.54170907212330E-04
0.8	0.45	1.57017145636401E-04
0.8	0.5	1.59609410228242E-04
0.8	0.55	1.62060850624052E-04
0.8	0.6	1.64420356918428E-04
0.8	0.65	1.66712740367910E-04
0.8	0.7	1.68952008832439E-04
0.8	0.75	1.71147984250278E-04
0.8	0.8	1.73307185671132E-04
0.8	0.85	1.75434783197913E-04
0.8	0.9	1.77534760040810E-04
0.8	0.95	1.79609741645911E-04
0.8	1.0	1.81662611976514E-04
0.8	1.05	1.83695346272913E-04
0.8	1.1	1.85709662032267E-04
0.8	1.15	1.87707293302540E-04
0.8	1.2	1.89689304604388E-04
0.9	0.0	-6.92510465266000E-17
0.9	0.05	5.95268452020334E-05
0.9	0.1	1.09091062350093E-04
0.9	0.15	1.49007732442330E-04
0.9	0.2	1.79936134073536E-04
0.9	0.25	2.02812243985666E-04
0.9	0.3	2.18877884497915E-04
0.9	0.35	2.29674434661128E-04
0.9	0.4	2.36903202488774E-04
0.9	0.45	2.42079653321180E-04
0.9	0.5	2.46217080544645E-04
0.9	0.55	2.49842764690088E-04
0.9	0.6	2.53192600509612E-04
0.9	0.65	2.56372269730050E-04
0.9	0.7	2.59431793561153E-04
0.9	0.75	2.62399867767863E-04
0.9	0.8	2.65293842240733E-04
0.9	0.85	2.68125770922751E-04
0.9	0.9	2.70904181818477E-04
0.9	0.95	2.73636234393269E-04
0.9	1.0	2.76326379490999E-04
0.9	1.05	2.78979536240564E-04
0.9	1.1	2.81598433299423E-04
0.9	1.15	2.84186789260694E-04
0.9	1.2	2.86746563516773E-04
1.0	0.0	-6.12621404474054E-17
1.0	0.05	7.15531244025399E-05
1.0	0.1	1.33420546390260E-04
1.0	0.15	1.85708658538279E-04
1.0	0.2	2.28807366438433E-04
1.0	0.25	2.63294369143681E-04
1.0	0.3	2.89943923946675E-04
1.0	0.35	3.09751658321774E-04
1.0	0.4	3.23951692560425E-04
1.0	0.45	3.33966219624301E-04
1.0	0.5	3.41218526621793E-04
1.0	0.55	3.46862331963188E-04
1.0	0.6	3.51642421517885E-04
1.0	0.65	3.55954058167887E-04
1.0	0.7	3.59982937303447E-04
1.0	0.75	3.63820751775305E-04
1.0	0.8	3.67516110237414E-04
1.0	0.85	3.71099221522059E-04
1.0	0.9	3.74588743067678E-04
1.0	0.95	3.78000032519681E-04
1.0	1.0	3.81341956827308E-04
1.0	1.05	3.84624330206600E-04
1.0	1.1	3.87852148628491E-04
1.0	1.15	3.91030837422031E-04
1.0	1.2	3.94165962511183E-04
1.1	0.0	1.07593890569454E-16
1.1	0.05	8.21039452691881E-05
1.1	0.1	1.54896223972697E-04
1.1	0.15	2.18361622680909E-04
1.1	0.2	2.72734935247209E-04
1.1	0.25	3.18389011702952E-04
1.1	0.3	3.55826202552244E-04
1.1	0.35	3.85691450110532E-04
1.1	0.4	4.08798364755235E-04
1.1	0.45	4.26151351476759E-04
1.1	0.5	4.38932779700373E-04
1.1	0.55	4.48407258360157E-04
1.1	0.6	4.55734819600387E-04
1.1	0.65	4.61795846052275E-04
1.1	0.7	4.67139956083823E-04
1.1	0.75	4.72056676671878E-04
1.1	0.8	4.76689396824974E-04
1.1	0.85	4.81115265676092E-04
1.1	0.9	4.85381466179850E-04
1.1	0.95	4.89518058711444E-04
1.1	1.0	4.93545558690923E-04
1.1	1.05	4.97479618401119E-04
1.1	1.1	5.01332505284992E-04
1.1	1.15	5.05111533679704E-04
1.1	1.2	5.08827212572589E-04
1.2	0.0	-1.48544547211348E-16
1.2	0.05	9.13195410851764E-05
1.2	0.1	1.73728388039692E-04
1.2	0.15	2.47141779605105E-04
1.2	0.2	3.11705091871733E-04
1.2	0.25	3.67671680640096E-04
1.2	0.3	4.15383877575936E-04
1.2	0.35	4.55275183412005E-04
1.2	0.4	4.87886916368763E-04
1.2	0.45	5.13891901602190E-04
1.2	0.5	5.34117116397106E-04
1.2	0.55	5.49547779942656E-04
1.2	0.6	5.61281342991715E-04
1.2	0.65	5.70409790826144E-04
1.2	0.7	5.77866066157153E-04
1.2	0.75	5.84318376094500E-04
1.2	0.8	5.90164681610638E-04
1.2	0.85	5.95615516083248E-04
1.2	0.9	6.00781845957461E-04
1.2	0.95	6.05731389367510E-04
1.2	1.0	6.10508386189245E-04
1.2	1.05	6.15142126642458E-04
1.2	1.1	6.19653596721781E-04
1.2	1.15	6.24059640544217E-04
1.2	1.2	6.28372868882034E-04