vg	vd	ids
0.0	0.0	8.04933351260429E-18
0.0	0.05	5.21472045793761E-13
0.0	0.1	6.21273365970116E-13
0.0	0.15	6.89775578358870E-13
0.0	0.2	7.63705074060634E-13
0.0	0.25	8.45306374465563E-13
0.0	0.3	9.35460429428245E-13
0.0	0.35	1.03530598675075E-12
0.0	0.4	1.14613086433415E-12
0.0	0.45	1.26952724471170E-12
0.0	0.5	1.40718017646647E-12
0.0	0.55	1.56118702417171E-12
0.0	0.6	1.73411304056503E-12
0.0	0.65	1.92881228578173E-12
0.0	0.7	2.14886959147563E-12
0.0	0.75	2.39834272987682E-12
0.0	0.8	2.68245563018339E-12
0.0	0.85	3.00713502699394E-12
0.0	0.9	3.37993276858137E-12
0.0	0.95	3.80974041609363E-12
0.0	1.0	4.30789917544553E-12
0.0	1.05	4.88764144261501E-12
0.0	1.1	5.56520690511796E-12
0.0	1.15	6.36292187327361E-12
0.0	1.2	7.30373526495619E-12
0.1	0.0	4.51749064504729E-18
0.1	0.05	1.47794424850860E-11
0.1	0.1	1.76012723387396E-11
0.1	0.15	1.94575529701486E-11
0.1	0.2	2.14245616565118E-11
0.1	0.25	2.35606612415165E-11
0.1	0.3	2.58838442263492E-11
0.1	0.35	2.84139420659768E-11
0.1	0.4	3.11731409676627E-11
0.1	0.45	3.41863629117867E-11
0.1	0.5	3.74816366908847E-11
0.1	0.55	4.10907915735489E-11
0.1	0.6	4.50492289726563E-11
0.1	0.65	4.93999258573065E-11
0.1	0.7	5.41870058717597E-11
0.1	0.75	5.94677346086974E-11
0.1	0.8	6.52999727357739E-11
0.1	0.85	7.17615745471476E-11
0.1	0.9	7.89260891477672E-11
0.1	0.95	8.69062134973121E-11
0.1	1.0	9.58012033441382E-11
0.1	1.05	1.05748966236042E-10
0.1	1.1	1.16905610261147E-10
0.1	1.15	1.29456142717038E-10
0.1	1.2	1.43619064975526E-10
0.2	0.0	1.19844505656080E-17
0.2	0.05	4.25410038385514E-10
0.2	0.1	5.07635528531095E-10
0.2	0.15	5.60083905700477E-10
0.2	0.2	6.14742995064703E-10
0.2	0.25	6.73365775640632E-10
0.2	0.3	7.36334430523277E-10
0.2	0.35	8.04047775200725E-10
0.2	0.4	8.76935067028534E-10
0.2	0.45	9.55464763583070E-10
0.2	0.5	1.04014683195063E-09
0.2	0.55	1.13154229713900E-09
0.2	0.6	1.23026722913502E-09
0.2	0.65	1.33700203909990E-09
0.2	0.7	1.45249919625784E-09
0.2	0.75	1.57759144862458E-09
0.2	0.8	1.71320670557556E-09
0.2	0.85	1.86037538506930E-09
0.2	0.9	2.02025197193199E-09
0.2	0.95	2.19412702387636E-09
0.2	1.0	2.38345034980485E-09
0.2	1.05	2.58985263653792E-09
0.2	1.1	2.81517651052961E-09
0.2	1.15	3.06150404551636E-09
0.2	1.2	3.33120042273930E-09
0.3	0.0	-2.36757888642085E-17
0.3	0.05	1.22271449438199E-08
0.3	0.1	1.46562342503671E-08
0.3	0.15	1.61659918153024E-08
0.3	0.2	1.77109125100915E-08
0.3	0.25	1.93467219160592E-08
0.3	0.3	2.10826413651548E-08
0.3	0.35	2.29273642031907E-08
0.3	0.4	2.48897976167261E-08
0.3	0.45	2.69792150280065E-08
0.3	0.5	2.92053964285207E-08
0.3	0.55	3.15772555835854E-08
0.3	0.6	3.41102502375986E-08
0.3	0.65	3.68097832350418E-08
0.3	0.7	3.96962654065011E-08
0.3	0.75	4.27761878963084E-08
0.3	0.8	4.60693652591667E-08
0.3	0.85	4.95887744814886E-08
0.3	0.9	5.33526299347034E-08
0.3	0.95	5.73796354645899E-08
0.3	1.0	6.16900056964210E-08
0.3	1.05	6.63057765068957E-08
0.3	1.1	7.12508738832775E-08
0.3	1.15	7.65513832570131E-08
0.3	1.2	8.22357732979099E-08
0.4	0.0	6.25953671503277E-19
0.4	0.05	3.30510436079378E-07
0.4	0.1	4.00289548363186E-07
0.4	0.15	4.41225558370956E-07
0.4	0.2	4.81664042341949E-07
0.4	0.25	5.23557972284259E-07
0.4	0.3	5.67159705182077E-07
0.4	0.35	6.12555281018907E-07
0.4	0.4	6.60184628574662E-07
0.4	0.45	7.09912007173972E-07
0.4	0.5	7.61927255561565E-07
0.4	0.55	8.16502375876307E-07
0.4	0.6	8.73641079497563E-07
0.4	0.65	9.33526697202481E-07
0.4	0.7	9.96294901680665E-07
0.4	0.75	1.06210599786081E-06
0.4	0.8	1.13109895859923E-06
0.4	0.85	1.20342591208088E-06
0.4	0.9	1.27924375296697E-06
0.4	0.95	1.35871769401338E-06
0.4	1.0	1.44201507065458E-06
0.4	1.05	1.52930887431831E-06
0.4	1.1	1.62078131806545E-06
0.4	1.15	1.71661742643744E-06
0.4	1.2	1.81701179232871E-06
0.5	0.0	5.10946394093442E-19
0.5	0.05	5.11308014119201E-06
0.5	0.1	6.57566423700665E-06
0.5	0.15	7.20127986732383E-06
0.5	0.2	7.71642267493758E-06
0.5	0.25	8.21580805023557E-06
0.5	0.3	8.71064801791010E-06
0.5	0.35	9.20475912215895E-06
0.5	0.4	9.70004527763587E-06
0.5	0.45	1.01992702827279E-05
0.5	0.5	1.07024705126698E-05
0.5	0.55	1.12109642931500E-05
0.5	0.6	1.17254450747299E-05
0.5	0.65	1.22465573865809E-05
0.5	0.7	1.27747475943252E-05
0.5	0.75	1.33105162782432E-05
0.5	0.8	1.38541921278797E-05
0.5	0.85	1.44061477197615E-05
0.5	0.9	1.49667060967018E-05
0.5	0.95	1.55361119608306E-05
0.5	1.0	1.61146785219457E-05
0.5	1.05	1.67026121287952E-05
0.5	1.1	1.73001545454973E-05
0.5	1.15	1.79075288647856E-05
0.5	1.2	1.85249375875655E-05
0.6	0.0	-2.93628831494620E-18
0.6	0.05	2.07363539261971E-05
0.6	0.1	3.15088647266278E-05
0.6	0.15	3.62792172219158E-05
0.6	0.2	3.87039490240314E-05
0.6	0.25	4.05251839625972E-05
0.6	0.3	4.21756246555013E-05
0.6	0.35	4.37401730022188E-05
0.6	0.4	4.52472872611110E-05
0.6	0.45	4.67128387163557E-05
0.6	0.5	4.81478150326125E-05
0.6	0.55	4.95593958202398E-05
0.6	0.6	5.09534240090611E-05
0.6	0.65	5.23337273021469E-05
0.6	0.7	5.37037617573930E-05
0.6	0.75	5.50659749379933E-05
0.6	0.8	5.64225144484696E-05
0.6	0.85	5.77751235126390E-05
0.6	0.9	5.91253812324680E-05
0.6	0.95	6.04743388915233E-05
0.6	1.0	6.18233593876131E-05
0.6	1.05	6.31732256918443E-05
0.6	1.1	6.45247582173274E-05
0.6	1.15	6.58787973491328E-05
0.6	1.2	6.72359418653583E-05
0.7	0.0	-7.02747833498814E-18
0.7	0.05	3.94599752096531E-05
0.7	0.1	6.66286215633653E-05
0.7	0.15	8.34934001533945E-05
0.7	0.2	9.29735102144866E-05
0.7	0.25	9.83468934393640E-05
0.7	0.3	1.02060505938194E-04
0.7	0.35	1.05183886260342E-04
0.7	0.4	1.08027521774119E-04
0.7	0.45	1.10691766169938E-04
0.7	0.5	1.13228853526860E-04
0.7	0.55	1.15670467078055E-04
0.7	0.6	1.18038895306345E-04
0.7	0.65	1.20348804312321E-04
0.7	0.7	1.22611820529609E-04
0.7	0.75	1.24835721234539E-04
0.7	0.8	1.27027183998890E-04
0.7	0.85	1.29191312428119E-04
0.7	0.9	1.31332269629411E-04
0.7	0.95	1.33453361211235E-04
0.7	1.0	1.35557902584698E-04
0.7	1.05	1.37647976028045E-04
0.7	1.1	1.39725801033760E-04
0.7	1.15	1.41793269143527E-04
0.7	1.2	1.43852075363119E-04
0.8	0.0	-1.26794243390621E-17
0.8	0.05	5.70443009054159E-05
0.8	0.1	1.01236401621899E-04
0.8	0.15	1.33610354136326E-04
0.8	0.2	1.55828049976695E-04
0.8	0.25	1.70104050602570E-04
0.8	0.3	1.79061953740384E-04
0.8	0.35	1.85169959510590E-04
0.8	0.4	1.90004894968309E-04
0.8	0.45	1.94227236106163E-04
0.8	0.5	1.98080697290761E-04
0.8	0.55	2.01681605035038E-04
0.8	0.6	2.05098841651155E-04
0.8	0.65	2.08378174321663E-04
0.8	0.7	2.11549386188307E-04
0.8	0.75	2.14633492079619E-04
0.8	0.8	2.17645979404029E-04
0.8	0.85	2.20598133524655E-04
0.8	0.9	2.23498813148568E-04
0.8	0.95	2.26355658744060E-04
0.8	1.0	2.29174399695715E-04
0.8	1.05	2.31959093112123E-04
0.8	1.1	2.34714743272492E-04
0.8	1.15	2.37444615431581E-04
0.8	1.2	2.40151322647263E-04
0.9	0.0	-9.90040079652898E-18
0.9	0.05	7.27744094144408E-05
0.9	0.1	1.32727156929911E-04
0.9	0.15	1.80429085121673E-04
0.9	0.2	2.16920333133632E-04
0.9	0.25	2.43591870955658E-04
0.9	0.3	2.62197564191549E-04
0.9	0.35	2.74827111756539E-04
0.9	0.4	2.83656467157199E-04
0.9	0.45	2.90429769151849E-04
0.9	0.5	2.96134848026556E-04
0.9	0.55	3.01208326484958E-04
0.9	0.6	3.05861332011025E-04
0.9	0.65	3.10219673526888E-04
0.9	0.7	3.14361093449900E-04
0.9	0.75	3.18337298704034E-04
0.9	0.8	3.22182225167709E-04
0.9	0.85	3.25920751124828E-04
0.9	0.9	3.29569946242973E-04
0.9	0.95	3.33143480465265E-04
0.9	1.0	3.36651354983635E-04
0.9	1.05	3.40102812511056E-04
0.9	1.1	3.43504106072119E-04
0.9	1.15	3.46861495312080E-04
0.9	1.2	3.50179493058290E-04
1.0	0.0	2.87674265214853E-18
1.0	0.05	8.66270139456118E-05
1.0	0.1	1.60714680294957E-04
1.0	0.15	2.22568034136949E-04
1.0	0.2	2.72891293531621E-04
1.0	0.25	3.12630402432926E-04
1.0	0.3	3.42963393742211E-04
1.0	0.35	3.65324236708855E-04
1.0	0.4	3.81406571873577E-04
1.0	0.45	3.93052036295117E-04
1.0	0.5	4.01937621447467E-04
1.0	0.55	4.09232898846796E-04
1.0	0.6	4.15576230699077E-04
1.0	0.65	4.21292256368729E-04
1.0	0.7	4.26572544814930E-04
1.0	0.75	4.31542258837649E-04
1.0	0.8	4.36280509396992E-04
1.0	0.85	4.40839715529155E-04
1.0	0.9	4.45254525407394E-04
1.0	0.95	4.49549761900204E-04
1.0	1.0	4.53745173482354E-04
1.0	1.05	4.57852994440808E-04
1.0	1.1	4.61886144606206E-04
1.0	1.15	4.65854706967880E-04
1.0	1.2	4.69762431717058E-04
1.1	0.0	3.54306694068644E-18
1.1	0.05	9.87502880202061E-05
1.1	0.1	1.85352932638272E-04
1.1	0.15	2.59950673671174E-04
1.1	0.2	3.23047418674574E-04
1.1	0.25	3.75330516022238E-04
1.1	0.3	4.17642230305383E-04
1.1	0.35	4.50989069333167E-04
1.1	0.4	4.76567503147689E-04
1.1	0.45	4.95775656013296E-04
1.1	0.5	5.10162035939060E-04
1.1	0.55	5.21240047115261E-04
1.1	0.6	5.30222709178046E-04
1.1	0.65	5.37892918841533E-04
1.1	0.7	5.44698994307004E-04
1.1	0.75	5.50906732817755E-04
1.1	0.8	5.56689798271684E-04
1.1	0.85	5.62164217439371E-04
1.1	0.9	5.67404538505216E-04
1.1	0.95	5.72459333068682E-04
1.1	1.0	5.77364062237617E-04
1.1	1.05	5.82140756066985E-04
1.1	1.1	5.86811439016191E-04
1.1	1.15	5.91386759491586E-04
1.1	1.2	5.95880810116299E-04
1.2	0.0	-8.45588789891235E-18
1.2	0.05	1.09341919835210E-04
1.2	0.1	2.06963213957087E-04
1.2	0.15	2.92906702650851E-04
1.2	0.2	3.67552888302053E-04
1.2	0.25	4.31430746646666E-04
1.2	0.3	4.85178057460796E-04
1.2	0.35	5.29538797387748E-04
1.2	0.4	5.65379686124868E-04
1.2	0.45	5.93711467048522E-04
1.2	0.5	6.15706392990976E-04
1.2	0.55	6.32669390368951E-04
1.2	0.6	6.45933243820779E-04
1.2	0.65	6.56663595963378E-04
1.2	0.7	6.65719791022223E-04
1.2	0.75	6.73650785431130E-04
1.2	0.8	6.80804853036310E-04
1.2	0.85	6.87405723296277E-04
1.2	0.9	6.93605821069538E-04
1.2	0.95	6.99510046790178E-04
1.2	1.0	7.05181360182298E-04
1.2	1.05	7.10667820154559E-04
1.2	1.1	7.16000160568584E-04
1.2	1.15	7.21200306732377E-04
1.2	1.2	7.26290335032146E-04