vg	vd	ids
0.0	0.0	-1.72302908842985E-17
0.0	0.05	7.47292379464471E-14
0.0	0.1	8.45775017257194E-14
0.0	0.15	8.89682214166682E-14
0.0	0.2	9.32601874184274E-14
0.0	0.25	9.78121858563555E-14
0.0	0.3	1.02540727768718E-13
0.0	0.35	1.07502366655644E-13
0.0	0.4	1.12568965952513E-13
0.0	0.45	1.17886623314853E-13
0.0	0.5	1.23447072088575E-13
0.0	0.55	1.29322917781973E-13
0.0	0.6	1.35501235377810E-13
0.0	0.65	1.41857319650668E-13
0.0	0.7	1.48591811642769E-13
0.0	0.75	1.55608100300792E-13
0.0	0.8	1.62924238861137E-13
0.0	0.85	1.70651874006203E-13
0.0	0.9	1.78817490728732E-13
0.0	0.95	1.87319367580503E-13
0.0	1.0	1.96271040516164E-13
0.0	1.05	2.05713716550787E-13
0.0	1.1	2.15586854880385E-13
0.0	1.15	2.25957488533058E-13
0.0	1.2	2.36794637843159E-13
0.1	0.0	1.66066438775922E-17
0.1	0.05	2.29567335341236E-12
0.1	0.1	2.60859830808549E-12
0.1	0.15	2.75040637163799E-12
0.1	0.2	2.89013308601036E-12
0.1	0.25	3.03496966193080E-12
0.1	0.3	3.18552555270824E-12
0.1	0.35	3.34202914209940E-12
0.1	0.4	3.50507769825121E-12
0.1	0.45	3.67479457975187E-12
0.1	0.5	3.85193039702352E-12
0.1	0.55	4.03678170966604E-12
0.1	0.6	4.22999157023239E-12
0.1	0.65	4.43187621197268E-12
0.1	0.7	4.64246212649137E-12
0.1	0.75	4.86287897998548E-12
0.1	0.8	5.09318098490510E-12
0.1	0.85	5.33417168132058E-12
0.1	0.9	5.58637801832312E-12
0.1	0.95	5.85018667453412E-12
0.1	1.0	6.12649808728286E-12
0.1	1.05	6.41566322027917E-12
0.1	1.1	6.71837801355124E-12
0.1	1.15	7.03555631142880E-12
0.1	1.2	7.36774988553315E-12
0.2	0.0	-1.83809494703035E-17
0.2	0.05	7.14958721922697E-11
0.2	0.1	8.16308400236452E-11
0.2	0.15	8.62779755226845E-11
0.2	0.2	9.08234041491015E-11
0.2	0.25	9.55177136440162E-11
0.2	0.3	1.00377710792563E-10
0.2	0.35	1.05417024805015E-10
0.2	0.4	1.10648941341360E-10
0.2	0.45	1.16085955476271E-10
0.2	0.5	1.21740847104491E-10
0.2	0.55	1.27627382168094E-10
0.2	0.6	1.33756724562478E-10
0.2	0.65	1.40143531261927E-10
0.2	0.7	1.46796286687721E-10
0.2	0.75	1.53736916529039E-10
0.2	0.8	1.60976379124014E-10
0.2	0.85	1.68524973485534E-10
0.2	0.9	1.76403581965440E-10
0.2	0.95	1.84627163033431E-10
0.2	1.0	1.93209683073621E-10
0.2	1.05	2.02170936422515E-10
0.2	1.1	2.11526878140239E-10
0.2	1.15	2.21296874781338E-10
0.2	1.2	2.31499922304633E-10
0.3	0.0	4.64034456317884E-17
0.3	0.05	2.23556669987111E-09
0.3	0.1	2.56665838274229E-09
0.3	0.15	2.72004857512116E-09
0.3	0.2	2.86856765008985E-09
0.3	0.25	3.02101092417222E-09
0.3	0.3	3.17804952483444E-09
0.3	0.35	3.34017963035343E-09
0.3	0.4	3.50785064598491E-09
0.3	0.45	3.68148196199442E-09
0.3	0.5	3.86147504831804E-09
0.3	0.55	4.04823901000292E-09
0.3	0.6	4.24207129589319E-09
0.3	0.65	4.44357309106952E-09
0.3	0.7	4.65287024146604E-09
0.3	0.75	4.87043786129640E-09
0.3	0.8	5.09673053813170E-09
0.3	0.85	5.33215315226073E-09
0.3	0.9	5.57709052035121E-09
0.3	0.95	5.83198256359488E-09
0.3	1.0	6.09727853908494E-09
0.3	1.05	6.37343207012776E-09
0.3	1.1	6.66091459398285E-09
0.3	1.15	6.96021328015938E-09
0.3	1.2	7.27183046378978E-09
0.4	0.0	4.42961343564083E-18
0.4	0.05	6.85664965465413E-08
0.4	0.1	7.93778177646764E-08
0.4	0.15	8.43825456557054E-08
0.4	0.2	8.91344642567957E-08
0.4	0.25	9.39577312852997E-08
0.4	0.3	9.88834803014697E-08
0.4	0.35	1.03932130976257E-07
0.4	0.4	1.09120320093292E-07
0.4	0.45	1.14462321520804E-07
0.4	0.5	1.19974437049651E-07
0.4	0.55	1.25660180687599E-07
0.4	0.6	1.31534288297492E-07
0.4	0.65	1.37609418658706E-07
0.4	0.7	1.43894982034258E-07
0.4	0.75	1.50400535993298E-07
0.4	0.8	1.57135973982715E-07
0.4	0.85	1.64111301908787E-07
0.4	0.9	1.71336579214067E-07
0.4	0.95	1.78821921060149E-07
0.4	1.0	1.86577592455798E-07
0.4	1.05	1.94614004448644E-07
0.4	1.1	2.02941767017611E-07
0.4	1.15	2.11571664948483E-07
0.4	1.2	2.20514665075863E-07
0.5	0.0	5.52265482279633E-18
0.5	0.05	1.64528092274752E-06
0.5	0.1	1.96626871109605E-06
0.5	0.15	2.09264437870203E-06
0.5	0.2	2.20170996619774E-06
0.5	0.25	2.30867184717502E-06
0.5	0.3	2.41519288205773E-06
0.5	0.35	2.52204494737220E-06
0.5	0.4	2.62974922131992E-06
0.5	0.45	2.73873724309987E-06
0.5	0.5	2.84915511122154E-06
0.5	0.55	2.96132801596495E-06
0.5	0.6	3.07542727141237E-06
0.5	0.65	3.19159760562462E-06
0.5	0.7	3.30996618734847E-06
0.5	0.75	3.43064213305457E-06
0.5	0.8	3.55372098778544E-06
0.5	0.85	3.67929093787409E-06
0.5	0.9	3.80742802408955E-06
0.5	0.95	3.93820576271527E-06
0.5	1.0	4.07169184109196E-06
0.5	1.05	4.20794529801968E-06
0.5	1.1	4.34702771910324E-06
0.5	1.15	4.48899407503487E-06
0.5	1.2	4.63389284310392E-06
0.6	0.0	6.47229506101606E-17
0.6	0.05	1.19587280352407E-05
0.6	0.1	1.67257638970120E-05
0.6	0.15	1.83240898127286E-05
0.6	0.2	1.91338069717812E-05
0.6	0.25	1.98017719140551E-05
0.6	0.3	2.04267302767462E-05
0.6	0.35	2.10271178521506E-05
0.6	0.4	2.16124448094603E-05
0.6	0.45	2.21866911292574E-05
0.6	0.5	2.27534469416733E-05
0.6	0.55	2.33154431643454E-05
0.6	0.6	2.38743397871038E-05
0.6	0.65	2.44314363073379E-05
0.6	0.7	2.49876599643109E-05
0.6	0.75	2.55438415054495E-05
0.6	0.8	2.61005071198342E-05
0.6	0.85	2.66581973374130E-05
0.6	0.9	2.72173040954175E-05
0.6	0.95	2.77781034073089E-05
0.6	1.0	2.83409341973851E-05
0.6	1.05	2.89059790330741E-05
0.6	1.1	2.94734303528023E-05
0.6	1.15	3.00434946194181E-05
0.6	1.2	3.06162741150443E-05
0.7	0.0	-3.14226354666152E-18
0.7	0.05	2.82875907612255E-05
0.7	0.1	4.59886268313850E-05
0.7	0.15	5.54722197152768E-05
0.7	0.2	5.99287939187558E-05
0.7	0.25	6.22390989165465E-05
0.7	0.3	6.39037941219319E-05
0.7	0.35	6.53628291785683E-05
0.7	0.4	6.67153958337454E-05
0.7	0.45	6.79991073979452E-05
0.7	0.5	6.92347612168212E-05
0.7	0.55	7.04357978127489E-05
0.7	0.6	7.16109155434258E-05
0.7	0.65	7.27658864388569E-05
0.7	0.7	7.39049425459486E-05
0.7	0.75	7.50310267421289E-05
0.7	0.8	7.61465901946486E-05
0.7	0.85	7.72533624729921E-05
0.7	0.9	7.83528205296850E-05
0.7	0.95	7.94461187294044E-05
0.7	1.0	8.05342904884091E-05
0.7	1.05	8.16180118558259E-05
0.7	1.1	8.26980788699827E-05
0.7	1.15	8.37750611025632E-05
0.7	1.2	8.48493365229985E-05
0.8	0.0	3.16548177326644E-17
0.8	0.05	4.43390939189714E-05
0.8	0.1	7.72011543069691E-05
0.8	0.15	9.97854738672856E-05
0.8	0.2	1.13934369571918E-04
0.8	0.25	1.22028877059640E-04
0.8	0.3	1.26627230139899E-04
0.8	0.35	1.29694818985639E-04
0.8	0.4	1.32182117970502E-04
0.8	0.45	1.34396521644747E-04
0.8	0.5	1.36444159115940E-04
0.8	0.55	1.38381180435091E-04
0.8	0.6	1.40240405412803E-04
0.8	0.65	1.42042279592804E-04
0.8	0.7	1.43799681615998E-04
0.8	0.75	1.45521357156262E-04
0.8	0.8	1.47213581619243E-04
0.8	0.85	1.48880703054388E-04
0.8	0.9	1.50526707257322E-04
0.8	0.95	1.52154029359255E-04
0.8	1.0	1.53765118900269E-04
0.8	1.05	1.55361753737133E-04
0.8	1.1	1.56945468594091E-04
0.8	1.15	1.58517514076712E-04
0.8	1.2	1.60078952375766E-04
0.9	0.0	3.08308684746543E-18
0.9	0.05	5.88311098109370E-05
0.9	0.1	1.06052980518942E-04
0.9	0.15	1.42347905018875E-04
0.9	0.2	1.68842676751317E-04
0.9	0.25	1.87018769365429E-04
0.9	0.3	1.98715716377916E-04
0.9	0.35	2.06020302540904E-04
0.9	0.4	2.10878811790714E-04
0.9	0.45	2.14593160587188E-04
0.9	0.5	2.17759969613893E-04
0.9	0.55	2.20611602146668E-04
0.9	0.6	2.23258766485404E-04
0.9	0.65	2.25769281081291E-04
0.9	0.7	2.28181954653106E-04
0.9	0.75	2.30520374918776E-04
0.9	0.8	2.32799642140346E-04
0.9	0.85	2.35030290800124E-04
0.9	0.9	2.37219780104661E-04
0.9	0.95	2.39373870959272E-04
0.9	1.0	2.41496986683843E-04
0.9	1.05	2.43592547610344E-04
0.9	1.1	2.45663457902645E-04
0.9	1.15	2.47712096150348E-04
0.9	1.2	2.49740535105611E-04
1.0	0.0	-2.86988482188034E-17
1.0	0.05	7.16280408168512E-05
1.0	0.1	1.31812263515274E-04
1.0	0.15	1.80955165794011E-04
1.0	0.2	2.19822285854649E-04
1.0	0.25	2.49408101070394E-04
1.0	0.3	2.70936421170515E-04
1.0	0.35	2.85880854875744E-04
1.0	0.4	2.95934936286939E-04
1.0	0.45	3.02827741949329E-04
1.0	0.5	3.07965031426978E-04
1.0	0.55	3.12184398691753E-04
1.0	0.6	3.15883478518127E-04
1.0	0.65	3.19255633050069E-04
1.0	0.7	3.22410784004653E-04
1.0	0.75	3.25417372124609E-04
1.0	0.8	3.28313998270934E-04
1.0	0.85	3.31124810074404E-04
1.0	0.9	3.33865601252433E-04
1.0	0.95	3.36547878573572E-04
1.0	1.0	3.39178976496009E-04
1.0	1.05	3.41766310021531E-04
1.0	1.1	3.44314359894051E-04
1.0	1.15	3.46826793277558E-04
1.0	1.2	3.49307611964181E-04
1.1	0.0	-2.39500556895248E-17
1.1	0.05	8.28358833951631E-05
1.1	0.1	1.54525192593458E-04
1.1	0.15	2.15302654026877E-04
1.1	0.2	2.65726696468235E-04
1.1	0.25	3.06520875184702E-04
1.1	0.3	3.38553677059688E-04
1.1	0.35	3.62853318741137E-04
1.1	0.4	3.80630906293840E-04
1.1	0.45	3.93278090038619E-04
1.1	0.5	4.02278686304113E-04
1.1	0.55	4.08983530796950E-04
1.1	0.6	4.14360423826533E-04
1.1	0.65	4.18961456140671E-04
1.1	0.7	4.23080601005647E-04
1.1	0.75	4.26885935984637E-04
1.1	0.8	4.30477402141579E-04
1.1	0.85	4.33916166713258E-04
1.1	0.9	4.37237662253361E-04
1.1	0.95	4.40465352195828E-04
1.1	1.0	4.43614749962270E-04
1.1	1.05	4.46697486260253E-04
1.1	1.1	4.49721935354969E-04
1.1	1.15	4.52694694621721E-04
1.1	1.2	4.55621374005853E-04
1.2	0.0	1.37531059837915E-17
1.2	0.05	9.26275870650294E-05
1.2	0.1	1.74456261496737E-04
1.2	0.15	2.45617588836952E-04
1.2	0.2	3.06544291864547E-04
1.2	0.25	3.57798138401413E-04
1.2	0.3	4.00037222417809E-04
1.2	0.35	4.34018409233227E-04
1.2	0.4	4.60615397674491E-04
1.2	0.45	4.80840713847341E-04
1.2	0.5	4.95853621865445E-04
1.2	0.55	5.06917155223073E-04
1.2	0.6	5.15261344673684E-04
1.2	0.65	5.21884327314460E-04
1.2	0.7	5.27449046164659E-04
1.2	0.75	5.32348103912943E-04
1.2	0.8	5.36815571466033E-04
1.2	0.85	5.40993553338207E-04
1.2	0.9	5.44966154043072E-04
1.2	0.95	5.48785272806290E-04
1.2	1.0	5.52482740721727E-04
1.2	1.05	5.56080821357223E-04
1.2	1.1	5.59593768688076E-04
1.2	1.15	5.63033500838601E-04
1.2	1.2	5.66409090746041E-04