vg	vd	ids
0.0	0.0	2.58784254205543E-17
0.0	0.05	3.68989778986663E-13
0.0	0.1	4.06858802005714E-13
0.0	0.15	4.21269510224779E-13
0.0	0.2	4.35578016227563E-13
0.0	0.25	4.50065536218630E-13
0.0	0.3	4.64928315189947E-13
0.0	0.35	4.80324240984011E-13
0.0	0.4	4.95888470139273E-13
0.0	0.45	5.11876858523532E-13
0.0	0.5	5.28425262628252E-13
0.0	0.55	5.45280321872047E-13
0.0	0.6	5.62488617037137E-13
0.0	0.65	5.81073403503127E-13
0.0	0.7	5.99403533530878E-13
0.0	0.75	6.18804220300167E-13
0.0	0.8	6.38303807388522E-13
0.0	0.85	6.59003056973965E-13
0.0	0.9	6.79911088806875E-13
0.0	0.95	7.01892208404581E-13
0.0	1.0	7.24188123443292E-13
0.0	1.05	7.47828447838378E-13
0.0	1.1	7.71437107679460E-13
0.0	1.15	7.96972957719999E-13
0.0	1.2	8.22610298634559E-13
0.1	0.0	3.41241455309409E-17
0.1	0.05	1.30254229435925E-11
0.1	0.1	1.44254649126662E-11
0.1	0.15	1.49603794786380E-11
0.1	0.2	1.54846845707290E-11
0.1	0.25	1.60182277712338E-11
0.1	0.3	1.65621824569181E-11
0.1	0.35	1.71177539018631E-11
0.1	0.4	1.76858020883648E-11
0.1	0.45	1.82675665179261E-11
0.1	0.5	1.88638202323507E-11
0.1	0.55	1.94754691287549E-11
0.1	0.6	2.00993447865780E-11
0.1	0.65	2.07489013520061E-11
0.1	0.7	2.14010000050999E-11
0.1	0.75	2.20831781181768E-11
0.1	0.8	2.27755942933429E-11
0.1	0.85	2.35139173297030E-11
0.1	0.9	2.42649253332215E-11
0.1	0.95	2.50234738818413E-11
0.1	1.0	2.58142489361102E-11
0.1	1.05	2.66387484142326E-11
0.1	1.1	2.74796022271681E-11
0.1	1.15	2.83470379582226E-11
0.1	1.2	2.92418491701416E-11
0.2	0.0	-2.53025004405717E-18
0.2	0.05	4.64551798407739E-10
0.2	0.1	5.16799606014771E-10
0.2	0.15	5.36877538831976E-10
0.2	0.2	5.56364736350486E-10
0.2	0.25	5.76091994168819E-10
0.2	0.3	5.96112412691205E-10
0.2	0.35	6.16470304951614E-10
0.2	0.4	6.37213276269746E-10
0.2	0.45	6.58377077114620E-10
0.2	0.5	6.80002113481278E-10
0.2	0.55	7.02108824849935E-10
0.2	0.6	7.24415448525661E-10
0.2	0.65	7.47924305543910E-10
0.2	0.7	7.71685700584566E-10
0.2	0.75	7.95832561649670E-10
0.2	0.8	8.21073870750465E-10
0.2	0.85	8.46752419923745E-10
0.2	0.9	8.72981661893118E-10
0.2	0.95	9.00230595979878E-10
0.2	1.0	9.28083943272033E-10
0.2	1.05	9.56719970802839E-10
0.2	1.1	9.86161860374495E-10
0.2	1.15	1.01645338358776E-09
0.2	1.2	1.04761126909926E-09
0.3	0.0	2.10935160653596E-17
0.3	0.05	1.65803031503300E-08
0.3	0.1	1.85454612475050E-08
0.3	0.15	1.93041937048272E-08
0.3	0.2	2.00307267685022E-08
0.3	0.25	2.07606969945111E-08
0.3	0.3	2.14967777544444E-08
0.3	0.35	2.22414017589448E-08
0.3	0.4	2.29958626074776E-08
0.3	0.45	2.37637799607746E-08
0.3	0.5	2.45218569671198E-08
0.3	0.55	2.53392212984523E-08
0.3	0.6	2.61313654612771E-08
0.3	0.65	2.69710373561407E-08
0.3	0.7	2.78188583386842E-08
0.3	0.75	2.86886748622951E-08
0.3	0.8	2.95733684469415E-08
0.3	0.85	3.04789097128092E-08
0.3	0.9	3.14061935014034E-08
0.3	0.95	3.23560091785730E-08
0.3	1.0	3.33295056847094E-08
0.3	1.05	3.43272924281199E-08
0.3	1.1	3.53504137024319E-08
0.3	1.15	3.63996716187475E-08
0.3	1.2	3.74759943200793E-08
0.4	0.0	1.22355015128638E-17
0.4	0.05	5.61786481881956E-07
0.4	0.1	6.35390008951919E-07
0.4	0.15	6.62709549045725E-07
0.4	0.2	6.88033404355274E-07
0.4	0.25	7.13107996343015E-07
0.4	0.3	7.38110265371002E-07
0.4	0.35	7.63139323380178E-07
0.4	0.4	7.88362411340982E-07
0.4	0.45	8.13762174919898E-07
0.4	0.5	8.39095778465682E-07
0.4	0.55	8.65300700711087E-07
0.4	0.6	8.91668434823507E-07
0.4	0.65	9.18383434844819E-07
0.4	0.7	9.45577385366617E-07
0.4	0.75	9.73166881759912E-07
0.4	0.8	1.00123565038135E-06
0.4	0.85	1.02980854175393E-06
0.4	0.9	1.05891072700207E-06
0.4	0.95	1.08856433265485E-06
0.4	1.0	1.11879047043378E-06
0.4	1.05	1.14961020508282E-06
0.4	1.1	1.18104268255525E-06
0.4	1.15	1.21310748448990E-06
0.4	1.2	1.24582312759267E-06
0.5	0.0	-4.72408183921685E-17
0.5	0.05	9.94496819219446E-06
0.5	0.1	1.22150507226614E-05
0.5	0.15	1.27913789833266E-05
0.5	0.2	1.31974712024742E-05
0.5	0.25	1.35789605791502E-05
0.5	0.3	1.39471203072575E-05
0.5	0.35	1.43062455693848E-05
0.5	0.4	1.46590220658043E-05
0.5	0.45	1.50053137748428E-05
0.5	0.5	1.53515017735915E-05
0.5	0.55	1.56951017880949E-05
0.5	0.6	1.60370897766625E-05
0.5	0.65	1.63782060517020E-05
0.5	0.7	1.67191828301376E-05
0.5	0.75	1.70604242684702E-05
0.5	0.8	1.74023336751172E-05
0.5	0.85	1.77452366538517E-05
0.5	0.9	1.80893787313228E-05
0.5	0.95	1.84349827970444E-05
0.5	1.0	1.87822667775231E-05
0.5	1.05	1.91313803775577E-05
0.5	1.1	1.94824713394366E-05
0.5	1.15	1.98356792041278E-05
0.5	1.2	2.01911079760326E-05
0.6	0.0	1.29264042377226E-17
0.6	0.05	3.80688171949497E-05
0.6	0.1	5.75016899645193E-05
0.6	0.15	6.48644276573399E-05
0.6	0.2	6.74226925892626E-05
0.6	0.25	6.89863455327042E-05
0.6	0.3	7.03519957232978E-05
0.6	0.35	7.16210333455109E-05
0.6	0.4	7.28252023017404E-05
0.6	0.45	7.39813141984546E-05
0.6	0.5	7.51038496738955E-05
0.6	0.55	7.61987215467245E-05
0.6	0.6	7.72710812290952E-05
0.6	0.65	7.83251080202567E-05
0.6	0.7	7.93639899152014E-05
0.6	0.75	8.03902022590696E-05
0.6	0.8	8.14057897700065E-05
0.6	0.85	8.24125182236913E-05
0.6	0.9	8.34116296801478E-05
0.6	0.95	8.44042383938248E-05
0.6	1.0	8.53914522634926E-05
0.6	1.05	8.63739270694679E-05
0.6	1.1	8.73523607275917E-05
0.6	1.15	8.83274597159498E-05
0.6	1.2	8.92996318767335E-05
0.7	0.0	-8.84262870917810E-18
0.7	0.05	6.75678164980230E-05
0.7	0.1	1.14515757288886E-04
0.7	0.15	1.43183426145213E-04
0.7	0.2	1.57873558426589E-04
0.7	0.25	1.64400451783419E-04
0.7	0.3	1.67898970776869E-04
0.7	0.35	1.70598392146192E-04
0.7	0.4	1.72987741507868E-04
0.7	0.45	1.75192598982794E-04
0.7	0.5	1.77272026059350E-04
0.7	0.55	1.79262071135035E-04
0.7	0.6	1.81182036562079E-04
0.7	0.65	1.83046665690036E-04
0.7	0.7	1.84865479592693E-04
0.7	0.75	1.86646108135314E-04
0.7	0.8	1.88394292358584E-04
0.7	0.85	1.90114553855405E-04
0.7	0.9	1.91810432742503E-04
0.7	0.95	1.93484934471344E-04
0.7	1.0	1.95140609708851E-04
0.7	1.05	1.96779439796068E-04
0.7	1.1	1.98403027231378E-04
0.7	1.15	2.00012914476828E-04
0.7	1.2	2.01610395414486E-04
0.8	0.0	2.02676505430847E-17
0.8	0.05	9.19404932400837E-05
0.8	0.1	1.64236580120890E-04
0.8	0.15	2.17617461075558E-04
0.8	0.2	2.53861306218109E-04
0.8	0.25	2.75850139495693E-04
0.8	0.3	2.87708842996038E-04
0.8	0.35	2.94145386681621E-04
0.8	0.4	2.98546041704900E-04
0.8	0.45	3.02181234597432E-04
0.8	0.5	3.05420879764253E-04
0.8	0.55	3.08418190585975E-04
0.8	0.6	3.11249768119646E-04
0.8	0.65	3.13958861127283E-04
0.8	0.7	3.16572438957487E-04
0.8	0.75	3.19109100502472E-04
0.8	0.8	3.21581547374451E-04
0.8	0.85	3.23999701552385E-04
0.8	0.9	3.26370634380670E-04
0.8	0.95	3.28700784135014E-04
0.8	1.0	3.30994952314087E-04
0.8	1.05	3.33256268705059E-04
0.8	1.1	3.35488737472821E-04
0.8	1.15	3.37695090045306E-04
0.8	1.2	3.39877550444974E-04
0.9	0.0	-2.08042000872017E-17
0.9	0.05	1.11202533274700E-04
0.9	0.1	2.04286600115531E-04
0.9	0.15	2.79431095271131E-04
0.9	0.2	3.37433124577873E-04
0.9	0.25	3.79659803218889E-04
0.9	0.3	4.08073145664476E-04
0.9	0.35	4.25578422900699E-04
0.9	0.4	4.35877199605175E-04
0.9	0.45	4.42520695376857E-04
0.9	0.5	4.47608294176507E-04
0.9	0.55	4.51947801928364E-04
0.9	0.6	4.55859139357888E-04
0.9	0.65	4.59501415107579E-04
0.9	0.7	4.62956222990619E-04
0.9	0.75	4.66269482834043E-04
0.9	0.8	4.69470905016232E-04
0.9	0.85	4.72580575548711E-04
0.9	0.9	4.75612751561241E-04
0.9	0.95	4.78578178100416E-04
0.9	1.0	4.81486523132297E-04
0.9	1.05	4.84343326038230E-04
0.9	1.1	4.87154354627347E-04
0.9	1.15	4.89924641597592E-04
0.9	1.2	4.92657057503376E-04
1.0	0.0	-4.46950506296233E-17
1.0	0.05	1.26372244513854E-04
1.0	0.1	2.36056083582744E-04
1.0	0.15	3.29072099221727E-04
1.0	0.2	4.05895025085014E-04
1.0	0.25	4.67247299811157E-04
1.0	0.3	5.14124991840525E-04
1.0	0.35	5.47963492347088E-04
1.0	0.4	5.70812833175029E-04
1.0	0.45	5.85434638874825E-04
1.0	0.5	5.94939786885213E-04
1.0	0.55	6.01817288612015E-04
1.0	0.6	6.07400220705119E-04
1.0	0.65	6.12275399539002E-04
1.0	0.7	6.16728135110010E-04
1.0	0.75	6.20905725000264E-04
1.0	0.8	6.24884758205656E-04
1.0	0.85	6.28711709423919E-04
1.0	0.9	6.32415123332444E-04
1.0	0.95	6.36016857357175E-04
1.0	1.0	6.39532850187989E-04
1.0	1.05	6.42971294958021E-04
1.0	1.1	6.46344980562835E-04
1.0	1.15	6.49659429862729E-04
1.0	1.2	6.52919954122536E-04
1.1	0.0	-1.75370767085742E-17
1.1	0.05	1.38442495932996E-04
1.1	0.1	2.61378381648137E-04
1.1	0.15	3.68814600715503E-04
1.1	0.2	4.61140104642729E-04
1.1	0.25	5.38866214331148E-04
1.1	0.3	6.02601225334193E-04
1.1	0.35	6.53119209869536E-04
1.1	0.4	6.91467209873286E-04
1.1	0.45	7.19119739830738E-04
1.1	0.5	7.38106479190370E-04
1.1	0.55	7.50927215807200E-04
1.1	0.6	7.60015235437863E-04
1.1	0.65	7.67075528285837E-04
1.1	0.7	7.73026929225596E-04
1.1	0.75	7.78335493846650E-04
1.1	0.8	7.83242096283320E-04
1.1	0.85	7.87876555185722E-04
1.1	0.9	7.92306212783108E-04
1.1	0.95	7.96577390472149E-04
1.1	1.0	8.00717129244389E-04
1.1	1.05	8.04746767427998E-04
1.1	1.1	8.08683170447279E-04
1.1	1.15	8.12537227023537E-04
1.1	1.2	8.16317452954377E-04
1.2	0.0	-3.43918275581996E-18
1.2	0.05	1.48195745362690E-04
1.2	0.1	2.81818686473448E-04
1.2	0.15	4.00909462659306E-04
1.2	0.2	5.05862670932856E-04
1.2	0.25	5.97142129364264E-04
1.2	0.3	6.75231243548103E-04
1.2	0.35	7.40648979393717E-04
1.2	0.4	7.94001100113192E-04
1.2	0.45	8.36070129162117E-04
1.2	0.5	8.67929653567235E-04
1.2	0.55	8.91067884213514E-04
1.2	0.6	9.07412276606681E-04
1.2	0.65	9.19092881615903E-04
1.2	0.7	9.27932980002793E-04
1.2	0.75	9.35134984983466E-04
1.2	0.8	9.41385830502979E-04
1.2	0.85	9.47064089601255E-04
1.2	0.9	9.52365714583866E-04
1.2	0.95	9.57396866567100E-04
1.2	1.0	9.62221997287078E-04
1.2	1.05	9.66882355456445E-04
1.2	1.1	9.71407485268863E-04
1.2	1.15	9.75814280455865E-04
1.2	1.2	9.80122875718644E-04