vg	vd	ids
0.0	0.0	-9.76628377826397E-17
0.0	0.05	6.24880939032575E-14
0.0	0.1	6.89973918889565E-14
0.0	0.15	7.17422127013212E-14
0.0	0.2	7.45492975524424E-14
0.0	0.25	7.74437174437949E-14
0.0	0.3	8.03183561525007E-14
0.0	0.35	8.33079961681601E-14
0.0	0.4	8.63489183286100E-14
0.0	0.45	8.95171664317545E-14
0.0	0.5	9.28988588023936E-14
0.0	0.55	9.62309316101136E-14
0.0	0.6	9.98940610327092E-14
0.0	0.65	1.03381964329775E-13
0.0	0.7	1.07193777380892E-13
0.0	0.75	1.10979631645791E-13
0.0	0.8	1.15082979580116E-13
0.0	0.85	1.19258485433071E-13
0.0	0.9	1.23594741471776E-13
0.0	0.95	1.28131597546423E-13
0.0	1.0	1.32768450166394E-13
0.0	1.05	1.37537361784146E-13
0.0	1.1	1.42551545740319E-13
0.0	1.15	1.47807408922451E-13
0.0	1.2	1.53170788318147E-13
0.1	0.0	-2.98558378999880E-18
0.1	0.05	1.89569906499533E-12
0.1	0.1	2.10514413988314E-12
0.1	0.15	2.19575461841540E-12
0.1	0.2	2.28574450510393E-12
0.1	0.25	2.37783234546426E-12
0.1	0.3	2.47247777656870E-12
0.1	0.35	2.56944164092380E-12
0.1	0.4	2.66945215381391E-12
0.1	0.45	2.77232014784024E-12
0.1	0.5	2.87823969673188E-12
0.1	0.55	2.98752280128948E-12
0.1	0.6	3.10062527617117E-12
0.1	0.65	3.21715728397720E-12
0.1	0.7	3.33761456423623E-12
0.1	0.75	3.46236692304242E-12
0.1	0.8	3.59134388937716E-12
0.1	0.85	3.72475129666692E-12
0.1	0.9	3.86292844147231E-12
0.1	0.95	4.00587096184708E-12
0.1	1.0	4.15416548804941E-12
0.1	1.05	4.30762285353179E-12
0.1	1.1	4.46676004913768E-12
0.1	1.15	4.63159572247219E-12
0.1	1.2	4.80269203914101E-12
0.2	0.0	6.60851635112882E-17
0.2	0.05	5.86338770074076E-11
0.2	0.1	6.54523925472579E-11
0.2	0.15	6.84581554618317E-11
0.2	0.2	7.14209504997223E-11
0.2	0.25	7.44464535121531E-11
0.2	0.3	7.75424429520919E-11
0.2	0.35	8.07160137085406E-11
0.2	0.4	8.39736997416127E-11
0.2	0.45	8.73221800336110E-11
0.2	0.5	9.07673495840832E-11
0.2	0.55	9.43149526942349E-11
0.2	0.6	9.79568472590225E-11
0.2	0.65	1.01741734621102E-10
0.2	0.7	1.05631820410848E-10
0.2	0.75	1.09646517785574E-10
0.2	0.8	1.13797709792327E-10
0.2	0.85	1.18084028356731E-10
0.2	0.9	1.22516317022525E-10
0.2	0.95	1.27098882332220E-10
0.2	1.0	1.31837538060969E-10
0.2	1.05	1.36740633219849E-10
0.2	1.1	1.41813289279908E-10
0.2	1.15	1.47063534777915E-10
0.2	1.2	1.52497785438405E-10
0.3	0.0	2.20087740945607E-18
0.3	0.05	1.82957029495436E-09
0.3	0.1	2.05422197226094E-09
0.3	0.15	2.15466275641860E-09
0.3	0.2	2.25284568285560E-09
0.3	0.25	2.35262581040048E-09
0.3	0.3	2.45433017880854E-09
0.3	0.35	2.55823008659043E-09
0.3	0.4	2.66456834317528E-09
0.3	0.45	2.77356695069959E-09
0.3	0.5	2.88543410564802E-09
0.3	0.55	2.99998462871180E-09
0.3	0.6	3.11845945578942E-09
0.3	0.65	3.24019717081026E-09
0.3	0.7	3.36543563905475E-09
0.3	0.75	3.49453880643095E-09
0.3	0.8	3.62757990365844E-09
0.3	0.85	3.76484945059387E-09
0.3	0.9	3.90644872026983E-09
0.3	0.95	4.05258966037646E-09
0.3	1.0	4.20346627302828E-09
0.3	1.05	4.35925407021889E-09
0.3	1.1	4.52016209681622E-09
0.3	1.15	4.68638173678271E-09
0.3	1.2	4.85811887324411E-09
0.4	0.0	-2.53901556611951E-17
0.4	0.05	5.65743849601951E-08
0.4	0.1	6.40163539099844E-08
0.4	0.15	6.73538706251092E-08
0.4	0.2	7.05679235702409E-08
0.4	0.25	7.38075187339984E-08
0.4	0.3	7.70878896226857E-08
0.4	0.35	8.04205056207893E-08
0.4	0.4	8.38148416013413E-08
0.4	0.45	8.72790382105056E-08
0.4	0.5	9.08203454169822E-08
0.4	0.55	9.44431692007024E-08
0.4	0.6	9.81594475001391E-08
0.4	0.65	1.01969692250101E-07
0.4	0.7	1.05881941628248E-07
0.4	0.75	1.09900608047848E-07
0.4	0.8	1.14030646054128E-07
0.4	0.85	1.18277573402609E-07
0.4	0.9	1.22646530585302E-07
0.4	0.95	1.27142556816248E-07
0.4	1.0	1.31770677844766E-07
0.4	1.05	1.36535946559529E-07
0.4	1.1	1.41443432338675E-07
0.4	1.15	1.46498222998762E-07
0.4	1.2	1.51705489011811E-07
0.5	0.0	2.10814737420809E-17
0.5	0.05	1.46157455248633E-06
0.5	0.1	1.69563798140266E-06
0.5	0.15	1.78637865417704E-06
0.5	0.2	1.86804835383188E-06
0.5	0.25	1.94844869640840E-06
0.5	0.3	2.02841249912406E-06
0.5	0.35	2.10838911498790E-06
0.5	0.4	2.18870031616421E-06
0.5	0.45	2.26959295437742E-06
0.5	0.5	2.35125471376391E-06
0.5	0.55	2.43387827619577E-06
0.5	0.6	2.51757046796383E-06
0.5	0.65	2.60245909820002E-06
0.5	0.7	2.68864516928790E-06
0.5	0.75	2.77622166847231E-06
0.5	0.8	2.86527069714990E-06
0.5	0.85	2.95586706560666E-06
0.5	0.9	3.04807989975978E-06
0.5	0.95	3.14197134908708E-06
0.5	1.0	3.23760094045337E-06
0.5	1.05	3.33502410436197E-06
0.5	1.1	3.43429061518867E-06
0.5	1.15	3.53545034778572E-06
0.5	1.2	3.63854965626151E-06
0.6	0.0	-2.75367493453525E-17
0.6	0.05	1.27017030725918E-05
0.6	0.1	1.69974483524207E-05
0.6	0.15	1.82335425552487E-05
0.6	0.2	1.89039009303275E-05
0.6	0.25	1.94901206787507E-05
0.6	0.3	2.00466315085026E-05
0.6	0.35	2.05844190443039E-05
0.6	0.4	2.11086769200370E-05
0.6	0.45	2.16228485291528E-05
0.6	0.5	2.21296879419540E-05
0.6	0.55	2.26309177262170E-05
0.6	0.6	2.31280715816310E-05
0.6	0.65	2.36223834993755E-05
0.6	0.7	2.41147331870827E-05
0.6	0.75	2.46058884646890E-05
0.6	0.8	2.50964855238021E-05
0.6	0.85	2.55869921770752E-05
0.6	0.9	2.60778987564754E-05
0.6	0.95	2.65695489675098E-05
0.6	1.0	2.70622376914762E-05
0.6	1.05	2.75562806144566E-05
0.6	1.1	2.80518660630143E-05
0.6	1.15	2.85491919165479E-05
0.6	1.2	2.90484618669781E-05
0.7	0.0	5.68227199158821E-17
0.7	0.05	3.23767734788888E-05
0.7	0.1	5.12149983017526E-05
0.7	0.15	6.01957404465109E-05
0.7	0.2	6.39067821440599E-05
0.7	0.25	6.58306476237371E-05
0.7	0.3	6.73262862278524E-05
0.7	0.35	6.86812453336775E-05
0.7	0.4	6.99548712952286E-05
0.7	0.45	7.11696190811631E-05
0.7	0.5	7.23405821101286E-05
0.7	0.55	7.34765776986031E-05
0.7	0.6	7.45854573774051E-05
0.7	0.65	7.56723068997914E-05
0.7	0.7	7.67412997439630E-05
0.7	0.75	7.77953149212018E-05
0.7	0.8	7.88368542599218E-05
0.7	0.85	7.98678444979597E-05
0.7	0.9	8.08898740964214E-05
0.7	0.95	8.19042664079469E-05
0.7	1.0	8.29121361888772E-05
0.7	1.05	8.39144472379692E-05
0.7	1.1	8.49118735012964E-05
0.7	1.15	8.59052238261967E-05
0.7	1.2	8.68950519406888E-05
0.8	0.0	-7.99055437403160E-17
0.8	0.05	5.16690600840031E-05
0.8	0.1	8.84535636883535E-05
0.8	0.15	1.12274539906852E-04
0.8	0.2	1.25961864390143E-04
0.8	0.25	1.33025442865931E-04
0.8	0.3	1.36841791899599E-04
0.8	0.35	1.39520159928132E-04
0.8	0.4	1.41808684428735E-04
0.8	0.45	1.43898443861996E-04
0.8	0.5	1.45852891928484E-04
0.8	0.55	1.47708055606821E-04
0.8	0.6	1.49487657228789E-04
0.8	0.65	1.51208608181846E-04
0.8	0.7	1.52882514487814E-04
0.8	0.75	1.54517646108318E-04
0.8	0.8	1.56120594304049E-04
0.8	0.85	1.57695894381860E-04
0.8	0.9	1.59247548216390E-04
0.8	0.95	1.60778554507211E-04
0.8	1.0	1.62291382585107E-04
0.8	1.05	1.63788169644667E-04
0.8	1.1	1.65270621830463E-04
0.8	1.15	1.66740211566572E-04
0.8	1.2	1.68198159018213E-04
0.9	0.0	2.35836232736300E-17
0.9	0.05	6.86993168871954E-05
0.9	0.1	1.22340790512972E-04
0.9	0.15	1.62076873805899E-04
0.9	0.2	1.89667200370152E-04
0.9	0.25	2.07350372198813E-04
0.9	0.3	2.17818579290173E-04
0.9	0.35	2.23950492694349E-04
0.9	0.4	2.28071039092354E-04
0.9	0.45	2.31396713120351E-04
0.9	0.5	2.34341261573057E-04
0.9	0.55	2.37042440585832E-04
0.9	0.6	2.39569217347575E-04
0.9	0.65	2.41968408505095E-04
0.9	0.7	2.44270403442981E-04
0.9	0.75	2.46496048231843E-04
0.9	0.8	2.48659838564034E-04
0.9	0.85	2.50772150401510E-04
0.9	0.9	2.52840712163715E-04
0.9	0.95	2.54871302626612E-04
0.9	1.0	2.56869004593480E-04
0.9	1.05	2.58837411676900E-04
0.9	1.1	2.60779703554118E-04
0.9	1.15	2.62698470549714E-04
0.9	1.2	2.64596085961481E-04
1.0	0.0	-1.13474114677810E-17
1.0	0.05	8.33868598978786E-05
1.0	0.1	1.51963307946309E-04
1.0	0.15	2.06487805540453E-04
1.0	0.2	2.48197086127897E-04
1.0	0.25	2.78609210419739E-04
1.0	0.3	2.99531072435614E-04
1.0	0.35	3.13094654078913E-04
1.0	0.4	3.21663243701208E-04
1.0	0.45	3.27439788047485E-04
1.0	0.5	3.31908844258394E-04
1.0	0.55	3.35740647858274E-04
1.0	0.6	3.39191716664697E-04
1.0	0.65	3.42376568850648E-04
1.0	0.7	3.45369508105759E-04
1.0	0.75	3.48220434831434E-04
1.0	0.8	3.50962630957365E-04
1.0	0.85	3.53617835335990E-04
1.0	0.9	3.56201297532249E-04
1.0	0.95	3.58724393194096E-04
1.0	1.0	3.61195318242523E-04
1.0	1.05	3.63620819312040E-04
1.0	1.1	3.66006170113795E-04
1.0	1.15	3.68355404301334E-04
1.0	1.2	3.70671999045933E-04
1.1	0.0	8.22472634033629E-17
1.1	0.05	9.59801703229826E-05
1.1	0.1	1.77558143174865E-04
1.1	0.15	2.45269396657875E-04
1.1	0.2	3.00066675051015E-04
1.1	0.25	3.43084684312494E-04
1.1	0.3	3.75617652690256E-04
1.1	0.35	3.99154059389849E-04
1.1	0.4	4.15417080250607E-04
1.1	0.45	4.26345227797712E-04
1.1	0.5	4.33890146167424E-04
1.1	0.55	4.39603517708892E-04
1.1	0.6	4.44368732880447E-04
1.1	0.65	4.48578911623137E-04
1.1	0.7	4.52416093788192E-04
1.1	0.75	4.55986273799927E-04
1.1	0.8	4.59361933117340E-04
1.1	0.85	4.62591865986355E-04
1.1	0.9	4.65707597143530E-04
1.1	0.95	4.68731000560395E-04
1.1	1.0	4.71676761911049E-04
1.1	1.05	4.74555900086289E-04
1.1	1.1	4.77377360273410E-04
1.1	1.15	4.80147426094217E-04
1.1	1.2	4.82871800108306E-04
1.2	0.0	3.33233228223584E-17
1.2	0.05	1.06784713559075E-04
1.2	0.1	1.99620320585872E-04
1.2	0.15	2.78912487064390E-04
1.2	0.2	3.45450733275888E-04
1.2	0.25	4.00152881534865E-04
1.2	0.3	4.44023978925708E-04
1.2	0.35	4.78168533223526E-04
1.2	0.4	5.03826972298224E-04
1.2	0.45	5.22415981790106E-04
1.2	0.5	5.35535693632324E-04
1.2	0.55	5.44869439400940E-04
1.2	0.6	5.51907294948758E-04
1.2	0.65	5.57656778738762E-04
1.2	0.7	5.62646553973430E-04
1.2	0.75	5.67136892797523E-04
1.2	0.8	5.71276933656741E-04
1.2	0.85	5.75162621786194E-04
1.2	0.9	5.78860355194086E-04
1.2	0.95	5.82414379541658E-04
1.2	1.0	5.85852665761327E-04
1.2	1.05	5.89195838187459E-04
1.2	1.1	5.92457753672201E-04
1.2	1.15	5.95649061238736E-04
1.2	1.2	5.98778679030616E-04