vg	vd	ids
0.0	0.0	3.54866126554075E-17
0.0	0.05	1.56137371004258E-13
0.0	0.1	1.74264812436410E-13
0.0	0.15	1.79148969797311E-13
0.0	0.2	1.83510711770310E-13
0.0	0.25	1.87947071566419E-13
0.0	0.3	1.92459974812676E-13
0.0	0.35	1.97028523908226E-13
0.0	0.4	2.01635926172173E-13
0.0	0.45	2.06220546731247E-13
0.0	0.5	2.11000476234819E-13
0.0	0.55	2.15859067456204E-13
0.0	0.6	2.20696221488334E-13
0.0	0.65	2.25759461592692E-13
0.0	0.7	2.30777033717267E-13
0.0	0.75	2.35971329523874E-13
0.0	0.8	2.41181899235107E-13
0.0	0.85	2.46564653294341E-13
0.0	0.9	2.52108354995127E-13
0.0	0.95	2.57619098177653E-13
0.0	1.0	2.63303722838300E-13
0.0	1.05	2.69145217765410E-13
0.0	1.1	2.75098167584021E-13
0.0	1.15	2.81239792176969E-13
0.0	1.2	2.87330650185693E-13
0.1	0.0	-8.25588594228202E-18
0.1	0.05	5.47106352421280E-12
0.1	0.1	6.12489774493047E-12
0.1	0.15	6.30892347980006E-12
0.1	0.2	6.47224199230885E-12
0.1	0.25	6.63685487008784E-12
0.1	0.3	6.80309957769708E-12
0.1	0.35	6.97122793535072E-12
0.1	0.4	7.14153180754882E-12
0.1	0.45	7.31292800880721E-12
0.1	0.5	7.48861862477234E-12
0.1	0.55	7.66673088906093E-12
0.1	0.6	7.84733648946092E-12
0.1	0.65	8.03089735655295E-12
0.1	0.7	8.21778144176687E-12
0.1	0.75	8.40778382782295E-12
0.1	0.8	8.60120435531077E-12
0.1	0.85	8.79815523864815E-12
0.1	0.9	8.99874215162300E-12
0.1	0.95	9.20315138826225E-12
0.1	1.0	9.41158199553387E-12
0.1	1.05	9.62395145558647E-12
0.1	1.1	9.84068733479941E-12
0.1	1.15	1.00617213480568E-11
0.1	1.2	1.02873956391233E-11
0.2	0.0	1.51819425484247E-17
0.2	0.05	1.94974648002942E-10
0.2	0.1	2.19033800219939E-10
0.2	0.15	2.26008862202752E-10
0.2	0.2	2.32162421811815E-10
0.2	0.25	2.38340866956449E-10
0.2	0.3	2.44566750255569E-10
0.2	0.35	2.50851562151922E-10
0.2	0.4	2.57204719530266E-10
0.2	0.45	2.63634620178416E-10
0.2	0.5	2.70122497179594E-10
0.2	0.55	2.76742315729928E-10
0.2	0.6	2.83448733183292E-10
0.2	0.65	2.90253260505682E-10
0.2	0.7	2.97167590542477E-10
0.2	0.75	3.04195162853435E-10
0.2	0.8	3.11338309328594E-10
0.2	0.85	3.18604992741391E-10
0.2	0.9	3.25999793035473E-10
0.2	0.95	3.33526450729056E-10
0.2	1.0	3.41190624399815E-10
0.2	1.05	3.48997307272875E-10
0.2	1.1	3.56951008096392E-10
0.2	1.15	3.65056572426038E-10
0.2	1.2	3.73319122113413E-10
0.3	0.0	-3.15122067924689E-17
0.3	0.05	7.00300460288800E-09
0.3	0.1	7.89931736443142E-09
0.3	0.15	8.16651057382533E-09
0.3	0.2	8.39991131691625E-09
0.3	0.25	8.63290616443440E-09
0.3	0.3	8.86671724558769E-09
0.3	0.35	9.10196000764472E-09
0.3	0.4	9.33911244738347E-09
0.3	0.45	9.57784326014794E-09
0.3	0.5	9.82028022323002E-09
0.3	0.55	1.00654484159827E-08
0.3	0.6	1.03137486837387E-08
0.3	0.65	1.05653882533107E-08
0.3	0.7	1.08205827439237E-08
0.3	0.75	1.10795709310273E-08
0.3	0.8	1.13425553119885E-08
0.3	0.85	1.16097082102147E-08
0.3	0.9	1.18811968061611E-08
0.3	0.95	1.21571917657591E-08
0.3	1.0	1.24378568146185E-08
0.3	1.05	1.27233541806251E-08
0.3	1.1	1.30138451747228E-08
0.3	1.15	1.33094906033038E-08
0.3	1.2	1.36104518761071E-08
0.4	0.0	-2.43137791692487E-17
0.4	0.05	2.43727186242558E-07
0.4	0.1	2.77290173520049E-07
0.4	0.15	2.87342906336498E-07
0.4	0.2	2.95856455024578E-07
0.4	0.25	3.04245298194705E-07
0.4	0.3	3.12592022916095E-07
0.4	0.35	3.20935390848566E-07
0.4	0.4	3.29300045257793E-07
0.4	0.45	3.37712713341296E-07
0.4	0.5	3.46181674683032E-07
0.4	0.55	3.54722232512858E-07
0.4	0.6	3.63344511882679E-07
0.4	0.65	3.72057609758855E-07
0.4	0.7	3.80869440240341E-07
0.4	0.75	3.89787023870206E-07
0.4	0.8	3.98816723797671E-07
0.4	0.85	4.07964434701278E-07
0.4	0.9	4.17235646773982E-07
0.4	0.95	4.26635513132655E-07
0.4	1.0	4.36168986483537E-07
0.4	1.05	4.45840822428917E-07
0.4	1.1	4.55655605206559E-07
0.4	1.15	4.65617865024003E-07
0.4	1.2	4.75732035144270E-07
0.5	0.0	8.16694789401650E-18
0.5	0.05	5.05858031083740E-06
0.5	0.1	6.16827622558028E-06
0.5	0.15	6.43703219887964E-06
0.5	0.2	6.60908210914762E-06
0.5	0.25	6.76897040468833E-06
0.5	0.3	6.92365472115041E-06
0.5	0.35	7.07517042715848E-06
0.5	0.4	7.22459394655672E-06
0.5	0.45	7.37262939266446E-06
0.5	0.5	7.51978679626816E-06
0.5	0.55	7.66640475822751E-06
0.5	0.6	7.81273977573492E-06
0.5	0.65	7.95900258007518E-06
0.5	0.7	8.10535094969606E-06
0.5	0.75	8.25193015209028E-06
0.5	0.8	8.39885029295588E-06
0.5	0.85	8.54620833778510E-06
0.5	0.9	8.69409399924223E-06
0.5	0.95	8.84257291950966E-06
0.5	1.0	8.99171472148662E-06
0.5	1.05	9.14157832423432E-06
0.5	1.1	9.29221000012075E-06
0.5	1.15	9.44366093000018E-06
0.5	1.2	9.59597488664756E-06
0.6	0.0	1.22666894198791E-17
0.6	0.05	2.30944705708651E-05
0.6	0.1	3.46150747832919E-05
0.6	0.15	3.89107252885352E-05
0.6	0.2	4.03779318883750E-05
0.6	0.25	4.12184290190116E-05
0.6	0.3	4.19363705760807E-05
0.6	0.35	4.26052655923856E-05
0.6	0.4	4.32442278400936E-05
0.6	0.45	4.38634930278887E-05
0.6	0.5	4.44681154971881E-05
0.6	0.55	4.50613394326409E-05
0.6	0.6	4.56453456774657E-05
0.6	0.65	4.62217193658799E-05
0.6	0.7	4.67917335815021E-05
0.6	0.75	4.73562693967613E-05
0.6	0.8	4.79161731779201E-05
0.6	0.85	4.84720226498705E-05
0.6	0.9	4.90243663373282E-05
0.6	0.95	4.95736448982196E-05
0.6	1.0	5.01202522773182E-05
0.6	1.05	5.06645071010069E-05
0.6	1.1	5.12067017481241E-05
0.6	1.15	5.17471170155949E-05
0.6	1.2	5.22859373946172E-05
0.7	0.0	-1.55972059489953E-17
0.7	0.05	4.44232242201826E-05
0.7	0.1	7.51937301118761E-05
0.7	0.15	9.39769483642024E-05
0.7	0.2	1.03668208154155E-04
0.7	0.25	1.08012955256078E-04
0.7	0.3	1.10241638122834E-04
0.7	0.35	1.11873822149196E-04
0.7	0.4	1.13302887455238E-04
0.7	0.45	1.14629708050981E-04
0.7	0.5	1.15894129510434E-04
0.7	0.55	1.17114426649514E-04
0.7	0.6	1.18300841359416E-04
0.7	0.65	1.19459788893280E-04
0.7	0.7	1.20595771466957E-04
0.7	0.75	1.21711948768311E-04
0.7	0.8	1.22811095084312E-04
0.7	0.85	1.23894930109644E-04
0.7	0.9	1.24965302543825E-04
0.7	0.95	1.26023484525654E-04
0.7	1.0	1.27070616164457E-04
0.7	1.05	1.28107661440478E-04
0.7	1.1	1.29135527940991E-04
0.7	1.15	1.30154868922766E-04
0.7	1.2	1.31166275867037E-04
0.8	0.0	5.24551766417567E-18
0.8	0.05	6.33836992905977E-05
0.8	0.1	1.13305554088218E-04
0.8	0.15	1.50288475624303E-04
0.8	0.2	1.75557816982772E-04
0.8	0.25	1.91082332024180E-04
0.8	0.3	1.99605733929287E-04
0.8	0.35	2.04197921806491E-04
0.8	0.4	2.07168436086878E-04
0.8	0.45	2.09545660702728E-04
0.8	0.5	2.11661690709614E-04
0.8	0.55	2.13637395919724E-04
0.8	0.6	2.15522107276483E-04
0.8	0.65	2.17339872418515E-04
0.8	0.7	2.19104591543864E-04
0.8	0.75	2.20825343892596E-04
0.8	0.8	2.22508677648797E-04
0.8	0.85	2.24159459972274E-04
0.8	0.9	2.25781659950643E-04
0.8	0.95	2.27377968776745E-04
0.8	1.0	2.28951031155387E-04
0.8	1.05	2.30502788250057E-04
0.8	1.1	2.32035209824945E-04
0.8	1.15	2.33549560649364E-04
0.8	1.2	2.35047083854537E-04
0.9	0.0	1.23209255102681E-17
0.9	0.05	7.92330624068863E-05
0.9	0.1	1.45803630527330E-04
0.9	0.15	1.99780573728974E-04
0.9	0.2	2.41669854225821E-04
0.9	0.25	2.72388585864056E-04
0.9	0.3	2.93312181322006E-04
0.9	0.35	3.06423532469916E-04
0.9	0.4	3.14204671076852E-04
0.9	0.45	3.19084305900508E-04
0.9	0.5	3.22669695719056E-04
0.9	0.55	3.25686462409448E-04
0.9	0.6	3.28422040623174E-04
0.9	0.65	3.30992971993830E-04
0.9	0.7	3.33449604644692E-04
0.9	0.75	3.35819485512246E-04
0.9	0.8	3.38119382096756E-04
0.9	0.85	3.40360657936547E-04
0.9	0.9	3.42551280580561E-04
0.9	0.95	3.44697209748480E-04
0.9	1.0	3.46803532785917E-04
0.9	1.05	3.48873965829358E-04
0.9	1.1	3.50911672565567E-04
0.9	1.15	3.52919729834121E-04
0.9	1.2	3.54900282582119E-04
1.0	0.0	-2.13251344503735E-17
1.0	0.05	9.22633172418792E-05
1.0	0.1	1.72762569222242E-04
1.0	0.15	2.41393347626191E-04
1.0	0.2	2.98372929594915E-04
1.0	0.25	3.44133321418066E-04
1.0	0.3	3.79346382946559E-04
1.0	0.35	4.05018958610338E-04
1.0	0.4	4.22590047817343E-04
1.0	0.45	4.33966578516057E-04
1.0	0.5	4.41304577249128E-04
1.0	0.55	4.46452207696369E-04
1.0	0.6	4.50540237308472E-04
1.0	0.65	4.54111064996154E-04
1.0	0.7	4.57398970354581E-04
1.0	0.75	4.60504809744284E-04
1.0	0.8	4.63478035170310E-04
1.0	0.85	4.66347388686440E-04
1.0	0.9	4.69132242416525E-04
1.0	0.95	4.71844511123972E-04
1.0	1.0	4.74494685281951E-04
1.0	1.05	4.77089715798935E-04
1.0	1.1	4.79634395220319E-04
1.0	1.15	4.82134951896091E-04
1.0	1.2	4.84593923107948E-04
1.1	0.0	-7.78591340512014E-17
1.1	0.05	1.02971895064277E-04
1.1	0.1	1.95002025309743E-04
1.1	0.15	2.75934645694727E-04
1.1	0.2	3.45881253770608E-04
1.1	0.25	4.05078857966888E-04
1.1	0.3	4.53880198963871E-04
1.1	0.35	4.92797688316445E-04
1.1	0.4	5.22571401363079E-04
1.1	0.45	5.44257860533834E-04
1.1	0.5	5.59298726822530E-04
1.1	0.55	5.69465893948293E-04
1.1	0.6	5.76553095880674E-04
1.1	0.65	5.81945018765788E-04
1.1	0.7	5.86468061260209E-04
1.1	0.75	5.90528429130558E-04
1.1	0.8	5.94307462072189E-04
1.1	0.85	5.97891375251968E-04
1.1	0.9	6.01327720591200E-04
1.1	0.95	6.04645897699997E-04
1.1	1.0	6.07866732861618E-04
1.1	1.05	6.11003363233271E-04
1.1	1.1	6.14067159302906E-04
1.1	1.15	6.17066475191088E-04
1.1	1.2	6.20006644672620E-04
1.2	0.0	-3.72392677361852E-17
1.2	0.05	1.11835244436113E-04
1.2	0.1	2.13425380816718E-04
1.2	0.15	3.04614699858163E-04
1.2	0.2	3.85490958173899E-04
1.2	0.25	4.56224861359941E-04
1.2	0.3	5.17042120746110E-04
1.2	0.35	5.68235615459425E-04
1.2	0.4	6.10200150147065E-04
1.2	0.45	6.43487459079274E-04
1.2	0.5	6.68879015564719E-04
1.2	0.55	6.87458033503928E-04
1.2	0.6	7.00626983762784E-04
1.2	0.65	7.09967982802840E-04
1.2	0.7	7.16930552947087E-04
1.2	0.75	7.22563781271822E-04
1.2	0.8	7.27478579002824E-04
1.2	0.85	7.31974327423337E-04
1.2	0.9	7.36188630856522E-04
1.2	0.95	7.40198658647646E-04
1.2	1.0	7.44049740758244E-04
1.2	1.05	7.47771421150490E-04
1.2	1.1	7.51383919149053E-04
1.2	1.15	7.54903252229460E-04
1.2	1.2	7.58339148841849E-04