vg	vd	ids
0.0	0.0	-8.61550057233626E-18
0.0	0.05	6.35550111535095E-12
0.0	0.1	7.88801463395252E-12
0.0	0.15	9.51620415998500E-12
0.0	0.2	1.15519760973488E-11
0.0	0.25	1.41246147670216E-11
0.0	0.3	1.74089638872676E-11
0.0	0.35	2.16419567956661E-11
0.0	0.4	2.71472796181160E-11
0.0	0.45	3.43682766082311E-11
0.0	0.5	4.39093159690793E-11
0.0	0.55	5.66006055886974E-11
0.0	0.6	7.35670274607615E-11
0.0	0.65	9.63109123320269E-11
0.0	0.7	1.26964762017108E-10
0.0	0.75	1.68453116743495E-10
0.0	0.8	2.24737202398788E-10
0.0	0.85	3.01275236499377E-10
0.0	0.9	4.05467831371272E-10
0.0	0.95	5.47388065345042E-10
0.0	1.0	7.40707713286434E-10
0.0	1.05	1.00391932289649E-09
0.0	1.1	1.36188178139716E-09
0.0	1.15	1.84812829096735E-09
0.0	1.2	2.50746781010548E-09
0.1	0.0	-4.24905295515971E-17
0.1	0.05	1.44405698523925E-10
0.1	0.1	1.74323977186716E-10
0.1	0.15	2.02329944556772E-10
0.1	0.2	2.35069701193692E-10
0.1	0.25	2.73651723087427E-10
0.1	0.3	3.19448943388970E-10
0.1	0.35	3.74222434220096E-10
0.1	0.4	4.40235527612417E-10
0.1	0.45	5.20412345580555E-10
0.1	0.5	6.18532152086004E-10
0.1	0.55	7.39499257429424E-10
0.1	0.6	8.89747539723362E-10
0.1	0.65	1.07767757995261E-09
0.1	0.7	1.31411265774710E-09
0.1	0.75	1.61380918918078E-09
0.1	0.8	1.99516382526386E-09
0.1	0.85	2.48307664386565E-09
0.1	0.9	3.10925231516708E-09
0.1	0.95	3.91508302567740E-09
0.1	1.0	4.95354534900488E-09
0.1	1.05	6.29670277846223E-09
0.1	1.1	8.03781122026658E-09
0.1	1.15	1.02972604488290E-08
0.1	1.2	1.32310806551392E-08
0.2	0.0	-1.12837748614766E-17
0.2	0.05	3.63180991019260E-09
0.2	0.1	4.33819427097757E-09
0.2	0.15	4.93866722472755E-09
0.2	0.2	5.60920678723821E-09
0.2	0.25	6.36275345396068E-09
0.2	0.3	7.21327081792700E-09
0.2	0.35	8.17732785425641E-09
0.2	0.4	9.27498558429490E-09
0.2	0.45	1.05304985376284E-08
0.2	0.5	1.19734179386510E-08
0.2	0.55	1.36399352482781E-08
0.2	0.6	1.55744839792299E-08
0.2	0.65	1.78305676964910E-08
0.2	0.7	2.04796859487497E-08
0.2	0.75	2.36013769245087E-08
0.2	0.8	2.73017007760817E-08
0.2	0.85	3.17093030389306E-08
0.2	0.9	3.69858599967470E-08
0.2	0.95	4.33318392634160E-08
0.2	1.0	5.09971667366372E-08
0.2	1.05	6.02914320039178E-08
0.2	1.1	7.15976890514358E-08
0.2	1.15	8.53943531379013E-08
0.2	1.2	1.02272946834704E-07
0.3	0.0	6.83752680078992E-17
0.3	0.05	9.42523477137025E-08
0.3	0.1	1.12518808410924E-07
0.3	0.15	1.26803467226522E-07
0.3	0.2	1.42168185624528E-07
0.3	0.25	1.58832206393872E-07
0.3	0.3	1.76964968169026E-07
0.3	0.35	1.96749750786625E-07
0.3	0.4	2.18389425802796E-07
0.3	0.45	2.42112843060553E-07
0.3	0.5	2.68179209133566E-07
0.3	0.55	2.96884553899155E-07
0.3	0.6	3.28570339272677E-07
0.3	0.65	3.63629202453891E-07
0.3	0.7	4.02516381268571E-07
0.3	0.75	4.45759364026494E-07
0.3	0.8	4.93970539087073E-07
0.3	0.85	5.47864461805395E-07
0.3	0.9	6.08273366710102E-07
0.3	0.95	6.76169405106596E-07
0.3	1.0	7.52685607833950E-07
0.3	1.05	8.39140365108288E-07
0.3	1.1	9.37072946717156E-07
0.3	1.15	1.04827482973664E-06
0.3	1.2	1.17481908630159E-06
0.4	0.0	-3.19436948335755E-17
0.4	0.05	2.14966014304404E-06
0.4	0.1	2.59665861901598E-06
0.4	0.15	2.89091670335119E-06
0.4	0.2	3.18789098196946E-06
0.4	0.25	3.49453409080283E-06
0.4	0.3	3.81300546013500E-06
0.4	0.35	4.14488643869570E-06
0.4	0.4	4.49155436364971E-06
0.4	0.45	4.85425224338654E-06
0.4	0.5	5.23420944332693E-06
0.4	0.55	5.63264645295872E-06
0.4	0.6	6.05083364963819E-06
0.4	0.65	6.49008773110587E-06
0.4	0.7	6.95182401343154E-06
0.4	0.75	7.43753078712951E-06
0.4	0.8	7.94883540648566E-06
0.4	0.85	8.48748471624050E-06
0.4	0.9	9.05537018040178E-06
0.4	0.95	9.65456723573541E-06
0.4	1.0	1.02873197809232E-05
0.4	1.05	1.09560749566767E-05
0.4	1.1	1.16635287913456E-05
0.4	1.15	1.24125423609821E-05
0.4	1.2	1.32063084502352E-05
0.5	0.0	-6.10005711278991E-17
0.5	0.05	1.98372472886718E-05
0.5	0.1	2.63021438936630E-05
0.5	0.15	2.88578340076394E-05
0.5	0.2	3.08533639232746E-05
0.5	0.25	3.27312730642919E-05
0.5	0.3	3.45492686795074E-05
0.5	0.35	3.63309237901528E-05
0.5	0.4	3.80907531604587E-05
0.5	0.45	3.98387006895552E-05
0.5	0.5	4.15815069189238E-05
0.5	0.55	4.33248677804552E-05
0.5	0.6	4.50729841877319E-05
0.5	0.65	4.68295534815303E-05
0.5	0.7	4.85978129958453E-05
0.5	0.75	5.03806684130454E-05
0.5	0.8	5.21807972441107E-05
0.5	0.85	5.40009727500034E-05
0.5	0.9	5.58436002578858E-05
0.5	0.95	5.77112271427009E-05
0.5	1.0	5.96066067219785E-05
0.5	1.05	6.15322950559388E-05
0.5	1.1	6.34908446572516E-05
0.5	1.15	6.54854999106954E-05
0.5	1.2	6.75189793523972E-05
0.6	0.0	-9.91729746343855E-17
0.6	0.05	5.38140635406085E-05
0.6	0.1	8.37868595589087E-05
0.6	0.15	9.76879368356294E-05
0.6	0.2	1.04405914853686E-04
0.6	0.25	1.09160918056862E-04
0.6	0.3	1.13328223551485E-04
0.6	0.35	1.17180892494819E-04
0.6	0.4	1.20825323850282E-04
0.6	0.45	1.24322215084745E-04
0.6	0.5	1.27710519259028E-04
0.6	0.55	1.31015357894091E-04
0.6	0.6	1.34256016172202E-04
0.6	0.65	1.37446030757820E-04
0.6	0.7	1.40596183142449E-04
0.6	0.75	1.43716004169596E-04
0.6	0.8	1.46812400611281E-04
0.6	0.85	1.49892352331164E-04
0.6	0.9	1.52961932841717E-04
0.6	0.95	1.56025613082202E-04
0.6	1.0	1.59088214714323E-04
0.6	1.05	1.62155480483437E-04
0.6	1.1	1.65230479895098E-04
0.6	1.15	1.68318137545659E-04
0.6	1.2	1.71422214761029E-04
0.7	0.0	1.13644690829070E-16
0.7	0.05	8.67738694927661E-05
0.7	0.1	1.47400758758464E-04
0.7	0.15	1.85621819576542E-04
0.7	0.2	2.07222330204085E-04
0.7	0.25	2.19175500216632E-04
0.7	0.3	2.27156482180131E-04
0.7	0.35	2.33679713977151E-04
0.7	0.4	2.39471522212553E-04
0.7	0.45	2.44805911024484E-04
0.7	0.5	2.49828422792349E-04
0.7	0.55	2.54624433559732E-04
0.7	0.6	2.59249947199081E-04
0.7	0.65	2.63740665518379E-04
0.7	0.7	2.68122793090996E-04
0.7	0.75	2.72416780958093E-04
0.7	0.8	2.76638571658609E-04
0.7	0.85	2.80801170435425E-04
0.7	0.9	2.84914017615149E-04
0.7	0.95	2.88989035550708E-04
0.7	1.0	2.93032762154338E-04
0.7	1.05	2.97052103855770E-04
0.7	1.1	3.01054112227152E-04
0.7	1.15	3.05046354383591E-04
0.7	1.2	3.09033490942552E-04
0.8	0.0	-1.02827645710150E-16
0.8	0.05	1.14622951321203E-04
0.8	0.1	2.03443822363692E-04
0.8	0.15	2.68417425797843E-04
0.8	0.2	3.12835796585780E-04
0.8	0.25	3.41086721702754E-04
0.8	0.3	3.58472685491428E-04
0.8	0.35	3.70071394746867E-04
0.8	0.4	3.79058061050338E-04
0.8	0.45	3.86732012612720E-04
0.8	0.5	3.93616942659720E-04
0.8	0.55	3.99991156004066E-04
0.8	0.6	4.06011176217178E-04
0.8	0.65	4.11769255507053E-04
0.8	0.7	4.17322984690380E-04
0.8	0.75	4.22716167193173E-04
0.8	0.8	4.27975956127246E-04
0.8	0.85	4.33126202769216E-04
0.8	0.9	4.38188164108901E-04
0.8	0.95	4.43170992907726E-04
0.8	1.0	4.48091588289138E-04
0.8	1.05	4.52962572599139E-04
0.8	1.1	4.57787212146823E-04
0.8	1.15	4.62578742598834E-04
0.8	1.2	4.67345677915779E-04
0.9	0.0	5.77189492286322E-18
0.9	0.05	1.37480397861491E-04
0.9	0.1	2.50288044227435E-04
0.9	0.15	3.39536716431566E-04
0.9	0.2	4.07312400969399E-04
0.9	0.25	4.56343936339121E-04
0.9	0.3	4.90043334289641E-04
0.9	0.35	5.12490732517825E-04
0.9	0.4	5.27903058139308E-04
0.9	0.45	5.39523810300945E-04
0.9	0.5	5.49123776888400E-04
0.9	0.55	5.57529101264180E-04
0.9	0.6	5.65173317633934E-04
0.9	0.65	5.72312095553605E-04
0.9	0.7	5.79089759144923E-04
0.9	0.75	5.85593797301476E-04
0.9	0.8	5.91883758895875E-04
0.9	0.85	5.97998138507933E-04
0.9	0.9	6.03971919441559E-04
0.9	0.95	6.09823175515535E-04
0.9	1.0	6.15575744028545E-04
0.9	1.05	6.21245635063967E-04
0.9	1.1	6.26842984216644E-04
0.9	1.15	6.32381879459356E-04
0.9	1.2	6.37873059637805E-04
1.0	0.0	5.98732904464795E-17
1.0	0.05	1.56139818548304E-04
1.0	0.1	2.88900786431582E-04
1.0	0.15	3.98988435017879E-04
1.0	0.2	4.87886230002530E-04
1.0	0.25	5.57460770117524E-04
1.0	0.3	6.09955067531776E-04
1.0	0.35	6.48072979513338E-04
1.0	0.4	6.75008381970660E-04
1.0	0.45	6.94185380816195E-04
1.0	0.5	7.08588819065184E-04
1.0	0.55	7.20216642212065E-04
1.0	0.6	7.30181026916495E-04
1.0	0.65	7.39093315305239E-04
1.0	0.7	7.47315116708660E-04
1.0	0.75	7.55061775567081E-04
1.0	0.8	7.62455235311208E-04
1.0	0.85	7.69576478364625E-04
1.0	0.9	7.76480785726400E-04
1.0	0.95	7.83207551304621E-04
1.0	1.0	7.89785990201990E-04
1.0	1.05	7.96240709233476E-04
1.0	1.1	8.02594910836933E-04
1.0	1.15	8.08859500620179E-04
1.0	1.2	8.15051149224476E-04
1.1	0.0	2.76599094276350E-18
1.1	0.05	1.71429803851935E-04
1.1	0.1	3.20702303716684E-04
1.1	0.15	4.48332383777599E-04
1.1	0.2	5.55503719662392E-04
1.1	0.25	6.43636851003148E-04
1.1	0.3	7.14340997868010E-04
1.1	0.35	7.69464497868016E-04
1.1	0.4	8.11179414796407E-04
1.1	0.45	8.42017960170747E-04
1.1	0.5	8.64751919343255E-04
1.1	0.55	8.81995650125551E-04
1.1	0.6	8.95767456234996E-04
1.1	0.65	9.07365315686942E-04
1.1	0.7	9.17585660345826E-04
1.1	0.75	9.26906281390596E-04
1.1	0.8	9.35610894933325E-04
1.1	0.85	9.43874000408753E-04
1.1	0.9	9.51798595614243E-04
1.1	0.95	9.59457288101721E-04
1.1	1.0	9.66899267150615E-04
1.1	1.05	9.74166331831668E-04
1.1	1.1	9.81284989508594E-04
1.1	1.15	9.88280324303602E-04
1.1	1.2	9.95173968945591E-04
1.2	0.0	3.66477407094374E-18
1.2	0.05	1.84061832965806E-04
1.2	0.1	3.47034745475136E-04
1.2	0.15	4.89353798112816E-04
1.2	0.2	6.12060540454351E-04
1.2	0.25	7.16350193350661E-04
1.2	0.3	8.03497624929818E-04
1.2	0.35	8.74875450082416E-04
1.2	0.4	9.32016886676588E-04
1.2	0.45	9.76678028201620E-04
1.2	0.5	1.01089358189942E-03
1.2	0.55	1.03690576743383E-03
1.2	0.6	1.05695728115640E-03
1.2	0.65	1.07295485585246E-03
1.2	0.7	1.08628023352885E-03
1.2	0.75	1.09787176542489E-03
1.2	0.8	1.10832700729706E-03
1.2	0.85	1.11801047919761E-03
1.2	0.9	1.12714896889537E-03
1.2	0.95	1.13586997686920E-03
1.2	1.0	1.14427231582753E-03
1.2	1.05	1.15241632557039E-03
1.2	1.1	1.16035031037880E-03
1.2	1.15	1.16811254702174E-03
1.2	1.2	1.17573118520402E-03