vg	vd	ids
0.0	0.0	-6.72561088426389E-17
0.0	0.05	1.40524539436861E-11
0.0	0.1	1.90498201874925E-11
0.0	0.15	2.52761266535375E-11
0.0	0.2	3.38626046141411E-11
0.0	0.25	4.58004819563998E-11
0.0	0.3	6.25037271852126E-11
0.0	0.35	8.59388222239541E-11
0.0	0.4	1.18991465898133E-10
0.0	0.45	1.65814732341937E-10
0.0	0.5	2.32277815433557E-10
0.0	0.55	3.26773455370071E-10
0.0	0.6	4.61164067815864E-10
0.0	0.65	6.52181340717273E-10
0.0	0.7	9.23342574887866E-10
0.0	0.75	1.30740985176663E-09
0.0	0.8	1.85103742691880E-09
0.0	0.85	2.61722418750967E-09
0.0	0.9	3.69424096744418E-09
0.0	0.95	5.20296137167268E-09
0.0	1.0	7.30853094115947E-09
0.0	1.05	1.02349747113944E-08
0.0	1.1	1.42852378437041E-08
0.0	1.15	1.98650018461429E-08
0.0	1.2	2.75154272536785E-08
0.1	0.0	-1.76083771928275E-17
0.1	0.05	2.33364594910806E-10
0.1	0.1	2.98244308439384E-10
0.1	0.15	3.68135192645274E-10
0.1	0.2	4.56335864303925E-10
0.1	0.25	5.68728757069099E-10
0.1	0.3	7.13206733142695E-10
0.1	0.35	9.00407047300070E-10
0.1	0.4	1.14482906367302E-09
0.1	0.45	1.46614651659811E-09
0.1	0.5	1.89092090075920E-09
0.1	0.55	2.45525748569768E-09
0.1	0.6	3.20758745734804E-09
0.1	0.65	4.21126439209438E-09
0.1	0.7	5.55484532242677E-09
0.1	0.75	7.35982142557020E-09
0.1	0.8	9.78490833088659E-09
0.1	0.85	1.30442385388330E-08
0.1	0.9	1.74224315020183E-08
0.1	0.95	2.32981366846587E-08
0.1	1.0	3.11670989804265E-08
0.1	1.05	4.16823212754410E-08
0.1	1.1	5.56921274209670E-08
0.1	1.15	7.42963916478314E-08
0.1	1.2	9.89097604321642E-08
0.2	0.0	-5.62809758729396E-17
0.2	0.05	4.77493162326871E-09
0.2	0.1	5.93560317152543E-09
0.2	0.15	7.03932824737186E-09
0.2	0.2	8.33553615140268E-09
0.2	0.25	9.86940081025438E-09
0.2	0.3	1.16954683418988E-08
0.2	0.35	1.38826776274912E-08
0.2	0.4	1.65187101869823E-08
0.2	0.45	1.97149333163988E-08
0.2	0.5	2.36137889670207E-08
0.2	0.55	2.83971917803949E-08
0.2	0.6	3.42958991714158E-08
0.2	0.65	4.16111123678195E-08
0.2	0.7	5.07179759669402E-08
0.2	0.75	6.21108473874271E-08
0.2	0.8	7.64015048681256E-08
0.2	0.85	9.43739970933365E-08
0.2	0.9	1.17025349603475E-07
0.2	0.95	1.45591172206719E-07
0.2	1.0	1.81585685424323E-07
0.2	1.05	2.26926900486227E-07
0.2	1.1	2.84070287442902E-07
0.2	1.15	3.55986560804783E-07
0.2	1.2	4.46341109599357E-07
0.3	0.0	1.70473500052324E-17
0.3	0.05	1.06023489460124E-07
0.3	0.1	1.30660767828629E-07
0.3	0.15	1.51781347958990E-07
0.3	0.2	1.75259939179963E-07
0.3	0.25	2.01555201190062E-07
0.3	0.3	2.31105445433371E-07
0.3	0.35	2.64414513693960E-07
0.3	0.4	3.02072624253192E-07
0.3	0.45	3.44774468847996E-07
0.3	0.5	3.93338419811777E-07
0.3	0.55	4.48736665993890E-07
0.3	0.6	5.12125961487562E-07
0.3	0.65	5.84880633010307E-07
0.3	0.7	6.68655143389985E-07
0.3	0.75	7.65351451940732E-07
0.3	0.8	8.77318861425076E-07
0.3	0.85	1.00726351340958E-06
0.3	0.9	1.15841507618199E-06
0.3	0.95	1.33454520356274E-06
0.3	1.0	1.54005651086907E-06
0.3	1.05	1.78005168257520E-06
0.3	1.1	2.06044609216380E-06
0.3	1.15	2.38788008593068E-06
0.3	1.2	2.76999071735704E-06
0.4	0.0	-7.58733767207839E-17
0.4	0.05	2.10623261395504E-06
0.4	0.1	2.61220162812882E-06
0.4	0.15	2.97469657797326E-06
0.4	0.2	3.34816585268268E-06
0.4	0.25	3.74064434847701E-06
0.4	0.3	4.15496083884443E-06
0.4	0.35	4.59344681660810E-06
0.4	0.4	5.05826641693517E-06
0.4	0.45	5.55166484579590E-06
0.4	0.5	6.07592412121123E-06
0.4	0.55	6.63355686955700E-06
0.4	0.6	7.22715077477743E-06
0.4	0.65	7.85973971266836E-06
0.4	0.7	8.53441748167157E-06
0.4	0.75	9.25482913280329E-06
0.4	0.8	1.00248295171184E-05
0.4	0.85	1.08487090414318E-05
0.4	0.9	1.17312015863898E-05
0.4	0.95	1.26773752298391E-05
0.4	1.0	1.36928824438937E-05
0.4	1.05	1.47836915723404E-05
0.4	1.1	1.59562700938120E-05
0.4	1.15	1.72174499915986E-05
0.4	1.2	1.85744428840916E-05
0.5	0.0	1.07511995673571E-16
0.5	0.05	1.79281230572151E-05
0.5	0.1	2.40838239801524E-05
0.5	0.15	2.68204354652408E-05
0.5	0.2	2.90482561673702E-05
0.5	0.25	3.11700287556176E-05
0.5	0.3	3.32427320377980E-05
0.5	0.35	3.52894639897455E-05
0.5	0.4	3.73240749113466E-05
0.5	0.45	3.93571127775289E-05
0.5	0.5	4.13962296078369E-05
0.5	0.55	4.34478017320430E-05
0.5	0.6	4.55174480550310E-05
0.5	0.65	4.76103115417860E-05
0.5	0.7	4.97311463321182E-05
0.5	0.75	5.18846085533805E-05
0.5	0.8	5.40756827713751E-05
0.5	0.85	5.63090319425726E-05
0.5	0.9	5.85896715453900E-05
0.5	0.95	6.09229943270129E-05
0.5	1.0	6.33141669148699E-05
0.5	1.05	6.57689409194212E-05
0.5	1.1	6.82932397508104E-05
0.5	1.15	7.08930540879969E-05
0.5	1.2	7.35739966020383E-05
0.6	0.0	8.24508235049802E-17
0.6	0.05	4.84593575172780E-05
0.6	0.1	7.54352675554201E-05
0.6	0.15	8.83387812134714E-05
0.6	0.2	9.51395280639882E-05
0.6	0.25	1.00237021240908E-04
0.6	0.3	1.04784885953492E-04
0.6	0.35	1.09029127835260E-04
0.6	0.4	1.13066848000988E-04
0.6	0.45	1.16956554804617E-04
0.6	0.5	1.20737203902412E-04
0.6	0.55	1.24436603497478E-04
0.6	0.6	1.28075314075358E-04
0.6	0.65	1.31669176073002E-04
0.6	0.7	1.35232299063312E-04
0.6	0.75	1.38775272369461E-04
0.6	0.8	1.42308779862734E-04
0.6	0.85	1.45841826197157E-04
0.6	0.9	1.49383191870577E-04
0.6	0.95	1.52940476863855E-04
0.6	1.0	1.56522872931513E-04
0.6	1.05	1.60136883825978E-04
0.6	1.1	1.63790661373890E-04
0.6	1.15	1.67491550792386E-04
0.6	1.2	1.71246754179379E-04
0.7	0.0	2.19070164472522E-17
0.7	0.05	7.89215089474650E-05
0.7	0.1	1.33647916416467E-04
0.7	0.15	1.68060209816177E-04
0.7	0.2	1.87839650353925E-04
0.7	0.25	1.99434661122895E-04
0.7	0.3	2.07699758038463E-04
0.7	0.35	2.14671065832933E-04
0.7	0.4	2.20952359057281E-04
0.7	0.45	2.26779268274998E-04
0.7	0.5	2.32283076841380E-04
0.7	0.55	2.37550465334786E-04
0.7	0.6	2.42638197776512E-04
0.7	0.65	2.47586833401762E-04
0.7	0.7	2.52427935058237E-04
0.7	0.75	2.57183231283815E-04
0.7	0.8	2.61873537763362E-04
0.7	0.85	2.66514723199336E-04
0.7	0.9	2.71121223832192E-04
0.7	0.95	2.75705720495111E-04
0.7	1.0	2.80280950837953E-04
0.7	1.05	2.84855507473139E-04
0.7	1.1	2.89442379633761E-04
0.7	1.15	2.94051310435378E-04
0.7	1.2	2.98686909918365E-04
0.8	0.0	-6.34753177622599E-17
0.8	0.05	1.05420263133754E-04
0.8	0.1	1.86408308454864E-04
0.8	0.15	2.45181573007353E-04
0.8	0.2	2.85211534091371E-04
0.8	0.25	3.10908423263697E-04
0.8	0.3	3.27323795417118E-04
0.8	0.35	3.38933153179182E-04
0.8	0.4	3.48326666101655E-04
0.8	0.45	3.56530826118184E-04
0.8	0.5	3.63974256401016E-04
0.8	0.55	3.70897202900894E-04
0.8	0.6	3.77444781126370E-04
0.8	0.65	3.83715042568667E-04
0.8	0.7	3.89772501261051E-04
0.8	0.75	3.95662722444649E-04
0.8	0.8	4.01419591054053E-04
0.8	0.85	4.07073845447917E-04
0.8	0.9	4.12646593085047E-04
0.8	0.95	4.18154494551335E-04
0.8	1.0	4.23619338054182E-04
0.8	1.05	4.29054649956270E-04
0.8	1.1	4.34469629235414E-04
0.8	1.15	4.39883206624042E-04
0.8	1.2	4.45302599586634E-04
0.9	0.0	7.87348463232184E-17
0.9	0.05	1.27822177027776E-04
0.9	0.1	2.31812121211692E-04
0.9	0.15	3.13346435893937E-04
0.9	0.2	3.74759190694790E-04
0.9	0.25	4.18975843764455E-04
0.9	0.3	4.49514684109093E-04
0.9	0.35	4.70366115942601E-04
0.9	0.4	4.85359606392883E-04
0.9	0.45	4.97204601713609E-04
0.9	0.5	5.07297164195936E-04
0.9	0.55	5.16278977170780E-04
0.9	0.6	5.24507111519291E-04
0.9	0.65	5.32211543671792E-04
0.9	0.7	5.39533633131366E-04
0.9	0.75	5.46572693823262E-04
0.9	0.8	5.53387372242998E-04
0.9	0.85	5.60028921820222E-04
0.9	0.9	5.66533113910316E-04
0.9	0.95	5.72926403515760E-04
0.9	1.0	5.79236435787720E-04
0.9	1.05	5.85480786649447E-04
0.9	1.1	5.91681252693694E-04
0.9	1.15	5.97848759461439E-04
0.9	1.2	6.04001077803640E-04
1.0	0.0	2.73201730796267E-17
1.0	0.05	1.46627948375779E-04
1.0	0.1	2.70314492159677E-04
1.0	0.15	3.71971798381961E-04
1.0	0.2	4.53312496617419E-04
1.0	0.25	5.16437005646986E-04
1.0	0.3	5.63803031544294E-04
1.0	0.35	5.98266954106632E-04
1.0	0.4	6.23029416104660E-04
1.0	0.45	6.41290901839225E-04
1.0	0.5	6.55614841602929E-04
1.0	0.55	6.67598345308005E-04
1.0	0.6	6.78099614432453E-04
1.0	0.65	6.87593994161810E-04
1.0	0.7	6.96392729082586E-04
1.0	0.75	7.04701479812565E-04
1.0	0.8	7.12644713119654E-04
1.0	0.85	7.20314341400287E-04
1.0	0.9	7.27767055154447E-04
1.0	0.95	7.35051721723836E-04
1.0	1.0	7.42201326440457E-04
1.0	1.05	7.49246527305158E-04
1.0	1.1	7.56211870001684E-04
1.0	1.15	7.63115799528164E-04
1.0	1.2	7.69978149733681E-04
1.1	0.0	4.25110444602531E-17
1.1	0.05	1.62424001184072E-04
1.1	0.1	3.02854226623003E-04
1.1	0.15	4.21942540502191E-04
1.1	0.2	5.21046866121750E-04
1.1	0.25	6.01794965978600E-04
1.1	0.3	6.66017532052914E-04
1.1	0.35	7.15786067964105E-04
1.1	0.4	7.53445539803845E-04
1.1	0.45	7.81602660085954E-04
1.1	0.5	8.02915302486624E-04
1.1	0.55	8.19698461410891E-04
1.1	0.6	8.33599065295421E-04
1.1	0.65	8.45623552901506E-04
1.1	0.7	8.56383680107627E-04
1.1	0.75	8.66265198914133E-04
1.1	0.8	8.75531427211660E-04
1.1	0.85	8.84349510419653E-04
1.1	0.9	8.92834136108026E-04
1.1	0.95	9.01061741644625E-04
1.1	1.0	9.09084907840311E-04
1.1	1.05	9.16951931893732E-04
1.1	1.1	9.24693935426902E-04
1.1	1.15	9.32338318897981E-04
1.1	1.2	9.39910235770130E-04
1.2	0.0	-1.36297173681673E-16
1.2	0.05	1.75750365459159E-04
1.2	0.1	3.30406535871172E-04
1.2	0.15	4.64477050052490E-04
1.2	0.2	5.79116614966228E-04
1.2	0.25	6.75677291383528E-04
1.2	0.3	7.55618648027574E-04
1.2	0.35	8.20529801035774E-04
1.2	0.4	8.72155488217386E-04
1.2	0.45	9.12443236335486E-04
1.2	0.5	9.43534792715856E-04
1.2	0.55	9.67644170057166E-04
1.2	0.6	9.86817333174801E-04
1.2	0.65	1.00264853510142E-03
1.2	0.7	1.01622653211664E-03
1.2	0.75	1.02826527752197E-03
1.2	0.8	1.03924062098266E-03
1.2	0.85	1.04946414264142E-03
1.2	0.9	1.05915150296893E-03
1.2	0.95	1.06843928416904E-03
1.2	1.0	1.07742321442796E-03
1.2	1.05	1.08617045892540E-03
1.2	1.1	1.09473136309163E-03
1.2	1.15	1.10314968623509E-03
1.2	1.2	1.11145578953543E-03