vg	vd	ids
0.0	0.0	8.49220806392540E-18
0.0	0.05	2.93749908602642E-13
0.0	0.1	3.56317063328429E-13
0.0	0.15	3.97067979228636E-13
0.0	0.2	4.40364330763864E-13
0.0	0.25	4.88274765499374E-13
0.0	0.3	5.41383241953196E-13
0.0	0.35	6.00358928605905E-13
0.0	0.4	6.66093152156327E-13
0.0	0.45	7.39265183941612E-13
0.0	0.5	8.21198154757568E-13
0.0	0.55	9.12988469154571E-13
0.0	0.6	1.01579098973623E-12
0.0	0.65	1.13234435929162E-12
0.0	0.7	1.26315845907257E-12
0.0	0.75	1.41221931404696E-12
0.0	0.8	1.58188497993374E-12
0.0	0.85	1.77444214251805E-12
0.0	0.9	1.99712221115888E-12
0.0	0.95	2.25181102917431E-12
0.0	1.0	2.54702279170967E-12
0.0	1.05	2.89029128421101E-12
0.0	1.1	3.29192711930029E-12
0.0	1.15	3.76219670364040E-12
0.0	1.2	4.31669304935875E-12
0.1	0.0	1.12112386777807E-17
0.1	0.05	8.30658233097829E-12
0.1	0.1	1.00640830020971E-11
0.1	0.15	1.11699363933414E-11
0.1	0.2	1.23235205456735E-11
0.1	0.25	1.35820770678098E-11
0.1	0.3	1.49582961846027E-11
0.1	0.35	1.64648090668558E-11
0.1	0.4	1.81135336560037E-11
0.1	0.45	1.99232482560885E-11
0.1	0.5	2.19169865028395E-11
0.1	0.55	2.40938820716913E-11
0.1	0.6	2.65054430172599E-11
0.1	0.65	2.91699342452611E-11
0.1	0.7	3.20942411666203E-11
0.1	0.75	3.53451029176915E-11
0.1	0.8	3.89252150029107E-11
0.1	0.85	4.29228315650157E-11
0.1	0.9	4.73478305734140E-11
0.1	0.95	5.22924657370417E-11
0.1	1.0	5.78070184473810E-11
0.1	1.05	6.39799913551012E-11
0.1	1.1	7.09100050145433E-11
0.1	1.15	7.87087332989871E-11
0.1	1.2	8.75130521617030E-11
0.2	0.0	-7.98880831283137E-18
0.2	0.05	2.38438380936486E-10
0.2	0.1	2.89178486678259E-10
0.2	0.15	3.20325437908412E-10
0.2	0.2	3.52286912583588E-10
0.2	0.25	3.86755238732159E-10
0.2	0.3	4.24025212732186E-10
0.2	0.35	4.64286162741014E-10
0.2	0.4	5.07911316346132E-10
0.2	0.45	5.55444886816151E-10
0.2	0.5	6.06839573584494E-10
0.2	0.55	6.62439274248153E-10
0.2	0.6	7.22996531893408E-10
0.2	0.65	7.89075829407723E-10
0.2	0.7	8.60537798749279E-10
0.2	0.75	9.38624876641120E-10
0.2	0.8	1.02344629117877E-09
0.2	0.85	1.11595216232613E-09
0.2	0.9	1.21687606353687E-09
0.2	0.95	1.32700643977564E-09
0.2	1.0	1.44736638864844E-09
0.2	1.05	1.57901989520714E-09
0.2	1.1	1.72320641734298E-09
0.2	1.15	1.88130248391256E-09
0.2	1.2	2.05488425943258E-09
0.3	0.0	8.27185064310876E-18
0.3	0.05	6.83406154919649E-09
0.3	0.1	8.31701287585619E-09
0.3	0.15	9.20925507139943E-09
0.3	0.2	1.01081001058124E-08
0.3	0.25	1.10653338375559E-08
0.3	0.3	1.20886833266786E-08
0.3	0.35	1.31802520975200E-08
0.3	0.4	1.43585406454149E-08
0.3	0.45	1.56133261420503E-08
0.3	0.5	1.69651976222622E-08
0.3	0.55	1.84199990404252E-08
0.3	0.6	1.99770125056168E-08
0.3	0.65	2.16512028464903E-08
0.3	0.7	2.34485771613813E-08
0.3	0.75	2.53805393348386E-08
0.3	0.8	2.74571570304706E-08
0.3	0.85	2.96891936160185E-08
0.3	0.9	3.20891293281116E-08
0.3	0.95	3.46701514691547E-08
0.3	1.0	3.74466237260323E-08
0.3	1.05	4.04341428074214E-08
0.3	1.1	4.36496997390730E-08
0.3	1.15	4.71118656566757E-08
0.3	1.2	5.08409085852154E-08
0.4	0.0	-1.06675998131772E-17
0.4	0.05	1.84815522388173E-07
0.4	0.1	2.27063878098815E-07
0.4	0.15	2.51388255435990E-07
0.4	0.2	2.75013888944955E-07
0.4	0.25	2.99615411401589E-07
0.4	0.3	3.25388668724987E-07
0.4	0.35	3.52490034012114E-07
0.4	0.4	3.81199066999201E-07
0.4	0.45	4.11351708769541E-07
0.4	0.5	4.43282037094482E-07
0.4	0.55	4.76942645105924E-07
0.4	0.6	5.12520512690091E-07
0.4	0.65	5.50098092479253E-07
0.4	0.7	5.89786877018094E-07
0.4	0.75	6.31693064936448E-07
0.4	0.8	6.75936461475100E-07
0.4	0.85	7.22632765619832E-07
0.4	0.9	7.71903338119120E-07
0.4	0.95	8.23874510806967E-07
0.4	1.0	8.78675706744140E-07
0.4	1.05	9.36443048496022E-07
0.4	1.1	9.97316457892369E-07
0.4	1.15	1.06144233022120E-06
0.4	1.2	1.12897339765189E-06
0.5	0.0	-3.01771253615322E-19
0.5	0.05	3.01556274876015E-06
0.5	0.1	3.91425820664923E-06
0.5	0.15	4.31626154872363E-06
0.5	0.2	4.64314000041841E-06
0.5	0.25	4.95960367318269E-06
0.5	0.3	5.27523236793916E-06
0.5	0.35	5.59343834323182E-06
0.5	0.4	5.91563315730155E-06
0.5	0.45	6.24304069056069E-06
0.5	0.5	6.57643112280762E-06
0.5	0.55	6.91641322859903E-06
0.5	0.6	7.26344027094941E-06
0.5	0.65	7.61788858686970E-06
0.5	0.7	7.98003390489357E-06
0.5	0.75	8.35014789161413E-06
0.5	0.8	8.72840775482874E-06
0.5	0.85	9.11503191885212E-06
0.5	0.9	9.51015490514310E-06
0.5	0.95	9.91394118796277E-06
0.5	1.0	1.03265330015356E-05
0.5	1.05	1.07480458864816E-05
0.5	1.1	1.11786286741061E-05
0.5	1.15	1.16183856099437E-05
0.5	1.2	1.20674491618420E-05
0.6	0.0	1.03117391316188E-18
0.6	0.05	1.32552106178174E-05
0.6	0.1	2.02329402152571E-05
0.6	0.15	2.34553237079651E-05
0.6	0.2	2.51617537332395E-05
0.6	0.25	2.64354024247858E-05
0.6	0.3	2.75804126842153E-05
0.6	0.35	2.86682242552677E-05
0.6	0.4	2.97236282406891E-05
0.6	0.45	3.07592043195703E-05
0.6	0.5	3.17830051777431E-05
0.6	0.55	3.27996112616426E-05
0.6	0.6	3.38125663248527E-05
0.6	0.65	3.48239855575460E-05
0.6	0.7	3.58357643690000E-05
0.6	0.75	3.68490449894342E-05
0.6	0.8	3.78649648522988E-05
0.6	0.85	3.88842397771480E-05
0.6	0.9	3.99075511491330E-05
0.6	0.95	4.09354068500635E-05
0.6	1.0	4.19683134726515E-05
0.6	1.05	4.30065084052356E-05
0.6	1.1	4.40504990111736E-05
0.6	1.15	4.51004182518767E-05
0.6	1.2	4.61565556017518E-05
0.7	0.0	-1.50479752854702E-17
0.7	0.05	2.63399266830481E-05
0.7	0.1	4.46911434451208E-05
0.7	0.15	5.63510048126686E-05
0.7	0.2	6.31722222799751E-05
0.7	0.25	6.71997442713271E-05
0.7	0.3	6.99906509085220E-05
0.7	0.35	7.22995801712038E-05
0.7	0.4	7.43882142802150E-05
0.7	0.45	7.63530562483807E-05
0.7	0.5	7.82401727286110E-05
0.7	0.55	8.00752751315680E-05
0.7	0.6	8.18729998544821E-05
0.7	0.65	8.36431435065735E-05
0.7	0.7	8.53921646217926E-05
0.7	0.75	8.71244551797429E-05
0.7	0.8	8.88439069849494E-05
0.7	0.85	9.05527591175929E-05
0.7	0.9	9.22533824511839E-05
0.7	0.95	9.39473571051863E-05
0.7	1.0	9.56359882884125E-05
0.7	1.05	9.73204014030391E-05
0.7	1.1	9.90017726919574E-05
0.7	1.15	1.00680677954057E-04
0.7	1.2	1.02357903870442E-04
0.8	0.0	8.99068803884928E-18
0.8	0.05	3.91933663268849E-05
0.8	0.1	6.98530735176922E-05
0.8	0.15	9.26704308080388E-05
0.8	0.2	1.08716615163034E-04
0.8	0.25	1.19401770469413E-04
0.8	0.3	1.26375987604226E-04
0.8	0.35	1.31207059295972E-04
0.8	0.4	1.34977848672681E-04
0.8	0.45	1.38225925229188E-04
0.8	0.5	1.41184525103196E-04
0.8	0.55	1.43968425336246E-04
0.8	0.6	1.46637861263089E-04
0.8	0.65	1.49226663939952E-04
0.8	0.7	1.51754411899642E-04
0.8	0.75	1.54234802028609E-04
0.8	0.8	1.56676545885562E-04
0.8	0.85	1.59086065213183E-04
0.8	0.9	1.61468807188852E-04
0.8	0.95	1.63828262646252E-04
0.8	1.0	1.66167707577547E-04
0.8	1.05	1.68489602198838E-04
0.8	1.1	1.70796108401666E-04
0.8	1.15	1.73088612516758E-04
0.8	1.2	1.75369226192210E-04
0.9	0.0	-3.53945507027676E-17
0.9	0.05	5.11724899514761E-05
0.9	0.1	9.36629444774572E-05
0.9	0.15	1.27865109863737E-04
0.9	0.2	1.54457718410105E-04
0.9	0.25	1.74343417565484E-04
0.9	0.3	1.88652117361185E-04
0.9	0.35	1.98713726560080E-04
0.9	0.4	2.05913805567628E-04
0.9	0.45	2.11420497086918E-04
0.9	0.5	2.15990502744003E-04
0.9	0.55	2.20028131416543E-04
0.9	0.6	2.23745126980881E-04
0.9	0.65	2.27259285452871E-04
0.9	0.7	2.30633968414604E-04
0.9	0.75	2.33906235915210E-04
0.9	0.8	2.37098508208997E-04
0.9	0.85	2.40225875304669E-04
0.9	0.9	2.43299123926033E-04
0.9	0.95	2.46326460189391E-04
0.9	1.0	2.49314250023833E-04
0.9	1.05	2.52266440495454E-04
0.9	1.1	2.55187805602330E-04
0.9	1.15	2.58081491027218E-04
0.9	1.2	2.60949564057212E-04
1.0	0.0	3.66458038384799E-18
1.0	0.05	6.21311974772818E-05
1.0	0.1	1.15621596814930E-04
1.0	0.15	1.60685130487720E-04
1.0	0.2	1.97782404051003E-04
1.0	0.25	2.27534109352669E-04
1.0	0.3	2.50715188696990E-04
1.0	0.35	2.68264362934083E-04
1.0	0.4	2.81277617626304E-04
1.0	0.45	2.90940180700033E-04
1.0	0.5	2.98363714560164E-04
1.0	0.55	3.04404377246791E-04
1.0	0.6	3.09612471995515E-04
1.0	0.65	3.14311216150959E-04
1.0	0.7	3.18686888540126E-04
1.0	0.75	3.22847340669714E-04
1.0	0.8	3.26852699874843E-04
1.0	0.85	3.30738783455941E-04
1.0	0.9	3.34529908749715E-04
1.0	0.95	3.38241503370293E-04
1.0	1.0	3.41886161634474E-04
1.0	1.05	3.45472654913969E-04
1.0	1.1	3.49007304099434E-04
1.0	1.15	3.52496957747075E-04
1.0	1.2	3.55944992831448E-04
1.1	0.0	2.03232641963468E-17
1.1	0.05	7.20601887000935E-05
1.1	0.1	1.35626408779665E-04
1.1	0.15	1.90792887884941E-04
1.1	0.2	2.37882171771305E-04
1.1	0.25	2.77343632590096E-04
1.1	0.3	3.09736631537575E-04
1.1	0.35	3.35734529790558E-04
1.1	0.4	3.56134857545096E-04
1.1	0.45	3.71859953741942E-04
1.1	0.5	3.83922385089977E-04
1.1	0.55	3.93329090234575E-04
1.1	0.6	4.00945335248202E-04
1.1	0.65	4.07408642952725E-04
1.1	0.7	4.13141672772566E-04
1.1	0.75	4.18407748989735E-04
1.1	0.8	4.23361589041736E-04
1.1	0.85	4.28095856972439E-04
1.1	0.9	4.32665023210471E-04
1.1	0.95	4.37102132163295E-04
1.1	1.0	4.41432408042028E-04
1.1	1.05	4.45670530506702E-04
1.1	1.1	4.49830986758097E-04
1.1	1.15	4.53922709078237E-04
1.1	1.2	4.57952315784199E-04
1.2	0.0	-2.65135772962963E-18
1.2	0.05	8.10070220461778E-05
1.2	0.1	1.53724933118426E-04
1.2	0.15	2.18165997137532E-04
1.2	0.2	2.74560183248643E-04
1.2	0.25	3.23244513919569E-04
1.2	0.3	3.64639555495845E-04
1.2	0.35	3.99246959022003E-04
1.2	0.4	4.27656499802099E-04
1.2	0.45	4.50555247537381E-04
1.2	0.5	4.68731391529694E-04
1.2	0.55	4.83056203989331E-04
1.2	0.6	4.94425590371100E-04
1.2	0.65	5.03665560982100E-04
1.2	0.7	5.11448593127128E-04
1.2	0.75	5.18266095569238E-04
1.2	0.8	5.24452240174138E-04
1.2	0.85	5.30216538987625E-04
1.2	0.9	5.35683573445331E-04
1.2	0.95	5.40929359898290E-04
1.2	1.0	5.46003621131938E-04
1.2	1.05	5.50935988946730E-04
1.2	1.1	5.55752082454045E-04
1.2	1.15	5.60465959557653E-04
1.2	1.2	5.65092885803417E-04