vg	vd	ids
0.0	0.0	-2.32090942373591E-17
0.0	0.05	2.25084798690585E-13
0.0	0.1	2.48341500847555E-13
0.0	0.15	2.54567986780742E-13
0.0	0.2	2.60135578364796E-13
0.0	0.25	2.65863245048345E-13
0.0	0.3	2.71636318712389E-13
0.0	0.35	2.77336857544868E-13
0.0	0.4	2.83114994739433E-13
0.0	0.45	2.89182713104447E-13
0.0	0.5	2.94985259640721E-13
0.0	0.55	3.01119297826682E-13
0.0	0.6	3.07230892574360E-13
0.0	0.65	3.13522053496854E-13
0.0	0.7	3.19743684730158E-13
0.0	0.75	3.26261094210486E-13
0.0	0.8	3.32738210811863E-13
0.0	0.85	3.39438043527244E-13
0.0	0.9	3.46192895194749E-13
0.0	0.95	3.53100635473016E-13
0.0	1.0	3.60053052914283E-13
0.0	1.05	3.67135230949783E-13
0.0	1.1	3.74390410529842E-13
0.0	1.15	3.81711035031087E-13
0.0	1.2	3.89252592060193E-13
0.1	0.0	6.95572887986254E-18
0.1	0.05	8.01350061506335E-12
0.1	0.1	8.87365581740034E-12
0.1	0.15	9.10874607609842E-12
0.1	0.2	9.32357712444324E-12
0.1	0.25	9.53902791891325E-12
0.1	0.3	9.75554834808700E-12
0.1	0.35	9.97394093527747E-12
0.1	0.4	1.01935423175538E-11
0.1	0.45	1.04157504117458E-11
0.1	0.5	1.06403421757474E-11
0.1	0.55	1.08675800301526E-11
0.1	0.6	1.10974267955491E-11
0.1	0.65	1.13310585506003E-11
0.1	0.7	1.15675520696022E-11
0.1	0.75	1.18077812044307E-11
0.1	0.8	1.20518804123389E-11
0.1	0.85	1.22991357812571E-11
0.1	0.9	1.25516471071446E-11
0.1	0.95	1.28069852282904E-11
0.1	1.0	1.30671677210639E-11
0.1	1.05	1.33321536798171E-11
0.1	1.1	1.36014281541917E-11
0.1	1.15	1.38757407291500E-11
0.1	1.2	1.41550621693703E-11
0.2	0.0	2.34788804892270E-17
0.2	0.05	2.89725289382771E-10
0.2	0.1	3.22062827249809E-10
0.2	0.15	3.31188965124153E-10
0.2	0.2	3.39462502438794E-10
0.2	0.25	3.47723755500571E-10
0.2	0.3	3.55999261364681E-10
0.2	0.35	3.64308369459790E-10
0.2	0.4	3.72667572156260E-10
0.2	0.45	3.81090708899087E-10
0.2	0.5	3.89589780063748E-10
0.2	0.55	3.98184928808154E-10
0.2	0.6	4.06858940136954E-10
0.2	0.65	4.15644050576380E-10
0.2	0.7	4.24553621048586E-10
0.2	0.75	4.33563902558458E-10
0.2	0.8	4.42711974832669E-10
0.2	0.85	4.52000571576837E-10
0.2	0.9	4.61416209354614E-10
0.2	0.95	4.70985555888046E-10
0.2	1.0	4.80707044107632E-10
0.2	1.05	4.90586737289504E-10
0.2	1.1	5.00630804067299E-10
0.2	1.15	5.10843836881091E-10
0.2	1.2	5.21231826357954E-10
0.3	0.0	-8.25159227832727E-18
0.3	0.05	1.05402844041490E-08
0.3	0.1	1.17707109609578E-08
0.3	0.15	1.21290264662231E-08
0.3	0.2	1.24500196583268E-08
0.3	0.25	1.27683130145540E-08
0.3	0.3	1.30854471438854E-08
0.3	0.35	1.34024935498060E-08
0.3	0.4	1.37202863050324E-08
0.3	0.45	1.40395087801143E-08
0.3	0.5	1.43613400982131E-08
0.3	0.55	1.46851207070854E-08
0.3	0.6	1.50116966284391E-08
0.3	0.65	1.53411317523375E-08
0.3	0.7	1.56748143618788E-08
0.3	0.75	1.60122811944881E-08
0.3	0.8	1.63538568264990E-08
0.3	0.85	1.66999727355916E-08
0.3	0.9	1.70508955652005E-08
0.3	0.95	1.74067271128879E-08
0.3	1.0	1.77677454898010E-08
0.3	1.05	1.81341481173972E-08
0.3	1.1	1.85061256555450E-08
0.3	1.15	1.88838810362821E-08
0.3	1.2	1.92676049724793E-08
0.4	0.0	7.28284152651995E-17
0.4	0.05	3.69327458711022E-07
0.4	0.1	4.16405566865583E-07
0.4	0.15	4.30134434577675E-07
0.4	0.2	4.42038760234995E-07
0.4	0.25	4.53679610125442E-07
0.4	0.3	4.65163770594170E-07
0.4	0.35	4.76554727259068E-07
0.4	0.4	4.87898747603860E-07
0.4	0.45	4.99249291888269E-07
0.4	0.5	5.10581164957845E-07
0.4	0.55	5.21968063451947E-07
0.4	0.6	5.33414649229373E-07
0.4	0.65	5.44931941961345E-07
0.4	0.7	5.56533916391522E-07
0.4	0.75	5.68234638019797E-07
0.4	0.8	5.80045694922193E-07
0.4	0.85	5.91975897287271E-07
0.4	0.9	6.04033502428977E-07
0.4	0.95	6.16226372958662E-07
0.4	1.0	6.28561976684894E-07
0.4	1.05	6.41047063726001E-07
0.4	1.1	6.53687986198792E-07
0.4	1.15	6.66490790795422E-07
0.4	1.2	6.79461188409859E-07
0.5	0.0	-8.05488072933292E-18
0.5	0.05	7.26085330004256E-06
0.5	0.1	8.84138216626882E-06
0.5	0.15	9.19666476276209E-06
0.5	0.2	9.42430803924270E-06
0.5	0.25	9.63535019679968E-06
0.5	0.3	9.83763910590658E-06
0.5	0.35	1.00338905988534E-05
0.5	0.4	1.02257870704470E-05
0.5	0.45	1.04145110151452E-05
0.5	0.5	1.06007797542261E-05
0.5	0.55	1.07852753771825E-05
0.5	0.6	1.09684756978804E-05
0.5	0.65	1.11507391093823E-05
0.5	0.7	1.13323718961257E-05
0.5	0.75	1.15136233412054E-05
0.5	0.8	1.16946918545021E-05
0.5	0.85	1.18757651793505E-05
0.5	0.9	1.20569912519145E-05
0.5	0.95	1.22384923973416E-05
0.5	1.0	1.24203919850110E-05
0.5	1.05	1.26027851360862E-05
0.5	1.1	1.27857532840034E-05
0.5	1.15	1.29693788835486E-05
0.5	1.2	1.31537297350415E-05
0.6	0.0	-1.27132338774974E-18
0.6	0.05	3.04482178575293E-05
0.6	0.1	4.58265111291811E-05
0.6	0.15	5.15082204304837E-05
0.6	0.2	5.33409943451091E-05
0.6	0.25	5.43708196932875E-05
0.6	0.3	5.52526362278445E-05
0.6	0.35	5.60671649131256E-05
0.6	0.4	5.68375635663424E-05
0.6	0.45	5.75766578136541E-05
0.6	0.5	5.82920092233619E-05
0.6	0.55	5.89889691925374E-05
0.6	0.6	5.96709990529910E-05
0.6	0.65	6.03409030528941E-05
0.6	0.7	6.10005748220903E-05
0.6	0.75	6.16516604069215E-05
0.6	0.8	6.22954141594642E-05
0.6	0.85	6.29328679140198E-05
0.6	0.9	6.35648735614478E-05
0.6	0.95	6.41921591456836E-05
0.6	1.0	6.48153669049741E-05
0.6	1.05	6.54349630102005E-05
0.6	1.1	6.60514237234574E-05
0.6	1.15	6.66651875260559E-05
0.6	1.2	6.72765184615299E-05
0.7	0.0	9.39625496913451E-18
0.7	0.05	5.59387975343013E-05
0.7	0.1	9.49447910226500E-05
0.7	0.15	1.18830995651580E-04
0.7	0.2	1.31039330788748E-04
0.7	0.25	1.36306477046878E-04
0.7	0.3	1.38912672135504E-04
0.7	0.35	1.40827891033441E-04
0.7	0.4	1.42499178047132E-04
0.7	0.45	1.44033687464579E-04
0.7	0.5	1.45478713645339E-04
0.7	0.55	1.46859876072747E-04
0.7	0.6	1.48192508622299E-04
0.7	0.65	1.49486612623834E-04
0.7	0.7	1.50748757098301E-04
0.7	0.75	1.51984432763371E-04
0.7	0.8	1.53197291064791E-04
0.7	0.85	1.54390333129150E-04
0.7	0.9	1.55566127688587E-04
0.7	0.95	1.56726633926366E-04
0.7	1.0	1.57873423639043E-04
0.7	1.05	1.59007880038181E-04
0.7	1.1	1.60131290465877E-04
0.7	1.15	1.61244574455413E-04
0.7	1.2	1.62348638056235E-04
0.8	0.0	-2.22988059703347E-17
0.8	0.05	7.74151721177983E-05
0.8	0.1	1.38673198554103E-04
0.8	0.15	1.84230260068494E-04
0.8	0.2	2.15396128282438E-04
0.8	0.25	2.34417930202152E-04
0.8	0.3	2.44614806557956E-04
0.8	0.35	2.49902379568313E-04
0.8	0.4	2.53279884079623E-04
0.8	0.45	2.55981185460512E-04
0.8	0.5	2.58359847613212E-04
0.8	0.55	2.60550868340125E-04
0.8	0.6	2.62619228820645E-04
0.8	0.65	2.64598041302987E-04
0.8	0.7	2.66507844439695E-04
0.8	0.75	2.68361627485314E-04
0.8	0.8	2.70168697758197E-04
0.8	0.85	2.71936383361050E-04
0.8	0.9	2.73669579617188E-04
0.8	0.95	2.75372527096231E-04
0.8	1.0	2.77048526894223E-04
0.8	1.05	2.78700515818278E-04
0.8	1.1	2.80330694805340E-04
0.8	1.15	2.81941143120876E-04
0.8	1.2	2.83532812234849E-04
0.9	0.0	-3.16869779018720E-18
0.9	0.05	9.45873710407373E-05
0.9	0.1	1.74311029326042E-04
0.9	0.15	2.39169476284020E-04
0.9	0.2	2.89664566759891E-04
0.9	0.25	3.26736049682870E-04
0.9	0.3	3.51906112844451E-04
0.9	0.35	3.67462625416592E-04
0.9	0.4	3.76439626327582E-04
0.9	0.45	3.81924443608826E-04
0.9	0.5	3.85919059423539E-04
0.9	0.55	3.89244084800675E-04
0.9	0.6	3.92212527706679E-04
0.9	0.65	3.94968500263276E-04
0.9	0.7	3.97581002274600E-04
0.9	0.75	4.00086267939214E-04
0.9	0.8	4.02507513730836E-04
0.9	0.85	4.04859747066485E-04
0.9	0.9	4.07153028731221E-04
0.9	0.95	4.09396620319165E-04
0.9	1.0	4.11596221700285E-04
0.9	1.05	4.13756251432526E-04
0.9	1.1	4.15881285198964E-04
0.9	1.15	4.17974571338001E-04
0.9	1.2	4.20038906990684E-04
1.0	0.0	-1.09116138588630E-17
1.0	0.05	1.08214010123591E-04
1.0	0.1	2.02797551744444E-04
1.0	0.15	2.83622428840338E-04
1.0	0.2	3.50918306039202E-04
1.0	0.25	4.05121405929640E-04
1.0	0.3	4.46918645565780E-04
1.0	0.35	4.77369183648214E-04
1.0	0.4	4.98064579315419E-04
1.0	0.45	5.11232452910057E-04
1.0	0.5	5.19515719856411E-04
1.0	0.55	5.25214585423131E-04
1.0	0.6	5.29671594866862E-04
1.0	0.65	5.33493933190145E-04
1.0	0.7	5.36959912447347E-04
1.0	0.75	5.40203904120959E-04
1.0	0.8	5.43290592248758E-04
1.0	0.85	5.46257920879935E-04
1.0	0.9	5.49129505184680E-04
1.0	0.95	5.51921337044044E-04
1.0	1.0	5.54645851260989E-04
1.0	1.05	5.57310762715364E-04
1.0	1.1	5.59923499550009E-04
1.0	1.15	5.62490598102226E-04
1.0	1.2	5.65014025236357E-04
1.1	0.0	-2.50810632242353E-17
1.1	0.05	1.19111316751260E-04
1.1	0.1	2.25620840767438E-04
1.1	0.15	3.19395275656589E-04
1.1	0.2	4.00600020700132E-04
1.1	0.25	4.69507377196020E-04
1.1	0.3	5.26485387092675E-04
1.1	0.35	5.72047810817991E-04
1.1	0.4	6.06946646570627E-04
1.1	0.45	6.32301619361712E-04
1.1	0.5	6.49720459798005E-04
1.1	0.55	6.61283819926895E-04
1.1	0.6	6.69169847711589E-04
1.1	0.65	6.75044290533715E-04
1.1	0.7	6.79860000323189E-04
1.1	0.75	6.84099703195602E-04
1.1	0.8	6.87997163657455E-04
1.1	0.85	6.91668126876359E-04
1.1	0.9	6.95172641233641E-04
1.1	0.95	6.98548681756920E-04
1.1	1.0	7.01818923519807E-04
1.1	1.05	7.05000270192709E-04
1.1	1.1	7.08107198892293E-04
1.1	1.15	7.11146718754256E-04
1.1	1.2	7.14127314732862E-04
1.2	0.0	-5.54193733010339E-17
1.2	0.05	1.27946991554458E-04
1.2	0.1	2.44109704018255E-04
1.2	0.15	3.48388780036732E-04
1.2	0.2	4.40961690364158E-04
1.2	0.25	5.22071965095711E-04
1.2	0.3	5.91991359920131E-04
1.2	0.35	6.51031107745881E-04
1.2	0.4	6.99583902951915E-04
1.2	0.45	7.38195368833409E-04
1.2	0.5	7.67659464218018E-04
1.2	0.55	7.89131547731086E-04
1.2	0.6	8.04185219693002E-04
1.2	0.65	8.14671553811820E-04
1.2	0.7	8.22311237380155E-04
1.2	0.75	8.28329716323434E-04
1.2	0.8	8.33450641141628E-04
1.2	0.85	8.38056451193094E-04
1.2	0.9	8.42334401752280E-04
1.2	0.95	8.46384455901712E-04
1.2	1.0	8.50260692579920E-04
1.2	1.05	8.54000158515066E-04
1.2	1.1	8.57626694829388E-04
1.2	1.15	8.61156690441838E-04
1.2	1.2	8.64605326497746E-04