vg	vd	ids
0.0	0.0	-5.43742470621143E-16
0.0	0.05	4.92652717505647E-14
0.0	0.1	5.49447901001809E-14
0.0	0.15	5.78056688577143E-14
0.0	0.2	5.94946532684129E-14
0.0	0.25	6.11460803648592E-14
0.0	0.3	6.46440806183556E-14
0.0	0.35	6.48502982634257E-14
0.0	0.4	6.89470178142000E-14
0.0	0.45	6.94751724677033E-14
0.0	0.5	7.34760246344509E-14
0.0	0.55	7.61840459294167E-14
0.0	0.6	7.89269752405203E-14
0.0	0.65	8.10194615679832E-14
0.0	0.7	8.38320170773680E-14
0.0	0.75	8.59292341541848E-14
0.0	0.8	8.83996362814780E-14
0.0	0.85	9.21356248724929E-14
0.0	0.9	9.60039876049132E-14
0.0	0.95	9.81429914254537E-14
0.0	1.0	1.00404163483894E-13
0.0	1.05	1.03428825402731E-13
0.0	1.1	1.08080232550205E-13
0.0	1.15	1.11428400524989E-13
0.0	1.2	1.15037207960054E-13
0.1	0.0	8.07941346295106E-17
0.1	0.05	1.53152711265207E-12
0.1	0.1	1.71136091218554E-12
0.1	0.15	1.77879165915943E-12
0.1	0.2	1.84478163876278E-12
0.1	0.25	1.91233764433398E-12
0.1	0.3	1.98396215813744E-12
0.1	0.35	2.05270240797943E-12
0.1	0.4	2.12524463211126E-12
0.1	0.45	2.20050211344899E-12
0.1	0.5	2.27773829303595E-12
0.1	0.55	2.35794612209332E-12
0.1	0.6	2.43852231393730E-12
0.1	0.65	2.52313702480169E-12
0.1	0.7	2.60833191201814E-12
0.1	0.75	2.69915731002890E-12
0.1	0.8	2.78984119354323E-12
0.1	0.85	2.88536722559142E-12
0.1	0.9	2.98249603553162E-12
0.1	0.95	3.08406093043943E-12
0.1	1.0	3.18982623665655E-12
0.1	1.05	3.29646544813138E-12
0.1	1.1	3.40718681042343E-12
0.1	1.15	3.52436411471912E-12
0.1	1.2	3.64173594302937E-12
0.2	0.0	7.04514876098117E-16
0.2	0.05	4.79744056160308E-11
0.2	0.1	5.38615353332274E-11
0.2	0.15	5.61484848410628E-11
0.2	0.2	5.83436989277699E-11
0.2	0.25	6.05847287464630E-11
0.2	0.3	6.28774633809258E-11
0.2	0.35	6.52286388934788E-11
0.2	0.4	6.76371047975221E-11
0.2	0.45	7.01114843616977E-11
0.2	0.5	7.26559080108067E-11
0.2	0.55	7.52650694812626E-11
0.2	0.6	7.79542557412076E-11
0.2	0.65	8.07186349928674E-11
0.2	0.7	8.35645714953015E-11
0.2	0.75	8.64971144470742E-11
0.2	0.8	8.95168467032414E-11
0.2	0.85	9.26297547146731E-11
0.2	0.9	9.58369776635605E-11
0.2	0.95	9.91455003856070E-11
0.2	1.0	1.02556299551651E-10
0.2	1.05	1.06075774804792E-10
0.2	1.1	1.09708057287738E-10
0.2	1.15	1.13454233190500E-10
0.2	1.2	1.17320191359503E-10
0.3	0.0	-5.48259246275913E-16
0.3	0.05	1.52270759996198E-09
0.3	0.1	1.71782666858263E-09
0.3	0.15	1.79511964789882E-09
0.3	0.2	1.86870274852949E-09
0.3	0.25	1.94357037655541E-09
0.3	0.3	2.01997593279472E-09
0.3	0.35	2.09808665421817E-09
0.3	0.4	2.17805439450132E-09
0.3	0.45	2.26001104149600E-09
0.3	0.5	2.34399167874555E-09
0.3	0.55	2.43036424435014E-09
0.3	0.6	2.51900844049372E-09
0.3	0.65	2.61010548008106E-09
0.3	0.7	2.70376182785230E-09
0.3	0.75	2.80009034953922E-09
0.3	0.8	2.89920029153609E-09
0.3	0.85	3.00120861378684E-09
0.3	0.9	3.10622794131321E-09
0.3	0.95	3.21437438503331E-09
0.3	1.0	3.32576641497181E-09
0.3	1.05	3.44052521406691E-09
0.3	1.1	3.55877161628807E-09
0.3	1.15	3.68063420480825E-09
0.3	1.2	3.80623664031961E-09
0.4	0.0	3.16857909923330E-16
0.4	0.05	4.80356024419257E-08
0.4	0.1	5.45654780952617E-08
0.4	0.15	5.71747936435964E-08
0.4	0.2	5.96171912749438E-08
0.4	0.25	6.20818458587128E-08
0.4	0.3	6.45829335672174E-08
0.4	0.35	6.71289274823137E-08
0.4	0.4	6.97261469030569E-08
0.4	0.45	7.23832402041750E-08
0.4	0.5	7.50952513699553E-08
0.4	0.55	7.78736523629468E-08
0.4	0.6	8.07210714200404E-08
0.4	0.65	8.36405699949592E-08
0.4	0.7	8.66354107985316E-08
0.4	0.75	8.97088301818227E-08
0.4	0.8	9.28640419822399E-08
0.4	0.85	9.61042226670668E-08
0.4	0.9	9.94325705165540E-08
0.4	0.95	1.02852305423776E-07
0.4	1.0	1.06366670911570E-07
0.4	1.05	1.09978942899305E-07
0.4	1.1	1.13692450235387E-07
0.4	1.15	1.17510554522510E-07
0.4	1.2	1.21436655254548E-07
0.5	0.0	3.71071705028854E-16
0.5	0.05	1.26297189288812E-06
0.5	0.1	1.47257807885502E-06
0.5	0.15	1.54646471266937E-06
0.5	0.2	1.60998099899914E-06
0.5	0.25	1.67227202537564E-06
0.5	0.3	1.73432405892559E-06
0.5	0.35	1.79658103874992E-06
0.5	0.4	1.85931564039425E-06
0.5	0.45	1.92274309524580E-06
0.5	0.5	1.98688431992625E-06
0.5	0.55	2.05193457321685E-06
0.5	0.6	2.11795218132110E-06
0.5	0.65	2.18500128051935E-06
0.5	0.7	2.25314034905038E-06
0.5	0.75	2.32242091759929E-06
0.5	0.8	2.39289002038550E-06
0.5	0.85	2.46459146894972E-06
0.5	0.9	2.53756480964834E-06
0.5	0.95	2.61184934196670E-06
0.5	1.0	2.68748119597545E-06
0.5	1.05	2.76449506167495E-06
0.5	1.1	2.84292566265541E-06
0.5	1.15	2.92280487573817E-06
0.5	1.2	3.00416451881200E-06
0.6	0.0	-6.32948781890414E-16
0.6	0.05	1.10142842669321E-05
0.6	0.1	1.48974694276362E-05
0.6	0.15	1.60293282487436E-05
0.6	0.2	1.65926292751894E-05
0.6	0.25	1.70664161649868E-05
0.6	0.3	1.75125367913978E-05
0.6	0.35	1.79439030397244E-05
0.6	0.4	1.83668837835766E-05
0.6	0.45	1.87835583841391E-05
0.6	0.5	1.91968685400024E-05
0.6	0.55	1.96078947388619E-05
0.6	0.6	2.00174583728631E-05
0.6	0.65	2.04262036163663E-05
0.6	0.7	2.08346063158428E-05
0.6	0.75	2.12430925618160E-05
0.6	0.8	2.16519448446052E-05
0.6	0.85	2.20614745793033E-05
0.6	0.9	2.24718847342447E-05
0.6	0.95	2.28833731732265E-05
0.6	1.0	2.32961299074844E-05
0.6	1.05	2.37102679968162E-05
0.6	1.1	2.41259465877598E-05
0.6	1.15	2.45432756343211E-05
0.6	1.2	2.49623425438056E-05
0.7	0.0	5.07878753143462E-17
0.7	0.05	2.82179193258203E-05
0.7	0.1	4.50191004788716E-05
0.7	0.15	5.33307564716464E-05
0.7	0.2	5.68609680609857E-05
0.7	0.25	5.86046895709943E-05
0.7	0.3	5.98821204646972E-05
0.7	0.35	6.10124009225548E-05
0.7	0.4	6.20701353476430E-05
0.7	0.45	6.30829789481907E-05
0.7	0.5	6.40671695340063E-05
0.7	0.55	6.50305356827432E-05
0.7	0.6	6.59777085392063E-05
0.7	0.65	6.69116910946143E-05
0.7	0.7	6.78347877918942E-05
0.7	0.75	6.87486015800317E-05
0.7	0.8	6.96545966585203E-05
0.7	0.85	7.05537479991124E-05
0.7	0.9	7.14470207061340E-05
0.7	0.95	7.23351249212701E-05
0.7	1.0	7.32187000056084E-05
0.7	1.05	7.40982754831606E-05
0.7	1.1	7.49743833681184E-05
0.7	1.15	7.58473782630369E-05
0.7	1.2	7.67176403078690E-05
0.8	0.0	8.02663254552530E-16
0.8	0.05	4.54287176188224E-05
0.8	0.1	7.82261022071502E-05
0.8	0.15	9.99183786265844E-05
0.8	0.2	1.12773377892226E-04
0.8	0.25	1.19607843355465E-04
0.8	0.3	1.23264482623104E-04
0.8	0.35	1.25685317428331E-04
0.8	0.4	1.27668751126400E-04
0.8	0.45	1.29452686712703E-04
0.8	0.5	1.31125432617607E-04
0.8	0.55	1.32728851565623E-04
0.8	0.6	1.34283076281718E-04
0.8	0.65	1.35799462295650E-04
0.8	0.7	1.37284805250446E-04
0.8	0.75	1.38743981367606E-04
0.8	0.8	1.40180762169872E-04
0.8	0.85	1.41597785879089E-04
0.8	0.9	1.42997431074781E-04
0.8	0.95	1.44381291533234E-04
0.8	1.0	1.45751092440019E-04
0.8	1.05	1.47107997062174E-04
0.8	1.1	1.48453136034535E-04
0.8	1.15	1.49787402077358E-04
0.8	1.2	1.51111846934997E-04
0.9	0.0	-4.31540347250494E-16
0.9	0.05	6.09128689031537E-05
0.9	0.1	1.08963735357591E-04
0.9	0.15	1.45051203255101E-04
0.9	0.2	1.70583117287592E-04
0.9	0.25	1.87356358972475E-04
0.9	0.3	1.97561055221631E-04
0.9	0.35	2.03585759540283E-04
0.9	0.4	2.07488770745730E-04
0.9	0.45	2.10481373350876E-04
0.9	0.5	2.13059638697190E-04
0.9	0.55	2.15420348036640E-04
0.9	0.6	2.17651456958124E-04
0.9	0.65	2.19794566351399E-04
0.9	0.7	2.21871663039017E-04
0.9	0.75	2.23895939301726E-04
0.9	0.8	2.25875795915335E-04
0.9	0.85	2.27817517296130E-04
0.9	0.9	2.29725662453084E-04
0.9	0.95	2.31603889182585E-04
0.9	1.0	2.33455376593529E-04
0.9	1.05	2.35282215111611E-04
0.9	1.1	2.37086509698181E-04
0.9	1.15	2.38870825446928E-04
0.9	1.2	2.40635757796257E-04
1.0	0.0	-4.15625774955815E-16
1.0	0.05	7.44641081864712E-05
1.0	0.1	1.36222635362761E-04
1.0	0.15	1.85839381452016E-04
1.0	0.2	2.24286196269720E-04
1.0	0.25	2.52777288471744E-04
1.0	0.3	2.72784505383866E-04
1.0	0.35	2.86055024838347E-04
1.0	0.4	2.94551780882018E-04
1.0	0.45	3.00178388698708E-04
1.0	0.5	3.04339179012743E-04
1.0	0.55	3.07784493698879E-04
1.0	0.6	3.10857634526684E-04
1.0	0.65	3.13719513573882E-04
1.0	0.7	3.16442547296084E-04
1.0	0.75	3.19064960501701E-04
1.0	0.8	3.21608333250384E-04
1.0	0.85	3.24086398270815E-04
1.0	0.9	3.26508522694956E-04
1.0	0.95	3.28882615171800E-04
1.0	1.0	3.31212164323756E-04
1.0	1.05	3.33502997535805E-04
1.0	1.1	3.35758745732913E-04
1.0	1.15	3.37982763293084E-04
1.0	1.2	3.40176464935725E-04
1.1	0.0	-2.47531020806751E-17
1.1	0.05	8.62094125389305E-05
1.1	0.1	1.60035703770734E-04
1.1	0.15	2.21847736906315E-04
1.1	0.2	2.72372606120573E-04
1.1	0.25	3.12502997200873E-04
1.1	0.3	3.43284991170613E-04
1.1	0.35	3.65938998161969E-04
1.1	0.4	3.81890601844910E-04
1.1	0.45	3.92758241388008E-04
1.1	0.5	4.00212979051927E-04
1.1	0.55	4.05673863388606E-04
1.1	0.6	4.10065950817802E-04
1.1	0.65	4.13885884436465E-04
1.1	0.7	4.17384899798939E-04
1.1	0.75	4.20682940379666E-04
1.1	0.8	4.23837657481582E-04
1.1	0.85	4.26882321017426E-04
1.1	0.9	4.29838081102489E-04
1.1	0.95	4.32718242004147E-04
1.1	1.0	4.35533000871063E-04
1.1	1.05	4.38290444663336E-04
1.1	1.1	4.40995433454699E-04
1.1	1.15	4.43655172526052E-04
1.1	1.2	4.46271523487159E-04
1.2	0.0	-3.66740511602412E-16
1.2	0.05	9.63660907070637E-05
1.2	0.1	1.80730330445532E-04
1.2	0.15	2.53346189900790E-04
1.2	0.2	3.14797313852223E-04
1.2	0.25	3.65789828768981E-04
1.2	0.3	4.07122056348946E-04
1.2	0.35	4.39691015024473E-04
1.2	0.4	4.64520127980892E-04
1.2	0.45	4.82790174767413E-04
1.2	0.5	4.95846460037055E-04
1.2	0.55	5.05128476183215E-04
1.2	0.6	5.11973433720789E-04
1.2	0.65	5.17388050028731E-04
1.2	0.7	5.21997287059347E-04
1.2	0.75	5.26149367059356E-04
1.2	0.8	5.30021284773756E-04
1.2	0.85	5.33700363816164E-04
1.2	0.9	5.37234211980364E-04
1.2	0.95	5.40650954872387E-04
1.2	1.0	5.43970565461526E-04
1.2	1.05	5.47207024113732E-04
1.2	1.1	5.50370526830418E-04
1.2	1.15	5.53469535937170E-04
1.2	1.2	5.56510321613205E-04