vg	vd	ids
0.0	0.0	8.05561725561663E-17
0.0	0.05	1.41898191044582E-13
0.0	0.1	1.56820724927954E-13
0.0	0.15	1.61739198612259E-13
0.0	0.2	1.66735598865265E-13
0.0	0.25	1.71655666121511E-13
0.0	0.3	1.77109647496673E-13
0.0	0.35	1.82038476302147E-13
0.0	0.4	1.87435882238573E-13
0.0	0.45	1.92618105274789E-13
0.0	0.5	1.98683173161751E-13
0.0	0.55	2.03824539395569E-13
0.0	0.6	2.10046721456900E-13
0.0	0.65	2.16077250080016E-13
0.0	0.7	2.21873689749791E-13
0.0	0.75	2.28424985959513E-13
0.0	0.8	2.34723579819245E-13
0.0	0.85	2.41229029838003E-13
0.0	0.9	2.48109442772449E-13
0.0	0.95	2.55043045089087E-13
0.0	1.0	2.62290962562799E-13
0.0	1.05	2.69931652110796E-13
0.0	1.1	2.77343064535835E-13
0.0	1.15	2.85209843877556E-13
0.0	1.2	2.93197115518091E-13
0.1	0.0	1.87824647746656E-16
0.1	0.05	4.72583584895724E-12
0.1	0.1	5.23929180994622E-12
0.1	0.15	5.42253261460468E-12
0.1	0.2	5.59878348848080E-12
0.1	0.25	5.77704930110947E-12
0.1	0.3	5.95837379647151E-12
0.1	0.35	6.14271612122498E-12
0.1	0.4	6.33019764460896E-12
0.1	0.45	6.52148174520756E-12
0.1	0.5	6.71721821701381E-12
0.1	0.55	6.91693073291010E-12
0.1	0.6	7.12122458026545E-12
0.1	0.65	7.32967414977007E-12
0.1	0.7	7.54385220594680E-12
0.1	0.75	7.76313361161854E-12
0.1	0.8	7.98797212511758E-12
0.1	0.85	8.21848467575914E-12
0.1	0.9	8.45530283419732E-12
0.1	0.95	8.69782900394036E-12
0.1	1.0	8.94770814717270E-12
0.1	1.05	9.20385613608441E-12
0.1	1.1	9.46758882620584E-12
0.1	1.15	9.73827716595408E-12
0.1	1.2	1.00160588549479E-11
0.2	0.0	-4.41030375016196E-17
0.2	0.05	1.59812427327570E-10
0.2	0.1	1.78002834135070E-10
0.2	0.15	1.84644077307184E-10
0.2	0.2	1.90984520967641E-10
0.2	0.25	1.97382865749660E-10
0.2	0.3	2.03857655993663E-10
0.2	0.35	2.10422883513333E-10
0.2	0.4	2.17091362660099E-10
0.2	0.45	2.23874554547277E-10
0.2	0.5	2.30784076242292E-10
0.2	0.55	2.37829095898643E-10
0.2	0.6	2.45013426694898E-10
0.2	0.65	2.52371098611117E-10
0.2	0.7	2.59872699144365E-10
0.2	0.75	2.67554011809983E-10
0.2	0.8	2.75420171258932E-10
0.2	0.85	2.83464051921772E-10
0.2	0.9	2.91721166393754E-10
0.2	0.95	3.00169254156109E-10
0.2	1.0	3.08835663806238E-10
0.2	1.05	3.17727697416825E-10
0.2	1.1	3.26846362115112E-10
0.2	1.15	3.36203499574130E-10
0.2	1.2	3.45810323021100E-10
0.3	0.0	-3.85849357106004E-17
0.3	0.05	5.43692042458445E-09
0.3	0.1	6.08822953696920E-09
0.3	0.15	6.33096907583574E-09
0.3	0.2	6.56029040998268E-09
0.3	0.25	6.79035200553476E-09
0.3	0.3	7.02202100255390E-09
0.3	0.35	7.25596106685915E-09
0.3	0.4	7.49273017409199E-09
0.3	0.45	7.73281099652111E-09
0.3	0.5	7.97663312562127E-09
0.3	0.55	8.22461292057708E-09
0.3	0.6	8.47689734343966E-09
0.3	0.65	8.73446902991563E-09
0.3	0.7	8.99682553460170E-09
0.3	0.75	9.26449470206217E-09
0.3	0.8	9.53817319267869E-09
0.3	0.85	9.81773147966706E-09
0.3	0.9	1.01035352639018E-08
0.3	0.95	1.03959685007702E-08
0.3	1.0	1.06952381216113E-08
0.3	1.05	1.10015965584487E-08
0.3	1.1	1.13153269859751E-08
0.3	1.15	1.16366793582137E-08
0.3	1.2	1.19659195469346E-08
0.4	0.0	1.47847648538026E-16
0.4	0.05	1.80731955673746E-07
0.4	0.1	2.04131812772950E-07
0.4	0.15	2.12847216311828E-07
0.4	0.2	2.20899521136120E-07
0.4	0.25	2.28890856435758E-07
0.4	0.3	2.36870808880566E-07
0.4	0.35	2.44873193051080E-07
0.4	0.4	2.52923838598334E-07
0.4	0.45	2.61043756637340E-07
0.4	0.5	2.69254495451719E-07
0.4	0.55	2.77566437532889E-07
0.4	0.6	2.85987000751621E-07
0.4	0.65	2.94534302541188E-07
0.4	0.7	3.03224170080333E-07
0.4	0.75	3.12061312547074E-07
0.4	0.8	3.21054741216738E-07
0.4	0.85	3.30214547946752E-07
0.4	0.9	3.39549152683410E-07
0.4	0.95	3.49066564216461E-07
0.4	1.0	3.58774287698045E-07
0.4	1.05	3.68679952685760E-07
0.4	1.1	3.78790859727118E-07
0.4	1.15	3.89114126984719E-07
0.4	1.2	3.99656723652171E-07
0.5	0.0	-5.38191770234495E-17
0.5	0.05	4.10261079809433E-06
0.5	0.1	4.86688381713003E-06
0.5	0.15	5.08626340349629E-06
0.5	0.2	5.25960039755453E-06
0.5	0.25	5.42555214779968E-06
0.5	0.3	5.58732691882884E-06
0.5	0.35	5.74632303540436E-06
0.5	0.4	5.90346015826888E-06
0.5	0.45	6.05945436367424E-06
0.5	0.5	6.21470511137321E-06
0.5	0.55	6.36971283542257E-06
0.5	0.6	6.52474647336059E-06
0.5	0.65	6.68008216761903E-06
0.5	0.7	6.83595143150202E-06
0.5	0.75	6.99254278158860E-06
0.5	0.8	7.15001573739065E-06
0.5	0.85	7.30850307887078E-06
0.5	0.9	7.46813213472027E-06
0.5	0.95	7.62901465425464E-06
0.5	1.0	7.79124171679799E-06
0.5	1.05	7.95490443638472E-06
0.5	1.1	8.12008407525108E-06
0.5	1.15	8.28684489135116E-06
0.5	1.2	8.45525146026317E-06
0.6	0.0	-6.29351624883342E-17
0.6	0.05	2.24596146337952E-05
0.6	0.1	3.23164528466810E-05
0.6	0.15	3.54912218455838E-05
0.6	0.2	3.66964292856786E-05
0.6	0.25	3.75738382800646E-05
0.6	0.3	3.83729839821617E-05
0.6	0.35	3.91280367257440E-05
0.6	0.4	3.98516912835504E-05
0.6	0.45	4.05519300347053E-05
0.6	0.5	4.12337066080202E-05
0.6	0.55	4.19012457911306E-05
0.6	0.6	4.25573315430786E-05
0.6	0.65	4.32040414722697E-05
0.6	0.7	4.38431917468049E-05
0.6	0.75	4.44760448187001E-05
0.6	0.8	4.51037789035315E-05
0.6	0.85	4.57273473079993E-05
0.6	0.9	4.63474722230076E-05
0.6	0.95	4.69648535397893E-05
0.6	1.0	4.75800455369994E-05
0.6	1.05	4.81935342336847E-05
0.6	1.1	4.88057419296063E-05
0.6	1.15	4.94170302994070E-05
0.6	1.2	5.00277343457887E-05
0.7	0.0	-1.38728532787058E-17
0.7	0.05	4.59536044244539E-05
0.7	0.1	7.59446408236504E-05
0.7	0.15	9.27007563855219E-05
0.7	0.2	1.00447160257674E-04
0.7	0.25	1.03848544687438E-04
0.7	0.3	1.05943462997658E-04
0.7	0.35	1.07695433810583E-04
0.7	0.4	1.09290174776170E-04
0.7	0.45	1.10781577424241E-04
0.7	0.5	1.12197839421774E-04
0.7	0.55	1.13558072886540E-04
0.7	0.6	1.14874418249325E-04
0.7	0.65	1.16155441760929E-04
0.7	0.7	1.17407423439252E-04
0.7	0.75	1.18634896303303E-04
0.7	0.8	1.19841762293631E-04
0.7	0.85	1.21030818162139E-04
0.7	0.9	1.22204365136528E-04
0.7	0.95	1.23364617150180E-04
0.7	1.0	1.24513006861400E-04
0.7	1.05	1.25650976793569E-04
0.7	1.1	1.26779766208038E-04
0.7	1.15	1.27900363292392E-04
0.7	1.2	1.29013717182446E-04
0.8	0.0	8.12495353739662E-17
0.8	0.05	6.70214329493724E-05
0.8	0.1	1.17849485575476E-04
0.8	0.15	1.53661901269883E-04
0.8	0.2	1.76552618598836E-04
0.8	0.25	1.89507893568743E-04
0.8	0.3	1.96227314321044E-04
0.8	0.35	2.00118996435804E-04
0.8	0.4	2.03057891056141E-04
0.8	0.45	2.05605351943951E-04
0.8	0.5	2.07922776669982E-04
0.8	0.55	2.10084652386758E-04
0.8	0.6	2.12134935720238E-04
0.8	0.65	2.14101024071650E-04
0.8	0.7	2.16000737700682E-04
0.8	0.75	2.17846482901213E-04
0.8	0.8	2.19647183864430E-04
0.8	0.85	2.21409512308512E-04
0.8	0.9	2.23138950532826E-04
0.8	0.95	2.24839675906379E-04
0.8	1.0	2.26515059563895E-04
0.8	1.05	2.28168088311882E-04
0.8	1.1	2.29800979598077E-04
0.8	1.15	2.31415890324804E-04
0.8	1.2	2.33014246378846E-04
0.9	0.0	1.08351582707615E-16
0.9	0.05	8.47263803354755E-05
0.9	0.1	1.53872389390557E-04
0.9	0.15	2.07976256272561E-04
0.9	0.2	2.48179780594657E-04
0.9	0.25	2.76099140089424E-04
0.9	0.3	2.93931184209127E-04
0.9	0.35	3.04475607124296E-04
0.9	0.4	3.10776549363821E-04
0.9	0.45	3.15183506663375E-04
0.9	0.5	3.18795713113834E-04
0.9	0.55	3.21981275388901E-04
0.9	0.6	3.24891920442502E-04
0.9	0.65	3.27616246010626E-04
0.9	0.7	3.30206386068190E-04
0.9	0.75	3.32693439926828E-04
0.9	0.8	3.35098890105678E-04
0.9	0.85	3.37436381341798E-04
0.9	0.9	3.39716852051159E-04
0.9	0.95	3.41948620552757E-04
0.9	1.0	3.44137671384682E-04
0.9	1.05	3.46289309060655E-04
0.9	1.1	3.48407391565320E-04
0.9	1.15	3.50495414137006E-04
0.9	1.2	3.52556344242059E-04
1.0	0.0	-1.77883941428452E-16
1.0	0.05	9.93851046570554E-05
1.0	0.1	1.84011209131985E-04
1.0	0.15	2.54132156563288E-04
1.0	0.2	3.10459007081965E-04
1.0	0.25	3.53968406726548E-04
1.0	0.3	3.85941250925509E-04
1.0	0.35	4.08044196309816E-04
1.0	0.4	4.22406598610805E-04
1.0	0.45	4.31523109133636E-04
1.0	0.5	4.37740700552449E-04
1.0	0.55	4.42572947110199E-04
1.0	0.6	4.46690194220901E-04
1.0	0.65	4.50369726009575E-04
1.0	0.7	4.53760164662900E-04
1.0	0.75	4.56951977276218E-04
1.0	0.8	4.59998330597399E-04
1.0	0.85	4.62930811614089E-04
1.0	0.9	4.65771464476730E-04
1.0	0.95	4.68535601280620E-04
1.0	1.0	4.71233510724676E-04
1.0	1.05	4.73875220124812E-04
1.0	1.1	4.76467545285774E-04
1.0	1.15	4.79014449169175E-04
1.0	1.2	4.81521689980548E-04
1.1	0.0	4.79811059967390E-17
1.1	0.05	1.11518603375471E-04
1.1	0.1	2.09088084753201E-04
1.1	0.15	2.92838190161390E-04
1.1	0.2	3.63281138655744E-04
1.1	0.25	4.21095361474139E-04
1.1	0.3	4.67110462126872E-04
1.1	0.35	5.02351291606076E-04
1.1	0.4	5.28113073360627E-04
1.1	0.45	5.46038326596917E-04
1.1	0.5	5.58117323758252E-04
1.1	0.55	5.66445279371459E-04
1.1	0.6	5.72702379936820E-04
1.1	0.65	5.77849793323589E-04
1.1	0.7	5.82342006559638E-04
1.1	0.75	5.86412968343823E-04
1.1	0.8	5.90199855001801E-04
1.1	0.85	5.93787890366818E-04
1.1	0.9	5.97224900296486E-04
1.1	0.95	6.00543169385176E-04
1.1	1.0	6.03762088035789E-04
1.1	1.05	6.06898751968677E-04
1.1	1.1	6.09964355466729E-04
1.1	1.15	6.12966023054303E-04
1.1	1.2	6.15912657620425E-04
1.2	0.0	1.14346897942924E-16
1.2	0.05	1.21620910954472E-04
1.2	0.1	2.30015382714413E-04
1.2	0.15	3.25264732809762E-04
1.2	0.2	4.07796549272892E-04
1.2	0.25	4.78149659386236E-04
1.2	0.3	5.36936779202605E-04
1.2	0.35	5.84858387282378E-04
1.2	0.4	6.22744856688414E-04
1.2	0.45	6.51619899243166E-04
1.2	0.5	6.72768164158118E-04
1.2	0.55	6.87768440629492E-04
1.2	0.6	6.98394931391535E-04
1.2	0.65	7.06289131396033E-04
1.2	0.7	7.12602223948436E-04
1.2	0.75	7.17978239650470E-04
1.2	0.8	7.22762665417392E-04
1.2	0.85	7.27157841716874E-04
1.2	0.9	7.31283915573889E-04
1.2	0.95	7.35214521067213E-04
1.2	1.0	7.38993016611505E-04
1.2	1.05	7.42649595191641E-04
1.2	1.1	7.46202561990655E-04
1.2	1.15	7.49667963887660E-04
1.2	1.2	7.53058076335320E-04