vg	vd	ids
0.0	0.0	-1.70843720777789E-16
0.0	0.05	3.85530352843525E-12
0.0	0.1	4.81087599316244E-12
0.0	0.15	5.79647323417219E-12
0.0	0.2	7.03264815521975E-12
0.0	0.25	8.60310852264383E-12
0.0	0.3	1.06225124762440E-11
0.0	0.35	1.32490205727033E-11
0.0	0.4	1.67021074603571E-11
0.0	0.45	2.13020623029069E-11
0.0	0.5	2.74729720753706E-11
0.0	0.55	3.58289844135568E-11
0.0	0.6	4.72029977008911E-11
0.0	0.65	6.28455437315082E-11
0.0	0.7	8.43911515669081E-11
0.0	0.75	1.14206828243981E-10
0.0	0.8	1.55578192487779E-10
0.0	0.85	2.13002371276361E-10
0.0	0.9	2.93421571704622E-10
0.0	0.95	4.05890564510725E-10
0.0	1.0	5.62495135718141E-10
0.0	1.05	7.80818513274228E-10
0.0	1.1	1.08484946850850E-09
0.0	1.15	1.50747539440373E-09
0.0	1.2	2.09377709039840E-09
0.1	0.0	-4.33395826353223E-17
0.1	0.05	8.92994645080477E-11
0.1	0.1	1.08577518179448E-10
0.1	0.15	1.26101357744068E-10
0.1	0.2	1.46654293476821E-10
0.1	0.25	1.70986588518364E-10
0.1	0.3	1.99994744940219E-10
0.1	0.35	2.34907102530838E-10
0.1	0.4	2.77073949711089E-10
0.1	0.45	3.28741900967845E-10
0.1	0.5	3.92492095706043E-10
0.1	0.55	4.71662887304818E-10
0.1	0.6	5.71688706195929E-10
0.1	0.65	6.97278987118190E-10
0.1	0.7	8.57215300430801E-10
0.1	0.75	1.06531678041395E-09
0.1	0.8	1.33279324074502E-09
0.1	0.85	1.68099125784572E-09
0.1	0.9	2.13943927654225E-09
0.1	0.95	2.74021641039855E-09
0.1	1.0	3.53031022521610E-09
0.1	1.05	4.57294299185494E-09
0.1	1.1	5.95320909567222E-09
0.1	1.15	7.78276646667228E-09
0.1	1.2	1.02097402770866E-08
0.2	0.0	2.42213772008709E-17
0.2	0.05	2.27269346007935E-09
0.2	0.1	2.73553336191865E-09
0.2	0.15	3.11986518546106E-09
0.2	0.2	3.55194514419579E-09
0.2	0.25	4.04155824409545E-09
0.2	0.3	4.59843289307974E-09
0.2	0.35	5.23331859414052E-09
0.2	0.4	5.96579926485175E-09
0.2	0.45	6.80768731846178E-09
0.2	0.5	7.77810279802729E-09
0.2	0.55	8.91739829859336E-09
0.2	0.6	1.02429951436706E-08
0.2	0.65	1.18021182113397E-08
0.2	0.7	1.36515524038483E-08
0.2	0.75	1.58574161733181E-08
0.2	0.8	1.84940532646544E-08
0.2	0.85	2.16700521859296E-08
0.2	0.9	2.55180543192492E-08
0.2	0.95	3.02065160081899E-08
0.2	1.0	3.59490630693944E-08
0.2	1.05	4.30154484718437E-08
0.2	1.1	5.17473878589187E-08
0.2	1.15	6.25792026851574E-08
0.2	1.2	7.60561873151298E-08
0.3	0.0	6.61066648421937E-17
0.3	0.05	5.96784818249056E-08
0.3	0.1	7.17318817238887E-08
0.3	0.15	8.09990768220626E-08
0.3	0.2	9.10664509492500E-08
0.3	0.25	1.02115305251520E-07
0.3	0.3	1.14295276497055E-07
0.3	0.35	1.27759101832108E-07
0.3	0.4	1.42594896911579E-07
0.3	0.45	1.59110682170196E-07
0.3	0.5	1.77465346202834E-07
0.3	0.55	1.97825147785430E-07
0.3	0.6	2.20578986144483E-07
0.3	0.65	2.46006085858174E-07
0.3	0.7	2.74469098354585E-07
0.3	0.75	3.06429103979401E-07
0.3	0.8	3.42401639965131E-07
0.3	0.85	3.83006602691529E-07
0.3	0.9	4.28969648686239E-07
0.3	0.95	4.81152529569837E-07
0.3	1.0	5.40569405139996E-07
0.3	1.05	6.08422966142715E-07
0.3	1.1	6.86136384750080E-07
0.3	1.15	7.75392199721891E-07
0.3	1.2	8.78179806024353E-07
0.4	0.0	1.85522302548982E-17
0.4	0.05	1.40382318057846E-06
0.4	0.1	1.70499135773652E-06
0.4	0.15	1.90378280203339E-06
0.4	0.2	2.10683765748242E-06
0.4	0.25	2.32010328143352E-06
0.4	0.3	2.54547371740366E-06
0.4	0.35	2.78427543421969E-06
0.4	0.4	3.03774980274128E-06
0.4	0.45	3.30697544675159E-06
0.4	0.5	3.59318473795783E-06
0.4	0.55	3.89738362886002E-06
0.4	0.6	4.22093846155897E-06
0.4	0.65	4.56493756267730E-06
0.4	0.7	4.93084856630982E-06
0.4	0.75	5.32004976488061E-06
0.4	0.8	5.73413329705057E-06
0.4	0.85	6.17480951039614E-06
0.4	0.9	6.64394404933654E-06
0.4	0.95	7.14359245253526E-06
0.4	1.0	7.67600009613007E-06
0.4	1.05	8.24366475686611E-06
0.4	1.1	8.84930841034726E-06
0.4	1.15	9.49596011884139E-06
0.4	1.2	1.01869404734618E-05
0.5	0.0	-4.12885699695356E-18
0.5	0.05	1.44544479632322E-05
0.5	0.1	1.90760085543136E-05
0.5	0.15	2.09923290929452E-05
0.5	0.2	2.25179075511765E-05
0.5	0.25	2.39732179094542E-05
0.5	0.3	2.54076576117764E-05
0.5	0.35	2.68403052962932E-05
0.5	0.4	2.82809879656874E-05
0.5	0.45	2.97351564140163E-05
0.5	0.5	3.12067917128695E-05
0.5	0.55	3.26984658125261E-05
0.5	0.6	3.42122990947716E-05
0.5	0.65	3.57501952727321E-05
0.5	0.7	3.73136678694027E-05
0.5	0.75	3.89042041779453E-05
0.5	0.8	4.05233836431879E-05
0.5	0.85	4.21726404842729E-05
0.5	0.9	4.38535863260543E-05
0.5	0.95	4.55679764959955E-05
0.5	1.0	4.73177040413396E-05
0.5	1.05	4.91046234491101E-05
0.5	1.1	5.09312534549144E-05
0.5	1.15	5.27997543966098E-05
0.5	1.2	5.47130857687403E-05
0.6	0.0	-1.28928378491634E-17
0.6	0.05	4.29480521415335E-05
0.6	0.1	6.61807244388031E-05
0.6	0.15	7.68702810637032E-05
0.6	0.2	8.22344240872065E-05
0.6	0.25	8.61139618311591E-05
0.6	0.3	8.95449400744632E-05
0.6	0.35	9.27802743359981E-05
0.6	0.4	9.59104575813622E-05
0.6	0.45	9.89755906473806E-05
0.6	0.5	1.01997079398280E-04
0.6	0.55	1.04988738741177E-04
0.6	0.6	1.07959874821775E-04
0.6	0.65	1.10916985901924E-04
0.6	0.7	1.13865268697048E-04
0.6	0.75	1.16809535516709E-04
0.6	0.8	1.19752790831571E-04
0.6	0.85	1.22699129326436E-04
0.6	0.9	1.25651231416833E-04
0.6	0.95	1.28611960752389E-04
0.6	1.0	1.31584522677188E-04
0.6	1.05	1.34571625544322E-04
0.6	1.1	1.37576232479590E-04
0.6	1.15	1.40602033653338E-04
0.6	1.2	1.43651547147055E-04
0.7	0.0	-3.32229004109659E-18
0.7	0.05	7.28508407873906E-05
0.7	0.1	1.22523290730084E-04
0.7	0.15	1.53119292326706E-04
0.7	0.2	1.70261638064392E-04
0.7	0.25	1.79963379697485E-04
0.7	0.3	1.86607157363549E-04
0.7	0.35	1.92105308098126E-04
0.7	0.4	1.97101483119209E-04
0.7	0.45	2.01831627631496E-04
0.7	0.5	2.06393214521242E-04
0.7	0.55	2.10835512495735E-04
0.7	0.6	2.15186163009373E-04
0.7	0.65	2.19464574376201E-04
0.7	0.7	2.23684403254940E-04
0.7	0.75	2.27856672346938E-04
0.7	0.8	2.31988601570293E-04
0.7	0.85	2.36088442470608E-04
0.7	0.9	2.40161101077876E-04
0.7	0.95	2.44212842659735E-04
0.7	1.0	2.48248205509698E-04
0.7	1.05	2.52271452565240E-04
0.7	1.1	2.56287772619901E-04
0.7	1.15	2.60302026576739E-04
0.7	1.2	2.64316305941326E-04
0.8	0.0	-7.31898402407715E-17
0.8	0.05	9.94995593384643E-05
0.8	0.1	1.75018985584233E-04
0.8	0.15	2.29033301395806E-04
0.8	0.2	2.65174933175280E-04
0.8	0.25	2.87866232592854E-04
0.8	0.3	3.01959119043319E-04
0.8	0.35	3.11592267571010E-04
0.8	0.4	3.19214706645127E-04
0.8	0.45	3.25919045686544E-04
0.8	0.5	3.32141685995069E-04
0.8	0.55	3.38066876345839E-04
0.8	0.6	3.43782443558386E-04
0.8	0.65	3.49338418803158E-04
0.8	0.7	3.54767682606149E-04
0.8	0.75	3.60092281992692E-04
0.8	0.8	3.65329297769118E-04
0.8	0.85	3.70490543406114E-04
0.8	0.9	3.75588059528692E-04
0.8	0.95	3.80630811833576E-04
0.8	1.0	3.85626182578145E-04
0.8	1.05	3.90584904355830E-04
0.8	1.1	3.95506641198173E-04
0.8	1.15	4.00404432568406E-04
0.8	1.2	4.05282148295712E-04
0.9	0.0	5.59545402858036E-17
0.9	0.05	1.22265683171540E-04
0.9	0.1	2.20831358210375E-04
0.9	0.15	2.97275450071788E-04
0.9	0.2	3.54093908077879E-04
0.9	0.25	3.94323777477800E-04
0.9	0.3	4.21530678309479E-04
0.9	0.35	4.39634180554498E-04
0.9	0.4	4.52284306624602E-04
0.9	0.45	4.62088934558537E-04
0.9	0.5	4.70490829264456E-04
0.9	0.55	4.78152697632016E-04
0.9	0.6	4.85361407915469E-04
0.9	0.65	4.92256349517219E-04
0.9	0.7	4.98914143341092E-04
0.9	0.75	5.05386844907766E-04
0.9	0.8	5.11704806445659E-04
0.9	0.85	5.17895351553641E-04
0.9	0.9	5.23975371407276E-04
0.9	0.95	5.29963147672076E-04
0.9	1.0	5.35867584934654E-04
0.9	1.05	5.41704217955470E-04
0.9	1.1	5.47479213558779E-04
0.9	1.15	5.53201510185910E-04
0.9	1.2	5.58882117986249E-04
1.0	0.0	1.28866918555071E-16
1.0	0.05	1.41431677441091E-04
1.0	0.1	2.59892538894453E-04
1.0	0.15	3.56446365954930E-04
1.0	0.2	4.32932283091765E-04
1.0	0.25	4.91548624205114E-04
1.0	0.3	5.34832585145967E-04
1.0	0.35	5.65687910854768E-04
1.0	0.4	5.87317126010130E-04
1.0	0.45	6.02864636285340E-04
1.0	0.5	6.14869477152451E-04
1.0	0.55	6.24976498703618E-04
1.0	0.6	6.34053318603628E-04
1.0	0.65	6.42502971886803E-04
1.0	0.7	6.50520151625347E-04
1.0	0.75	6.58216218090626E-04
1.0	0.8	6.65662293700160E-04
1.0	0.85	6.72902364207898E-04
1.0	0.9	6.79972635162990E-04
1.0	0.95	6.86897393574245E-04
1.0	1.0	6.93698570720524E-04
1.0	1.05	7.00392996680103E-04
1.0	1.1	7.06995700270635E-04
1.0	1.15	7.13517509257402E-04
1.0	1.2	7.19971183026913E-04
1.1	0.0	6.80995854272969E-18
1.1	0.05	1.57514674729893E-04
1.1	0.1	2.92927796120288E-04
1.1	0.15	4.07011746481737E-04
1.1	0.2	5.01224402172977E-04
1.1	0.25	5.77267520692372E-04
1.1	0.3	6.37033993902424E-04
1.1	0.35	6.82640002370833E-04
1.1	0.4	7.16474108502091E-04
1.1	0.45	7.41176062988636E-04
1.1	0.5	7.59435171928679E-04
1.1	0.55	7.73612352341374E-04
1.1	0.6	7.85429642661970E-04
1.1	0.65	7.95912227329468E-04
1.1	0.7	8.05577799827569E-04
1.1	0.75	8.14685962033588E-04
1.1	0.8	8.23381233058018E-04
1.1	0.85	8.31755512066822E-04
1.1	0.9	8.39872023584854E-04
1.1	0.95	8.47771467645623E-04
1.1	1.0	8.55491667647884E-04
1.1	1.05	8.63055463233177E-04
1.1	1.1	8.70488377789805E-04
1.1	1.15	8.77806490845218E-04
1.1	1.2	8.85023673510015E-04
1.2	0.0	-1.29280276774451E-16
1.2	0.05	1.71048006503730E-04
1.2	0.1	3.20854901697284E-04
1.2	0.15	4.50033011271219E-04
1.2	0.2	5.59823079321193E-04
1.2	0.25	6.51636738536035E-04
1.2	0.3	7.26981056549333E-04
1.2	0.35	7.87471589346384E-04
1.2	0.4	8.34878487556326E-04
1.2	0.45	8.71179235909795E-04
1.2	0.5	8.98568155509050E-04
1.2	0.55	9.19337529592431E-04
1.2	0.6	9.35628443988922E-04
1.2	0.65	9.49150948440642E-04
1.2	0.7	9.61035867040248E-04
1.2	0.75	9.71904959645855E-04
1.2	0.8	9.82082063210652E-04
1.2	0.85	9.91753422164774E-04
1.2	0.9	1.00103222271285E-03
1.2	0.95	1.00999162439136E-03
1.2	1.0	1.01868964348543E-03
1.2	1.05	1.02716700325469E-03
1.2	1.1	1.03546114557531E-03
1.2	1.15	1.04359490727124E-03
1.2	1.2	1.05159266946600E-03