vg	vd	ids
0.0	0.0	-7.04234440125034E-17
0.0	0.05	3.60531815687352E-13
0.0	0.1	4.34035713308803E-13
0.0	0.15	4.79813918605943E-13
0.0	0.2	5.27942523819016E-13
0.0	0.25	5.81019136124855E-13
0.0	0.3	6.39513151538129E-13
0.0	0.35	7.03732373250190E-13
0.0	0.4	7.74935855204017E-13
0.0	0.45	8.53315761992405E-13
0.0	0.5	9.41088998466471E-13
0.0	0.55	1.03834892281082E-12
0.0	0.6	1.14711443609822E-12
0.0	0.65	1.26835555589389E-12
0.0	0.7	1.40544402165316E-12
0.0	0.75	1.55896502591734E-12
0.0	0.8	1.73323111293888E-12
0.0	0.85	1.93015831635117E-12
0.0	0.9	2.15581108428340E-12
0.0	0.95	2.41408630776153E-12
0.0	1.0	2.71149729493901E-12
0.0	1.05	3.05550597845081E-12
0.0	1.1	3.45597609935349E-12
0.0	1.15	3.92497297138083E-12
0.0	1.2	4.47693267654518E-12
0.1	0.0	2.27421376296822E-17
0.1	0.05	1.06472180931598E-11
0.1	0.1	1.27905633597674E-11
0.1	0.15	1.40792273728013E-11
0.1	0.2	1.54114137226371E-11
0.1	0.25	1.68551092109992E-11
0.1	0.3	1.84226575865676E-11
0.1	0.35	2.01278102029975E-11
0.1	0.4	2.19831078760627E-11
0.1	0.45	2.40042901522372E-11
0.1	0.5	2.62076344108762E-11
0.1	0.55	2.86135456035396E-11
0.1	0.6	3.12437779780774E-11
0.1	0.65	3.41226966848568E-11
0.1	0.7	3.72786545155469E-11
0.1	0.75	4.07426809741963E-11
0.1	0.8	4.45528964082602E-11
0.1	0.85	4.87514547503092E-11
0.1	0.9	5.33871935963638E-11
0.1	0.95	5.85168956079606E-11
0.1	1.0	6.42073374593996E-11
0.1	1.05	7.05357256054130E-11
0.1	1.1	7.75942465899048E-11
0.1	1.15	8.54900136371794E-11
0.1	1.2	9.43524225546650E-11
0.2	0.0	3.92492473767647E-17
0.2	0.05	3.19854600903548E-10
0.2	0.1	3.84385056559186E-10
0.2	0.15	4.22086210683374E-10
0.2	0.2	4.60403847563146E-10
0.2	0.25	5.01475408915612E-10
0.2	0.3	5.45619510194211E-10
0.2	0.35	5.93118311450223E-10
0.2	0.4	6.44234915353956E-10
0.2	0.45	6.99262357390856E-10
0.2	0.5	7.58541734508566E-10
0.2	0.55	8.22442188397427E-10
0.2	0.6	8.91365722598755E-10
0.2	0.65	9.65748609813172E-10
0.2	0.7	1.04607626990818E-09
0.2	0.75	1.13287717877012E-09
0.2	0.8	1.22674167496597E-09
0.2	0.85	1.32832293554185E-09
0.2	0.9	1.43834579332620E-09
0.2	0.95	1.55762249901620E-09
0.2	1.0	1.68705987283093E-09
0.2	1.05	1.82767493638900E-09
0.2	1.1	1.98061370584286E-09
0.2	1.15	2.14716700167056E-09
0.2	1.2	2.32880258420925E-09
0.3	0.0	-2.35444579227036E-16
0.3	0.05	9.63551529318329E-09
0.3	0.1	1.16083874957172E-08
0.3	0.15	1.27326908272405E-08
0.3	0.2	1.38542751003883E-08
0.3	0.25	1.50425748446040E-08
0.3	0.3	1.63071900308177E-08
0.3	0.35	1.76537209461124E-08
0.3	0.4	1.90876483750941E-08
0.3	0.45	2.06162499179197E-08
0.3	0.5	2.22464617969586E-08
0.3	0.55	2.39854351829826E-08
0.3	0.6	2.58408147180017E-08
0.3	0.65	2.78207963492217E-08
0.3	0.7	2.99341385505998E-08
0.3	0.75	3.21902671482904E-08
0.3	0.8	3.45992665119172E-08
0.3	0.85	3.71720516604929E-08
0.3	0.9	3.99203317337360E-08
0.3	0.95	4.28568137609552E-08
0.3	1.0	4.59952034340303E-08
0.3	1.05	4.93503825052015E-08
0.3	1.1	5.29384996298965E-08
0.3	1.15	5.67771091877073E-08
0.3	1.2	6.08853102323787E-08
0.4	0.0	-2.58435666699987E-16
0.4	0.05	2.72387776793227E-07
0.4	0.1	3.31295396889765E-07
0.4	0.15	3.62946591257327E-07
0.4	0.2	3.93218493331114E-07
0.4	0.25	4.24609942667310E-07
0.4	0.3	4.57423321861472E-07
0.4	0.35	4.91754589230596E-07
0.4	0.4	5.27752575826202E-07
0.4	0.45	5.65531508521261E-07
0.4	0.5	6.05190892327566E-07
0.4	0.55	6.46830392629226E-07
0.4	0.6	6.90547746304940E-07
0.4	0.65	7.36442960513314E-07
0.4	0.7	7.84615870617677E-07
0.4	0.75	8.35170429311758E-07
0.4	0.8	8.88211291493674E-07
0.4	0.85	9.43847939409564E-07
0.4	0.9	1.00219185244689E-06
0.4	0.95	1.06335870301650E-06
0.4	1.0	1.12746845329504E-06
0.4	1.05	1.19464407710306E-06
0.4	1.1	1.26501469910359E-06
0.4	1.15	1.33871263203608E-06
0.4	1.2	1.41587634464850E-06
0.5	0.0	2.44282918533137E-16
0.5	0.05	4.20217380610153E-06
0.5	0.1	5.47860144242022E-06
0.5	0.15	5.99486322824715E-06
0.5	0.2	6.38764659305896E-06
0.5	0.25	6.76264122934937E-06
0.5	0.3	7.13534088671871E-06
0.5	0.35	7.50981127004824E-06
0.5	0.4	7.88821965482075E-06
0.5	0.45	8.27171690681903E-06
0.5	0.5	8.66106188510495E-06
0.5	0.55	9.05673434262869E-06
0.5	0.6	9.45913744003051E-06
0.5	0.65	9.86852568388461E-06
0.5	0.7	1.02851659479429E-05
0.5	0.75	1.07092139902242E-05
0.5	0.8	1.11408801606214E-05
0.5	0.85	1.15802739057327E-05
0.5	0.9	1.20275687290393E-05
0.5	0.95	1.24828654745884E-05
0.5	1.0	1.29462969288957E-05
0.5	1.05	1.34179743488058E-05
0.5	1.1	1.38980110954471E-05
0.5	1.15	1.43865056678895E-05
0.5	1.2	1.48835806161089E-05
0.6	0.0	2.98634021386099E-17
0.6	0.05	1.66227686552820E-05
0.6	0.1	2.56871508502439E-05
0.6	0.15	2.99272587613584E-05
0.6	0.2	3.20320823234567E-05
0.6	0.25	3.34872614790882E-05
0.6	0.3	3.47598583056219E-05
0.6	0.35	3.59635259053176E-05
0.6	0.4	3.71335437155134E-05
0.6	0.45	3.82844752678055E-05
0.6	0.5	3.94236771659983E-05
0.6	0.55	4.05556018535540E-05
0.6	0.6	4.16827937793554E-05
0.6	0.65	4.28074717266272E-05
0.6	0.7	4.39308941595249E-05
0.6	0.75	4.50542904952214E-05
0.6	0.8	4.61785099197540E-05
0.6	0.85	4.73042258806586E-05
0.6	0.9	4.84321372270212E-05
0.6	0.95	4.95627125188859E-05
0.6	1.0	5.06963512133829E-05
0.6	1.05	5.18335669335803E-05
0.6	1.1	5.29745817620149E-05
0.6	1.15	5.41197858882771E-05
0.6	1.2	5.52694809260987E-05
0.7	0.0	-2.57507493334658E-16
0.7	0.05	3.17146025545951E-05
0.7	0.1	5.41057908616203E-05
0.7	0.15	6.85518946894859E-05
0.7	0.2	7.70619372110865E-05
0.7	0.25	8.19533920988218E-05
0.7	0.3	8.51521800937713E-05
0.7	0.35	8.76923046581758E-05
0.7	0.4	8.99646543673080E-05
0.7	0.45	9.21079104249101E-05
0.7	0.5	9.41759536469825E-05
0.7	0.55	9.61937264163871E-05
0.7	0.6	9.81739970689516E-05
0.7	0.65	1.00125390221741E-04
0.7	0.7	1.02053277728411E-04
0.7	0.75	1.03962027296233E-04
0.7	0.8	1.05854390809706E-04
0.7	0.85	1.07732915674164E-04
0.7	0.9	1.09599596928966E-04
0.7	0.95	1.11456074613529E-04
0.7	1.0	1.13303700020933E-04
0.7	1.05	1.15143739994616E-04
0.7	1.1	1.16977217779839E-04
0.7	1.15	1.18805028126129E-04
0.7	1.2	1.20628133050958E-04
0.8	0.0	-6.93885529422853E-17
0.8	0.05	4.63461574542702E-05
0.8	0.1	8.28277445088593E-05
0.8	0.15	1.10167664251401E-04
0.8	0.2	1.29522422011131E-04
0.8	0.25	1.42429471402613E-04
0.8	0.3	1.50737350832998E-04
0.8	0.35	1.56288658361040E-04
0.8	0.4	1.60454643049228E-04
0.8	0.45	1.63980817162676E-04
0.8	0.5	1.67196666886760E-04
0.8	0.55	1.70238953453111E-04
0.8	0.6	1.73168328524971E-04
0.8	0.65	1.76015980989837E-04
0.8	0.7	1.78799500793084E-04
0.8	0.75	1.81531208180995E-04
0.8	0.8	1.84218798044133E-04
0.8	0.85	1.86868904486931E-04
0.8	0.9	1.89486204837379E-04
0.8	0.95	1.92074185240211E-04
0.8	1.0	1.94636633236121E-04
0.8	1.05	1.97175784672083E-04
0.8	1.1	1.99693892010889E-04
0.8	1.15	2.02193185662816E-04
0.8	1.2	2.04675347472655E-04
0.9	0.0	-1.55405281779060E-17
0.9	0.05	5.98091829575494E-05
0.9	0.1	1.09677523403564E-04
0.9	0.15	1.49986852280258E-04
0.9	0.2	1.81451643397778E-04
0.9	0.25	2.05040494034762E-04
0.9	0.3	2.21988961064453E-04
0.9	0.35	2.33782091938156E-04
0.9	0.4	2.42020239467172E-04
0.9	0.45	2.48127774385753E-04
0.9	0.5	2.53098744940455E-04
0.9	0.55	2.57487704124328E-04
0.9	0.6	2.61552477425278E-04
0.9	0.65	2.65413870634107E-04
0.9	0.7	2.69131525135366E-04
0.9	0.75	2.72739566861939E-04
0.9	0.8	2.76258638564094E-04
0.9	0.85	2.79704163320575E-04
0.9	0.9	2.83086319743042E-04
0.9	0.95	2.86413513271344E-04
0.9	1.0	2.89691904732268E-04
0.9	1.05	2.92926319990387E-04
0.9	1.1	2.96121721301730E-04
0.9	1.15	2.99281702871540E-04
0.9	1.2	3.02409126796589E-04
1.0	0.0	1.96892262475475E-16
1.0	0.05	7.19366237951053E-05
1.0	0.1	1.34084676505496E-04
1.0	0.15	1.86619670479969E-04
1.0	0.2	2.30003240448438E-04
1.0	0.25	2.64879000984685E-04
1.0	0.3	2.92070855228312E-04
1.0	0.35	3.12597819932704E-04
1.0	0.4	3.27678337455167E-04
1.0	0.45	3.38671920302994E-04
1.0	0.5	3.46913823128010E-04
1.0	0.55	3.53499000470687E-04
1.0	0.6	3.59161238657924E-04
1.0	0.65	3.64303817811536E-04
1.0	0.7	3.69120996388686E-04
1.0	0.75	3.73714348003610E-04
1.0	0.8	3.78139752735003E-04
1.0	0.85	3.82431634804351E-04
1.0	0.9	3.86613999771305E-04
1.0	0.95	3.90703020762915E-04
1.0	1.0	3.94711339841641E-04
1.0	1.05	3.98649652720721E-04
1.0	1.1	4.02523919080813E-04
1.0	1.15	4.06342653820789E-04
1.0	1.2	4.10110762639576E-04
1.1	0.0	6.19172523731648E-17
1.1	0.05	8.27421654402289E-05
1.1	0.1	1.55964434845231E-04
1.1	0.15	2.19711490468216E-04
1.1	0.2	2.74288357890613E-04
1.1	0.25	3.20141331720826E-04
1.1	0.3	3.57842255571587E-04
1.1	0.35	3.88095894808893E-04
1.1	0.4	4.11757421033365E-04
1.1	0.45	4.29843329659306E-04
1.1	0.5	4.43507999712449E-04
1.1	0.55	4.53951991548064E-04
1.1	0.6	4.62268041085175E-04
1.1	0.65	4.69295899006170E-04
1.1	0.7	4.75567719207305E-04
1.1	0.75	4.81370213449656E-04
1.1	0.8	4.86849917800129E-04
1.1	0.85	4.92090623829720E-04
1.1	0.9	4.97144948987577E-04
1.1	0.95	5.02048704730103E-04
1.1	1.0	5.06823966026293E-04
1.1	1.05	5.11491733422301E-04
1.1	1.1	5.16063130109817E-04
1.1	1.15	5.20551849053433E-04
1.1	1.2	5.24964036737716E-04
1.2	0.0	1.37511893536198E-16
1.2	0.05	9.23173990931884E-05
1.2	0.1	1.75435179028291E-04
1.2	0.15	2.49314982974593E-04
1.2	0.2	3.14163057961699E-04
1.2	0.25	3.70301353038055E-04
1.2	0.3	4.18143430293214E-04
1.2	0.35	4.58193449778656E-04
1.2	0.4	4.91057708312528E-04
1.2	0.45	5.17461600147914E-04
1.2	0.5	5.38263350034941E-04
1.2	0.55	5.54447298915427E-04
1.2	0.6	5.67074592014341E-04
1.2	0.65	5.77180486735174E-04
1.2	0.7	5.85644520520860E-04
1.2	0.75	5.93095562682490E-04
1.2	0.8	5.99909013645892E-04
1.2	0.85	6.06288395463215E-04
1.2	0.9	6.12348354451571E-04
1.2	0.95	6.18161332412312E-04
1.2	1.0	6.23774359708540E-04
1.2	1.05	6.29223671714288E-04
1.2	1.1	6.34531039486145E-04
1.2	1.15	6.39718582148434E-04
1.2	1.2	6.44796807944705E-04