vg	vd	ids
0.0	0.0	-4.73981139366763E-17
0.0	0.05	3.03846989490715E-12
0.0	0.1	3.88750757787669E-12
0.0	0.15	4.74497629920364E-12
0.0	0.2	5.81413717918241E-12
0.0	0.25	7.16292160335211E-12
0.0	0.3	8.87927843051050E-12
0.0	0.35	1.10817839629272E-11
0.0	0.4	1.39322121939074E-11
0.0	0.45	1.76499478867795E-11
0.0	0.5	2.25335671491089E-11
0.0	0.55	2.89916716867143E-11
0.0	0.6	3.75808488561140E-11
0.0	0.65	4.90589856083143E-11
0.0	0.7	6.44406243794053E-11
0.0	0.75	8.51385653548015E-11
0.0	0.8	1.13096002363934E-10
0.0	0.85	1.50959363620921E-10
0.0	0.9	2.02319507530097E-10
0.0	0.95	2.72066588911230E-10
0.0	1.0	3.66837535035913E-10
0.0	1.05	4.95619000128361E-10
0.0	1.1	6.70511805764238E-10
0.0	1.15	9.07841299174741E-10
0.0	1.2	1.22946158368909E-09
0.1	0.0	1.17172512243064E-17
0.1	0.05	6.37293045497565E-11
0.1	0.1	7.96247776086955E-11
0.1	0.15	9.39872700408569E-11
0.1	0.2	1.10846768694553E-10
0.1	0.25	1.30842419199636E-10
0.1	0.3	1.54692209948992E-10
0.1	0.35	1.83310751046767E-10
0.1	0.4	2.17865328724153E-10
0.1	0.45	2.59851195116917E-10
0.1	0.5	3.11197360150077E-10
0.1	0.55	3.74405324838845E-10
0.1	0.6	4.52717803141732E-10
0.1	0.65	5.50356323076242E-10
0.1	0.7	6.72822016881335E-10
0.1	0.75	8.27252327311035E-10
0.1	0.8	1.02310298658383E-09
0.1	0.85	1.27257146084551E-09
0.1	0.9	1.59163636625640E-09
0.1	0.95	2.00122240544626E-09
0.1	1.0	2.52828362478272E-09
0.1	1.05	3.20729173195659E-09
0.1	1.1	4.08461632430632E-09
0.1	1.15	5.22042114810160E-09
0.1	1.2	6.69265517638730E-09
0.2	0.0	-3.13334958096062E-17
0.2	0.05	1.46287430764915E-09
0.2	0.1	1.81135974832633E-09
0.2	0.15	2.10236379731991E-09
0.2	0.2	2.43007364026589E-09
0.2	0.25	2.80301375227290E-09
0.2	0.3	3.22869179997968E-09
0.2	0.35	3.71605178079765E-09
0.2	0.4	4.27587326634032E-09
0.2	0.45	4.92113010369438E-09
0.2	0.5	5.66760253730490E-09
0.2	0.55	6.53449246737459E-09
0.2	0.6	7.54512467198629E-09
0.2	0.65	8.72852403451865E-09
0.2	0.7	1.01198823351893E-08
0.2	0.75	1.17632637212246E-08
0.2	0.8	1.37132390580647E-08
0.2	0.85	1.60358567755546E-08
0.2	0.9	1.88156917795756E-08
0.2	0.95	2.21561424440809E-08
0.2	1.0	2.61860652620073E-08
0.2	1.05	3.10652650843495E-08
0.2	1.1	3.69932009257959E-08
0.2	1.15	4.42166878672110E-08
0.2	1.2	5.30437817961936E-08
0.3	0.0	-4.65573720280984E-17
0.3	0.05	3.45564557002642E-08
0.3	0.1	4.27796166275357E-08
0.3	0.15	4.92283369563356E-08
0.3	0.2	5.62482774381885E-08
0.3	0.25	6.39928446322013E-08
0.3	0.3	7.25533573419557E-08
0.3	0.35	8.20310336342150E-08
0.3	0.4	9.25393235008615E-08
0.3	0.45	1.04207127967204E-07
0.3	0.5	1.17180957930338E-07
0.3	0.55	1.31629907762760E-07
0.3	0.6	1.47744047393666E-07
0.3	0.65	1.65749040985598E-07
0.3	0.7	1.85902897394412E-07
0.3	0.75	2.08497222518092E-07
0.3	0.8	2.33884795720389E-07
0.3	0.85	2.62466459554494E-07
0.3	0.9	2.94712097784403E-07
0.3	0.95	3.31169500481336E-07
0.3	1.0	3.72479243307465E-07
0.3	1.05	4.19388863250642E-07
0.3	1.1	4.72771337943225E-07
0.3	1.15	5.33642946997917E-07
0.3	1.2	6.03196818078517E-07
0.4	0.0	1.37011565666689E-17
0.4	0.05	7.51548356333411E-07
0.4	0.1	9.38742261532805E-07
0.4	0.15	1.07051428070350E-06
0.4	0.2	1.20648647293504E-06
0.4	0.25	1.35039854823814E-06
0.4	0.3	1.50322011491252E-06
0.4	0.35	1.66577473632646E-06
0.4	0.4	1.83884932343717E-06
0.4	0.45	2.02322229078696E-06
0.4	0.5	2.21971430303878E-06
0.4	0.55	2.42914012629022E-06
0.4	0.6	2.65235964826595E-06
0.4	0.65	2.89036838785392E-06
0.4	0.7	3.14411763376363E-06
0.4	0.75	3.41471171129709E-06
0.4	0.8	3.70329575282778E-06
0.4	0.85	4.01112351969737E-06
0.4	0.9	4.33955789119535E-06
0.4	0.95	4.69006581579342E-06
0.4	1.0	5.06426322710107E-06
0.4	1.05	5.46389510235688E-06
0.4	1.1	5.89088077187513E-06
0.4	1.15	6.34728566524631E-06
0.4	1.2	6.83540493268868E-06
0.5	0.0	-9.67428041981108E-18
0.5	0.05	8.41033707347799E-06
0.5	0.1	1.11717132597263E-05
0.5	0.15	1.25067086576988E-05
0.5	0.2	1.36425791602289E-05
0.5	0.25	1.47455750682710E-05
0.5	0.3	1.58387723904529E-05
0.5	0.35	1.69310181470045E-05
0.5	0.4	1.80277966458413E-05
0.5	0.45	1.91331018482799E-05
0.5	0.5	2.02497856054837E-05
0.5	0.55	2.13803731741859E-05
0.5	0.6	2.25267072418351E-05
0.5	0.65	2.36908220680201E-05
0.5	0.7	2.48741060806516E-05
0.5	0.75	2.60782593322196E-05
0.5	0.8	2.73046793535385E-05
0.5	0.85	2.85549010137458E-05
0.5	0.9	2.98303995608105E-05
0.5	0.95	3.11328071062078E-05
0.5	1.0	3.24635735052497E-05
0.5	1.05	3.38246166397245E-05
0.5	1.1	3.52175984558815E-05
0.5	1.15	3.66444534379829E-05
0.5	1.2	3.81072894104068E-05
0.6	0.0	3.87346743134657E-17
0.6	0.05	2.79229415452685E-05
0.6	0.1	4.29818469092079E-05
0.6	0.15	5.01614715257216E-05
0.6	0.2	5.41723828824524E-05
0.6	0.25	5.73115737455729E-05
0.6	0.3	6.01653734625009E-05
0.6	0.35	6.28632664628596E-05
0.6	0.4	6.54553834576558E-05
0.6	0.45	6.79719982718588E-05
0.6	0.5	7.04331530385294E-05
0.6	0.55	7.28535794751711E-05
0.6	0.6	7.52440271582815E-05
0.6	0.65	7.76126700947314E-05
0.6	0.7	7.99663150486286E-05
0.6	0.75	8.23100748018847E-05
0.6	0.8	8.46490511446622E-05
0.6	0.85	8.69870032083480E-05
0.6	0.9	8.93276977032362E-05
0.6	0.95	9.16745368332891E-05
0.6	1.0	9.40306207536782E-05
0.6	1.05	9.63987635771317E-05
0.6	1.1	9.87822847991466E-05
0.6	1.15	1.01183594888755E-04
0.6	1.2	1.03605846609937E-04
0.7	0.0	-2.08970567926900E-17
0.7	0.05	4.97134988072544E-05
0.7	0.1	8.39035743723106E-05
0.7	0.15	1.05294198879071E-04
0.7	0.2	1.17713785331079E-04
0.7	0.25	1.25259368039538E-04
0.7	0.3	1.30820391947061E-04
0.7	0.35	1.35595264351287E-04
0.7	0.4	1.39949895562051E-04
0.7	0.45	1.44025439633179E-04
0.7	0.5	1.47900469118521E-04
0.7	0.55	1.51627627860318E-04
0.7	0.6	1.55241412034549E-04
0.7	0.65	1.58767485164267E-04
0.7	0.7	1.62223789592701E-04
0.7	0.75	1.65623908486187E-04
0.7	0.8	1.68979662206810E-04
0.7	0.85	1.72299681920508E-04
0.7	0.9	1.75591741883263E-04
0.7	0.95	1.78862345258241E-04
0.7	1.0	1.82117413963423E-04
0.7	1.05	1.85362026283653E-04
0.7	1.1	1.88601114584777E-04
0.7	1.15	1.91839283498348E-04
0.7	1.2	1.95080708112886E-04
0.8	0.0	-3.69055851009494E-17
0.8	0.05	6.98287154161520E-05
0.8	0.1	1.23379419001263E-04
0.8	0.15	1.62246268602633E-04
0.8	0.2	1.88822310089576E-04
0.8	0.25	2.06113098906161E-04
0.8	0.3	2.17448680655348E-04
0.8	0.35	2.25681163508546E-04
0.8	0.4	2.32455605595153E-04
0.8	0.45	2.38441132764173E-04
0.8	0.5	2.43917538325581E-04
0.8	0.55	2.49040221968224E-04
0.8	0.6	2.53905201908157E-04
0.8	0.65	2.58577182115730E-04
0.8	0.7	2.63099535657477E-04
0.8	0.75	2.67503246210015E-04
0.8	0.8	2.71811301181873E-04
0.8	0.85	2.76039740116137E-04
0.8	0.9	2.80204188977229E-04
0.8	0.95	2.84315905034318E-04
0.8	1.0	2.88383249529108E-04
0.8	1.05	2.92416183891862E-04
0.8	1.1	2.96421413215760E-04
0.8	1.15	3.00405021186026E-04
0.8	1.2	3.04373720512723E-04
0.9	0.0	4.41268546366067E-17
0.9	0.05	8.76959210626326E-05
0.9	0.1	1.59042962750586E-04
0.9	0.15	2.15053470133629E-04
0.9	0.2	2.57366232831397E-04
0.9	0.25	2.88032524179678E-04
0.9	0.3	3.09489772161268E-04
0.9	0.35	3.24443634679790E-04
0.9	0.4	3.35437288722166E-04
0.9	0.45	3.44268587855941E-04
0.9	0.5	3.51880290530609E-04
0.9	0.55	3.58710033997368E-04
0.9	0.6	3.65000741542080E-04
0.9	0.65	3.70910573961133E-04
0.9	0.7	3.76540691416750E-04
0.9	0.75	3.81957227693509E-04
0.9	0.8	3.87206323961390E-04
0.9	0.85	3.92320793945217E-04
0.9	0.9	3.97324057935387E-04
0.9	0.95	4.02237071934358E-04
0.9	1.0	4.07072758740454E-04
0.9	1.05	4.11846136922950E-04
0.9	1.1	4.16568048251014E-04
0.9	1.15	4.21244411793336E-04
0.9	1.2	4.25888172496326E-04
1.0	0.0	-3.18453518870921E-17
1.0	0.05	1.03375998379715E-04
1.0	0.1	1.90644285717653E-04
1.0	0.15	2.62466263581425E-04
1.0	0.2	3.20051454704335E-04
1.0	0.25	3.64902249677276E-04
1.0	0.3	3.98780705920629E-04
1.0	0.35	4.23710977226026E-04
1.0	0.4	4.41922332941968E-04
1.0	0.45	4.55607437364766E-04
1.0	0.5	4.66518672662706E-04
1.0	0.55	4.75756689610506E-04
1.0	0.6	4.83919534378198E-04
1.0	0.65	4.91342289160393E-04
1.0	0.7	4.98240699173311E-04
1.0	0.75	5.04763701874651E-04
1.0	0.8	5.11006080714757E-04
1.0	0.85	5.17030484082430E-04
1.0	0.9	5.22881722989655E-04
1.0	0.95	5.28592568144933E-04
1.0	1.0	5.34184577517033E-04
1.0	1.05	5.39681650433376E-04
1.0	1.1	5.45096946204476E-04
1.0	1.15	5.50443281288490E-04
1.0	1.2	5.55734300087483E-04
1.1	0.0	-1.94880380761801E-17
1.1	0.05	1.17073838974536E-04
1.1	0.1	2.18430879542660E-04
1.1	0.15	3.04506907835032E-04
1.1	0.2	3.76241698920731E-04
1.1	0.25	4.34802419779650E-04
1.1	0.3	4.81531712732311E-04
1.1	0.35	5.17948310822711E-04
1.1	0.4	5.45759914690131E-04
1.1	0.45	5.66831918073385E-04
1.1	0.5	5.83037718604020E-04
1.1	0.55	5.95997682175513E-04
1.1	0.6	6.06863615648567E-04
1.1	0.65	6.16350251169954E-04
1.1	0.7	6.24885266196547E-04
1.1	0.75	6.32749513952309E-04
1.1	0.8	6.40130599671841E-04
1.1	0.85	6.47156206996934E-04
1.1	0.9	6.53913083512326E-04
1.1	0.95	6.60454878381552E-04
1.1	1.0	6.66824561595450E-04
1.1	1.05	6.73053983342430E-04
1.1	1.1	6.79163621560647E-04
1.1	1.15	6.85176056517890E-04
1.1	1.2	6.91105462361040E-04
1.2	0.0	3.86028550748987E-18
1.2	0.05	1.29028861745016E-04
1.2	0.1	2.42793076143091E-04
1.2	0.15	3.41581434134137E-04
1.2	0.2	4.26157830468946E-04
1.2	0.25	4.97472497501316E-04
1.2	0.3	5.56599212861819E-04
1.2	0.35	6.04725668099632E-04
1.2	0.4	6.43167126679142E-04
1.2	0.45	6.73379953883674E-04
1.2	0.5	6.96941304203942E-04
1.2	0.55	7.15457926209347E-04
1.2	0.6	7.30389336849358E-04
1.2	0.65	7.42867758437691E-04
1.2	0.7	7.53675657773289E-04
1.2	0.75	7.63317548600907E-04
1.2	0.8	7.72135429371653E-04
1.2	0.85	7.80359557254720E-04
1.2	0.9	7.88149650385621E-04
1.2	0.95	7.95610397050520E-04
1.2	1.0	8.02816432634667E-04
1.2	1.05	8.09817288777978E-04
1.2	1.1	8.16649787889918E-04
1.2	1.15	8.23342911872876E-04
1.2	1.2	8.29921531428583E-04