vg	vd	ids
0.0	0.0	-1.91538885616442E-16
0.0	0.05	7.28079099315247E-14
0.0	0.1	8.19388045620320E-14
0.0	0.15	8.43425668013096E-14
0.0	0.2	8.68150580355588E-14
0.0	0.25	8.91431891284796E-14
0.0	0.3	9.17556531116189E-14
0.0	0.35	9.35729025752412E-14
0.0	0.4	9.61800185061902E-14
0.0	0.45	9.87360836388262E-14
0.0	0.5	1.01584307274989E-13
0.0	0.55	1.03322585843516E-13
0.0	0.6	1.06145905389186E-13
0.0	0.65	1.08776609661518E-13
0.0	0.7	1.11649236333085E-13
0.0	0.75	1.14542876885266E-13
0.0	0.8	1.17209620625854E-13
0.0	0.85	1.20136121953594E-13
0.0	0.9	1.23110611199064E-13
0.0	0.95	1.25994470979345E-13
0.0	1.0	1.29081083821621E-13
0.0	1.05	1.32473982186073E-13
0.0	1.1	1.35665116214133E-13
0.0	1.15	1.39527473251591E-13
0.0	1.2	1.42336121075249E-13
0.1	0.0	-4.34045926236831E-17
0.1	0.05	2.40130273088593E-12
0.1	0.1	2.70899369908501E-12
0.1	0.15	2.80119172145502E-12
0.1	0.2	2.88161382010203E-12
0.1	0.25	2.96286086599972E-12
0.1	0.3	3.04521267110352E-12
0.1	0.35	3.12868069724836E-12
0.1	0.4	3.21320257027827E-12
0.1	0.45	3.29932141853686E-12
0.1	0.5	3.38688588999683E-12
0.1	0.55	3.47657931145334E-12
0.1	0.6	3.56753919131373E-12
0.1	0.65	3.66007770981201E-12
0.1	0.7	3.75461596745903E-12
0.1	0.75	3.85166643421799E-12
0.1	0.8	3.95023407514684E-12
0.1	0.85	4.05099123549431E-12
0.1	0.9	4.15407676014191E-12
0.1	0.95	4.25904228001725E-12
0.1	1.0	4.36668779990181E-12
0.1	1.05	4.47689422164889E-12
0.1	1.1	4.58955395181180E-12
0.1	1.15	4.70455158150842E-12
0.1	1.2	4.82244872899699E-12
0.2	0.0	1.27204515302201E-16
0.2	0.05	8.07515076390238E-11
0.2	0.1	9.14263116200563E-11
0.2	0.15	9.47399104010962E-11
0.2	0.2	9.76309482713497E-11
0.2	0.25	1.00535210308672E-10
0.2	0.3	1.03469482053664E-10
0.2	0.35	1.06439192710746E-10
0.2	0.4	1.09449232229105E-10
0.2	0.45	1.12504852802330E-10
0.2	0.5	1.15609663103394E-10
0.2	0.55	1.18767059345153E-10
0.2	0.6	1.21978985538976E-10
0.2	0.65	1.25256496445563E-10
0.2	0.7	1.28593348189413E-10
0.2	0.75	1.31994491643557E-10
0.2	0.8	1.35466734872007E-10
0.2	0.85	1.39009338630026E-10
0.2	0.9	1.42625951131012E-10
0.2	0.95	1.46320959120398E-10
0.2	1.0	1.50095338098443E-10
0.2	1.05	1.53953282490018E-10
0.2	1.1	1.57896565083064E-10
0.2	1.15	1.61928639420166E-10
0.2	1.2	1.66052338687504E-10
0.3	0.0	2.61027242441191E-17
0.3	0.05	2.74170755166216E-09
0.3	0.1	3.11754064954762E-09
0.3	0.15	3.23821743711077E-09
0.3	0.2	3.34280382149452E-09
0.3	0.25	3.44725854222351E-09
0.3	0.3	3.55232012420555E-09
0.3	0.35	3.65828938902867E-09
0.3	0.4	3.76540779307886E-09
0.3	0.45	3.87387573893186E-09
0.3	0.5	3.98390635439977E-09
0.3	0.55	4.09559199094221E-09
0.3	0.6	4.20900203627766E-09
0.3	0.65	4.32438692925402E-09
0.3	0.7	4.44185406610250E-09
0.3	0.75	4.56144993471855E-09
0.3	0.8	4.68329656822916E-09
0.3	0.85	4.80750612546963E-09
0.3	0.9	4.93417400297454E-09
0.3	0.95	5.06339236913085E-09
0.3	1.0	5.19525842789261E-09
0.3	1.05	5.32986469875031E-09
0.3	1.1	5.46730572784230E-09
0.3	1.15	5.60767500364163E-09
0.3	1.2	5.75106519387835E-09
0.4	0.0	2.82327094064418E-17
0.4	0.05	9.15426342388059E-08
0.4	0.1	1.04859177609147E-07
0.4	0.15	1.09230504429251E-07
0.4	0.2	1.12942648814783E-07
0.4	0.25	1.16606186157813E-07
0.4	0.3	1.20260956108091E-07
0.4	0.35	1.23924056557004E-07
0.4	0.4	1.27607906309701E-07
0.4	0.45	1.31322729154179E-07
0.4	0.5	1.35075137166169E-07
0.4	0.55	1.38871419808409E-07
0.4	0.6	1.42717167966330E-07
0.4	0.65	1.46617279091822E-07
0.4	0.7	1.50576087559549E-07
0.4	0.75	1.54597355382751E-07
0.4	0.8	1.58684488437982E-07
0.4	0.85	1.62840747683897E-07
0.4	0.9	1.67069243737047E-07
0.4	0.95	1.71372946185892E-07
0.4	1.0	1.75754750429048E-07
0.4	1.05	1.80217461759145E-07
0.4	1.1	1.84763826464539E-07
0.4	1.15	1.89396547950164E-07
0.4	1.2	1.94118292464718E-07
0.5	0.0	-9.38904964826287E-17
0.5	0.05	2.20192436894893E-06
0.5	0.1	2.63710848896352E-06
0.5	0.15	2.75998169383446E-06
0.5	0.2	2.84845473095387E-06
0.5	0.25	2.93206528103246E-06
0.5	0.3	3.01349891321780E-06
0.5	0.35	3.09362244801970E-06
0.5	0.4	3.17299829711547E-06
0.5	0.45	3.25189187421388E-06
0.5	0.5	3.33063146440851E-06
0.5	0.55	3.40941062567452E-06
0.5	0.6	3.48837292435129E-06
0.5	0.65	3.56763574146443E-06
0.5	0.7	3.64729468571831E-06
0.5	0.75	3.72743207778002E-06
0.5	0.8	3.80811479479231E-06
0.5	0.85	3.88940209370761E-06
0.5	0.9	3.97134607390624E-06
0.5	0.95	4.05399008101533E-06
0.5	1.0	4.13737655928668E-06
0.5	1.05	4.22154259536159E-06
0.5	1.1	4.30651991915275E-06
0.5	1.15	4.39234108792988E-06
0.5	1.2	4.47903497379742E-06
0.6	0.0	-1.63062371973668E-16
0.6	0.05	1.34566888521729E-05
0.6	0.1	1.94716618537868E-05
0.6	0.15	2.15120879875593E-05
0.6	0.2	2.22884743536778E-05
0.6	0.25	2.28158370555792E-05
0.6	0.3	2.32865947789267E-05
0.6	0.35	2.37304568607223E-05
0.6	0.4	2.41564840439692E-05
0.6	0.45	2.45697673719987E-05
0.6	0.5	2.49739411926095E-05
0.6	0.55	2.53712400617367E-05
0.6	0.6	2.57631444688990E-05
0.6	0.65	2.61508470442691E-05
0.6	0.7	2.65351610146202E-05
0.6	0.75	2.69167976109919E-05
0.6	0.8	2.72963012043574E-05
0.6	0.85	2.76740742045984E-05
0.6	0.9	2.80505328420514E-05
0.6	0.95	2.84259512402764E-05
0.6	1.0	2.88005870341297E-05
0.6	1.05	2.91746981507737E-05
0.6	1.1	2.95484520680753E-05
0.6	1.15	2.99220211106550E-05
0.6	1.2	3.02955772536847E-05
0.7	0.0	-2.13853458205947E-16
0.7	0.05	2.92085780745668E-05
0.7	0.1	4.86279595140037E-05
0.7	0.15	5.98529333417176E-05
0.7	0.2	6.53424334870688E-05
0.7	0.25	6.78483930205565E-05
0.7	0.3	6.93051891367821E-05
0.7	0.35	7.04645814966798E-05
0.7	0.4	7.15049080861470E-05
0.7	0.45	7.24756483890227E-05
0.7	0.5	7.34003220871208E-05
0.7	0.55	7.42920630812465E-05
0.7	0.6	7.51591239980531E-05
0.7	0.65	7.60064415348990E-05
0.7	0.7	7.68378616585517E-05
0.7	0.75	7.76558734336441E-05
0.7	0.8	7.84625582821391E-05
0.7	0.85	7.92594900674351E-05
0.7	0.9	8.00479635725665E-05
0.7	0.95	8.08289464331638E-05
0.7	1.0	8.16033791713748E-05
0.7	1.05	8.23719834834457E-05
0.7	1.1	8.31352804213515E-05
0.7	1.15	8.38939260262057E-05
0.7	1.2	8.46483312801028E-05
0.8	0.0	-1.83748276848581E-17
0.8	0.05	4.42284172945184E-05
0.8	0.1	7.83062833540925E-05
0.8	0.15	1.02892004033295E-04
0.8	0.2	1.19182810832547E-04
0.8	0.25	1.28902851307978E-04
0.8	0.3	1.34226855118758E-04
0.8	0.35	1.37278523254560E-04
0.8	0.4	1.39433971768127E-04
0.8	0.45	1.41238383123636E-04
0.8	0.5	1.42861597603853E-04
0.8	0.55	1.44375077525013E-04
0.8	0.6	1.45815415536702E-04
0.8	0.65	1.47202664535804E-04
0.8	0.7	1.48548960703157E-04
0.8	0.75	1.49861929552466E-04
0.8	0.8	1.51147438032482E-04
0.8	0.85	1.52409281213263E-04
0.8	0.9	1.53650790514610E-04
0.8	0.95	1.54874359568278E-04
0.8	1.0	1.56082035457107E-04
0.8	1.05	1.57275350074452E-04
0.8	1.1	1.58455786143736E-04
0.8	1.15	1.59624451747630E-04
0.8	1.2	1.60782256285633E-04
0.9	0.0	-2.04380250454159E-16
0.9	0.05	5.75381077139217E-05
0.9	0.1	1.05146032748315E-04
0.9	0.15	1.43080319348906E-04
0.9	0.2	1.71954747213867E-04
0.9	0.25	1.92687968238915E-04
0.9	0.3	2.06558772072418E-04
0.9	0.35	2.15214635477647E-04
0.9	0.4	2.20510271065127E-04
0.9	0.45	2.24059645176652E-04
0.9	0.5	2.26820337788236E-04
0.9	0.55	2.29195127733994E-04
0.9	0.6	2.31349130914841E-04
0.9	0.65	2.33366773196372E-04
0.9	0.7	2.35291085859896E-04
0.9	0.75	2.37145959384744E-04
0.9	0.8	2.38945805855034E-04
0.9	0.85	2.40700451327040E-04
0.9	0.9	2.42417011363157E-04
0.9	0.95	2.44100364890293E-04
0.9	1.0	2.45754885496507E-04
0.9	1.05	2.47383514866579E-04
0.9	1.1	2.48988972407872E-04
0.9	1.15	2.50573244504406E-04
0.9	1.2	2.52138333699251E-04
1.0	0.0	3.27666697889733E-16
1.0	0.05	6.90697891430726E-05
1.0	0.1	1.28630506600877E-04
1.0	0.15	1.78738647060811E-04
1.0	0.2	2.19727482485571E-04
1.0	0.25	2.52118454838088E-04
1.0	0.3	2.76643582128858E-04
1.0	0.35	2.94284524900189E-04
1.0	0.4	3.06307617513837E-04
1.0	0.45	3.14223687211935E-04
1.0	0.5	3.19568467830992E-04
1.0	0.55	3.23531490561594E-04
1.0	0.6	3.26783765762508E-04
1.0	0.65	3.29643176610512E-04
1.0	0.7	3.32266984743688E-04
1.0	0.75	3.34739891277335E-04
1.0	0.8	3.37105311468704E-04
1.0	0.85	3.39388484554376E-04
1.0	0.9	3.41605275458645E-04
1.0	0.95	3.43766893805974E-04
1.0	1.0	3.45880925797548E-04
1.0	1.05	3.47953546269919E-04
1.0	1.1	3.49989368545299E-04
1.0	1.15	3.51992334043833E-04
1.0	1.2	3.53965207971110E-04
1.1	0.0	1.18126232574697E-16
1.1	0.05	7.89812879467440E-05
1.1	0.1	1.48928417015432E-04
1.1	0.15	2.09795815658389E-04
1.1	0.2	2.61773298690961E-04
1.1	0.25	3.05178619705211E-04
1.1	0.3	3.40455775573789E-04
1.1	0.35	3.68195063599063E-04
1.1	0.4	3.89169746858527E-04
1.1	0.45	4.04371889450483E-04
1.1	0.5	4.15014970443462E-04
1.1	0.55	4.22437525790331E-04
1.1	0.6	4.27862298217552E-04
1.1	0.65	4.32153437720947E-04
1.1	0.7	4.35805269165287E-04
1.1	0.75	4.39081330490645E-04
1.1	0.8	4.42122482903894E-04
1.1	0.85	4.45004946930904E-04
1.1	0.9	4.47769664111498E-04
1.1	0.95	4.50442158481912E-04
1.1	1.0	4.53038874004983E-04
1.1	1.05	4.55571724307158E-04
1.1	1.1	4.58048668938025E-04
1.1	1.15	4.60477181860981E-04
1.1	1.2	4.62861810627014E-04
1.2	0.0	-1.82485791702858E-16
1.2	0.05	8.74902373859368E-05
1.2	0.1	1.66408924388856E-04
1.2	0.15	2.36660900853040E-04
1.2	0.2	2.98364046995992E-04
1.2	0.25	3.51730484680781E-04
1.2	0.3	3.97051481507263E-04
1.2	0.35	4.34702783336158E-04
1.2	0.4	4.65166626676508E-04
1.2	0.45	4.89062093060318E-04
1.2	0.5	5.07178043929608E-04
1.2	0.55	5.20490641621965E-04
1.2	0.6	5.30126492959106E-04
1.2	0.65	5.37224947662420E-04
1.2	0.7	5.42731294048356E-04
1.2	0.75	5.47287665773053E-04
1.2	0.8	5.51278480913462E-04
1.2	0.85	5.54922592707434E-04
1.2	0.9	5.58336781650317E-04
1.2	0.95	5.61588224063440E-04
1.2	1.0	5.64714693201323E-04
1.2	1.05	5.67740392451166E-04
1.2	1.1	5.70682548451488E-04
1.2	1.15	5.73552940928098E-04
1.2	1.2	5.76361120816724E-04