vg	vd	ids
0.0	0.0	-5.14893824380795E-17
0.0	0.05	1.08978616054822E-13
0.0	0.1	1.25787505306831E-13
0.0	0.15	1.32546303983624E-13
0.0	0.2	1.39071906206768E-13
0.0	0.25	1.45947582671394E-13
0.0	0.3	1.53137953064248E-13
0.0	0.35	1.60056916929872E-13
0.0	0.4	1.68099829409484E-13
0.0	0.45	1.76427037557983E-13
0.0	0.5	1.84755234108535E-13
0.0	0.55	1.93648586837330E-13
0.0	0.6	2.03109648415872E-13
0.0	0.65	2.12708448041053E-13
0.0	0.7	2.22901668514637E-13
0.0	0.75	2.33511219120554E-13
0.0	0.8	2.45133089243585E-13
0.0	0.85	2.56702573130171E-13
0.0	0.9	2.69290013408526E-13
0.0	0.95	2.82201916221426E-13
0.0	1.0	2.96060604972482E-13
0.0	1.05	3.10398310502689E-13
0.0	1.1	3.25369512757710E-13
0.0	1.15	3.41586030107167E-13
0.0	1.2	3.58276834757403E-13
0.1	0.0	-2.31068953889114E-16
0.1	0.05	3.53793951608081E-12
0.1	0.1	4.09345515823091E-12
0.1	0.15	4.32676410556774E-12
0.1	0.2	4.54552742014706E-12
0.1	0.25	4.77191992852859E-12
0.1	0.3	5.00745228719353E-12
0.1	0.35	5.25179418811758E-12
0.1	0.4	5.50653914116512E-12
0.1	0.45	5.77184355174991E-12
0.1	0.5	6.04930813294431E-12
0.1	0.55	6.33839184834838E-12
0.1	0.6	6.63952541790089E-12
0.1	0.65	6.95473204359124E-12
0.1	0.7	7.28412372208345E-12
0.1	0.75	7.62831163141953E-12
0.1	0.8	7.98801655405149E-12
0.1	0.85	8.36383308594032E-12
0.1	0.9	8.75728662004011E-12
0.1	0.95	9.16936031749700E-12
0.1	1.0	9.59980361493695E-12
0.1	1.05	1.00500540222280E-11
0.1	1.1	1.05224792601619E-11
0.1	1.15	1.10165449817312E-11
0.1	1.2	1.15336862478415E-11
0.2	0.0	-4.62801672346681E-17
0.2	0.05	1.16169250548080E-10
0.2	0.1	1.34911775343895E-10
0.2	0.15	1.42862251974140E-10
0.2	0.2	1.50256387377558E-10
0.2	0.25	1.57864956592991E-10
0.2	0.3	1.65733789925806E-10
0.2	0.35	1.73885055497358E-10
0.2	0.4	1.82339367943501E-10
0.2	0.45	1.91117149503546E-10
0.2	0.5	2.00237882486118E-10
0.2	0.55	2.09721334492842E-10
0.2	0.6	2.19598497268406E-10
0.2	0.65	2.29857222365960E-10
0.2	0.7	2.40546120250129E-10
0.2	0.75	2.51685308866078E-10
0.2	0.8	2.63278238101837E-10
0.2	0.85	2.75365706797676E-10
0.2	0.9	2.87970949173492E-10
0.2	0.95	3.01106449552052E-10
0.2	1.0	3.14780929563613E-10
0.2	1.05	3.29057651239536E-10
0.2	1.1	3.43944678661385E-10
0.2	1.15	3.59470475328579E-10
0.2	1.2	3.75666807326648E-10
0.3	0.0	7.31753450367249E-17
0.3	0.05	3.81917598053918E-09
0.3	0.1	4.45598611549214E-09
0.3	0.15	4.72900777497936E-09
0.3	0.2	4.98001197306249E-09
0.3	0.25	5.23628790007452E-09
0.3	0.3	5.49971289114887E-09
0.3	0.35	5.77113614686227E-09
0.3	0.4	6.05130193440730E-09
0.3	0.45	6.34089361826735E-09
0.3	0.5	6.64078748429794E-09
0.3	0.55	6.95093992690710E-09
0.3	0.6	7.27272244776059E-09
0.3	0.65	7.60652087215174E-09
0.3	0.7	7.95211179661933E-09
0.3	0.75	8.31072511759361E-09
0.3	0.8	8.68342591784441E-09
0.3	0.85	9.07017303764292E-09
0.3	0.9	9.47187320078399E-09
0.3	0.95	9.88905229154639E-09
0.3	1.0	1.03224345246791E-08
0.3	1.05	1.07726789175064E-08
0.3	1.1	1.12404312910826E-08
0.3	1.15	1.17264310245787E-08
0.3	1.2	1.22314252933950E-08
0.4	0.0	5.42401647876356E-17
0.4	0.05	1.21236598676419E-07
0.4	0.1	1.42707744154543E-07
0.4	0.15	1.51859926616101E-07
0.4	0.2	1.60051133129353E-07
0.4	0.25	1.68289019082005E-07
0.4	0.3	1.76661791018056E-07
0.4	0.35	1.85207446155466E-07
0.4	0.4	1.93965585208421E-07
0.4	0.45	2.02946244502453E-07
0.4	0.5	2.12172775701000E-07
0.4	0.55	2.21667271011608E-07
0.4	0.6	2.31444709233136E-07
0.4	0.65	2.41520839147230E-07
0.4	0.7	2.51910297285075E-07
0.4	0.75	2.62627097101154E-07
0.4	0.8	2.73684898247119E-07
0.4	0.85	2.85097418908323E-07
0.4	0.9	2.96878028052684E-07
0.4	0.95	3.09040744585782E-07
0.4	1.0	3.21598752007697E-07
0.4	1.05	3.34565531805878E-07
0.4	1.1	3.47954697850519E-07
0.4	1.15	3.61780029291170E-07
0.4	1.2	3.76055337511237E-07
0.5	0.0	6.06854412438747E-17
0.5	0.05	2.52332195347879E-06
0.5	0.1	3.13275731212855E-06
0.5	0.15	3.34498850128640E-06
0.5	0.2	3.50380146753460E-06
0.5	0.25	3.65460490923362E-06
0.5	0.3	3.80301801454584E-06
0.5	0.35	3.95041643487222E-06
0.5	0.4	4.09772459747556E-06
0.5	0.45	4.24556088166889E-06
0.5	0.5	4.39441492937741E-06
0.5	0.55	4.54460586562897E-06
0.5	0.6	4.69638771470962E-06
0.5	0.65	4.84995933883092E-06
0.5	0.7	5.00547942620573E-06
0.5	0.75	5.16308591417456E-06
0.5	0.8	5.32288382298591E-06
0.5	0.85	5.48497491111101E-06
0.5	0.9	5.64944154168971E-06
0.5	0.95	5.81635153282882E-06
0.5	1.0	5.98577640481593E-06
0.5	1.05	6.15776880435006E-06
0.5	1.1	6.33237917149711E-06
0.5	1.15	6.50966005663483E-06
0.5	1.2	6.68964693589614E-06
0.6	0.0	-1.40543522006970E-16
0.6	0.05	1.30725621582154E-05
0.6	0.1	1.95074948182261E-05
0.6	0.15	2.20845369449680E-05
0.6	0.2	2.32206637985903E-05
0.6	0.25	2.40020025881555E-05
0.6	0.3	2.46936022382747E-05
0.6	0.35	2.53455601270352E-05
0.6	0.4	2.59734179516234E-05
0.6	0.45	2.65852756058950E-05
0.6	0.5	2.71861382376757E-05
0.6	0.55	2.77793797300777E-05
0.6	0.6	2.83671188463693E-05
0.6	0.65	2.89510664136627E-05
0.6	0.7	2.95323381484637E-05
0.6	0.75	3.01118783763907E-05
0.6	0.8	3.06904306187583E-05
0.6	0.85	3.12685047363559E-05
0.6	0.9	3.18466418411133E-05
0.6	0.95	3.24251735607478E-05
0.6	1.0	3.30044278512901E-05
0.6	1.05	3.35847002164783E-05
0.6	1.1	3.41661952737941E-05
0.6	1.15	3.47491138993505E-05
0.6	1.2	3.53336033984399E-05
0.7	0.0	-5.80033263389192E-18
0.7	0.05	2.70756344788329E-05
0.7	0.1	4.56727912142122E-05
0.7	0.15	5.70821053212463E-05
0.7	0.2	6.32646199294789E-05
0.7	0.25	6.64736245187304E-05
0.7	0.3	6.84577233070379E-05
0.7	0.35	7.00290814511222E-05
0.7	0.4	7.14313989373130E-05
0.7	0.45	7.27395478888213E-05
0.7	0.5	7.39875499745900E-05
0.7	0.55	7.51939751981522E-05
0.7	0.6	7.63703231517453E-05
0.7	0.65	7.75234295647221E-05
0.7	0.7	7.86582795518233E-05
0.7	0.75	7.97783345542404E-05
0.7	0.8	8.08861897630718E-05
0.7	0.85	8.19838124973462E-05
0.7	0.9	8.30729394054102E-05
0.7	0.95	8.41546396702164E-05
0.7	1.0	8.52301172347955E-05
0.7	1.05	8.63002231236585E-05
0.7	1.1	8.73656142685602E-05
0.7	1.15	8.84269513578696E-05
0.7	1.2	8.94848034403454E-05
0.8	0.0	-1.56703218296033E-16
0.8	0.05	4.06504219119643E-05
0.8	0.1	7.24231157451232E-05
0.8	0.15	9.59038025733973E-05
0.8	0.2	1.12098605651043E-04
0.8	0.25	1.22419519049100E-04
0.8	0.3	1.28629387802819E-04
0.8	0.35	1.32505105867536E-04
0.8	0.4	1.35315752201434E-04
0.8	0.45	1.37661139964564E-04
0.8	0.5	1.39765042140245E-04
0.8	0.55	1.41726053921842E-04
0.8	0.6	1.43593830942211E-04
0.8	0.65	1.45395725570252E-04
0.8	0.7	1.47148063957368E-04
0.8	0.75	1.48860986020634E-04
0.8	0.8	1.50542020252265E-04
0.8	0.85	1.52196181137427E-04
0.8	0.9	1.53827427089573E-04
0.8	0.95	1.55438789871400E-04
0.8	1.0	1.57032877466920E-04
0.8	1.05	1.58611372382797E-04
0.8	1.1	1.60176104288898E-04
0.8	1.15	1.61728527593856E-04
0.8	1.2	1.63269696431235E-04
0.9	0.0	9.93675574109626E-19
0.9	0.05	5.30176864760761E-05
0.9	0.1	9.72152008670313E-05
0.9	0.15	1.32852926597022E-04
0.9	0.2	1.60486605754641E-04
0.9	0.25	1.80919138037893E-04
0.9	0.3	1.95230784298314E-04
0.9	0.35	2.04781316226281E-04
0.9	0.4	2.11095914841909E-04
0.9	0.45	2.15553764700673E-04
0.9	0.5	2.19066588422314E-04
0.9	0.55	2.22085628748328E-04
0.9	0.6	2.24820850617064E-04
0.9	0.65	2.27381974951084E-04
0.9	0.7	2.29826204104391E-04
0.9	0.75	2.32184978546078E-04
0.9	0.8	2.34477779233298E-04
0.9	0.85	2.36716798028861E-04
0.9	0.9	2.38911286929217E-04
0.9	0.95	2.41067634810580E-04
0.9	1.0	2.43190592838143E-04
0.9	1.05	2.45284586128425E-04
0.9	1.1	2.47352643678755E-04
0.9	1.15	2.49397024431437E-04
0.9	1.2	2.51420153127954E-04
1.0	0.0	-1.83606059509149E-16
1.0	0.05	6.40439299277593E-05
1.0	0.1	1.19515899430788E-04
1.0	0.15	1.66496285777275E-04
1.0	0.2	2.05306271188073E-04
1.0	0.25	2.36431962343006E-04
1.0	0.3	2.60533423670475E-04
1.0	0.35	2.78468174649059E-04
1.0	0.4	2.91309765998663E-04
1.0	0.45	3.00312668346380E-04
1.0	0.5	3.06756223690598E-04
1.0	0.55	3.11685986639800E-04
1.0	0.6	3.15765416575692E-04
1.0	0.65	3.19354343555045E-04
1.0	0.7	3.22646530340892E-04
1.0	0.75	3.25748673151143E-04
1.0	0.8	3.28717489357052E-04
1.0	0.85	3.31586034595352E-04
1.0	0.9	3.34374861786992E-04
1.0	0.95	3.37098214149958E-04
1.0	1.0	3.39765386163687E-04
1.0	1.05	3.42384439383481E-04
1.0	1.1	3.44961084807217E-04
1.0	1.15	3.47499584551727E-04
1.0	1.2	3.50004299165060E-04
1.1	0.0	8.32816542656292E-17
1.1	0.05	7.37761730971830E-05
1.1	0.1	1.39309602259136E-04
1.1	0.15	1.96575067126134E-04
1.1	0.2	2.45759291421211E-04
1.1	0.25	2.87170477239736E-04
1.1	0.3	3.21231412206734E-04
1.1	0.35	3.48491229658716E-04
1.1	0.4	3.69647737263030E-04
1.1	0.45	3.85567360883688E-04
1.1	0.5	3.97279022069817E-04
1.1	0.55	4.05899446768762E-04
1.1	0.6	4.12466019643915E-04
1.1	0.65	4.17766821198908E-04
1.1	0.7	4.22307852270341E-04
1.1	0.75	4.26386537168413E-04
1.1	0.8	4.30172750518845E-04
1.1	0.85	4.33761781832502E-04
1.1	0.9	4.37206098067171E-04
1.1	0.95	4.40538304726553E-04
1.1	1.0	4.43779333522837E-04
1.1	1.05	4.46944936746822E-04
1.1	1.1	4.50044412831601E-04
1.1	1.15	4.53086576558445E-04
1.1	1.2	4.56078544139534E-04
1.2	0.0	1.33849116382994E-16
1.2	0.05	8.23285865758631E-05
1.2	0.1	1.56767527525435E-04
1.2	0.15	2.23229917709432E-04
1.2	0.2	2.81823894052832E-04
1.2	0.25	3.32753348913921E-04
1.2	0.3	3.76301906830652E-04
1.2	0.35	4.12835293865473E-04
1.2	0.4	4.42815053259550E-04
1.2	0.45	4.66817623475455E-04
1.2	0.5	4.85553533440555E-04
1.2	0.55	4.99872352221149E-04
1.2	0.6	5.10728265097212E-04
1.2	0.65	5.19079396069770E-04
1.2	0.7	5.25752113593576E-04
1.2	0.75	5.31354551864741E-04
1.2	0.8	5.36288236001641E-04
1.2	0.85	5.40798797081667E-04
1.2	0.9	5.45026967264627E-04
1.2	0.95	5.49054861250066E-04
1.2	1.0	5.52930752710836E-04
1.2	1.05	5.56684004366743E-04
1.2	1.1	5.60337109669894E-04
1.2	1.15	5.63904906547639E-04
1.2	1.2	5.67398607203857E-04