vg	vd	ids
0.0	0.0	3.84733388874365E-17
0.0	0.05	2.23845729978830E-11
0.0	0.1	3.15332630789496E-11
0.0	0.15	4.37643406474365E-11
0.0	0.2	6.13590502823623E-11
0.0	0.25	8.67794869430969E-11
0.0	0.3	1.23690969658189E-10
0.0	0.35	1.77580546816376E-10
0.0	0.4	2.56446318296141E-10
0.0	0.45	3.72072241340637E-10
0.0	0.5	5.41601521705307E-10
0.0	0.55	7.89927330855139E-10
0.0	0.6	1.15305134782308E-09
0.0	0.65	1.68273301742833E-09
0.0	0.7	2.45301221795030E-09
0.0	0.75	3.56921515831435E-09
0.0	0.8	5.18008972806147E-09
0.0	0.85	7.49428303751473E-09
0.0	0.9	1.08039406820231E-08
0.0	0.95	1.55113394055708E-08
0.0	1.0	2.21708013248584E-08
0.0	1.05	3.15376682727392E-08
0.0	1.1	4.46328438584671E-08
0.0	1.15	6.28238344207954E-08
0.0	1.2	8.79266153617384E-08
0.1	0.0	1.27852575315688E-16
0.1	0.05	3.20608522846407E-10
0.1	0.1	4.19753272019404E-10
0.1	0.15	5.34694408792853E-10
0.1	0.2	6.85399653646943E-10
0.1	0.25	8.84985708341386E-10
0.1	0.3	1.15163216507616E-09
0.1	0.35	1.51072386727427E-09
0.1	0.4	1.99766269743772E-09
0.1	0.45	2.66156084161791E-09
0.1	0.5	3.56999850294478E-09
0.1	0.55	4.81434928134674E-09
0.1	0.6	6.52605333594496E-09
0.1	0.65	8.88599978777903E-09
0.1	0.7	1.21417632600454E-08
0.1	0.75	1.66313298167990E-08
0.1	0.8	2.28160570168333E-08
0.1	0.85	3.13181549143436E-08
0.1	0.9	4.29722424048431E-08
0.1	0.95	5.88916591576218E-08
0.1	1.0	8.05519330800930E-08
0.1	1.05	1.09888162872820E-07
0.1	1.1	1.49418163356171E-07
0.1	1.15	2.02383225236291E-07
0.1	1.2	2.72915236614704E-07
0.2	0.0	2.33292324351866E-18
0.2	0.05	5.95505611826670E-09
0.2	0.1	7.50842244712144E-09
0.2	0.15	9.08578118589851E-09
0.2	0.2	1.09897256164425E-08
0.2	0.25	1.33062162446005E-08
0.2	0.3	1.61454512223761E-08
0.2	0.35	1.96505126107167E-08
0.2	0.4	2.40076571491343E-08
0.2	0.45	2.94604330800652E-08
0.2	0.5	3.63277000142418E-08
0.2	0.55	4.50244131214345E-08
0.2	0.6	5.60927314859596E-08
0.2	0.65	7.02435314472799E-08
0.2	0.7	8.83886128571367E-08
0.2	0.75	1.11738146973624E-07
0.2	0.8	1.41798614998372E-07
0.2	0.85	1.80496439013001E-07
0.2	0.9	2.30219709637786E-07
0.2	0.95	2.94182373149354E-07
0.2	1.0	3.76320862161860E-07
0.2	1.05	4.81565695926605E-07
0.2	1.1	6.15950963333003E-07
0.2	1.15	7.86817471273469E-07
0.2	1.2	1.00296561146890E-06
0.3	0.0	-3.01842400941381E-16
0.3	0.05	1.23080431767497E-07
0.3	0.1	1.53128965497948E-07
0.3	0.15	1.80378495509719E-07
0.3	0.2	2.11214512607137E-07
0.3	0.25	2.46353743498743E-07
0.3	0.3	2.86564414539265E-07
0.3	0.35	3.32753481370435E-07
0.3	0.4	3.86002106691443E-07
0.3	0.45	4.47612736225342E-07
0.3	0.5	5.19151186787308E-07
0.3	0.55	6.02507730498527E-07
0.3	0.6	6.99966347589953E-07
0.3	0.65	8.14272052130802E-07
0.3	0.7	9.48701979400068E-07
0.3	0.75	1.10727325784043E-06
0.3	0.8	1.29464929759215E-06
0.3	0.85	1.51643471389347E-06
0.3	0.9	1.77920779472303E-06
0.3	0.95	2.09064066103254E-06
0.3	1.0	2.45954395809320E-06
0.3	1.05	2.89600542729877E-06
0.3	1.1	3.41134225327680E-06
0.3	1.15	4.01810291701026E-06
0.3	1.2	4.72977500995618E-06
0.4	0.0	1.80381614404345E-16
0.4	0.05	2.28180389810605E-06
0.4	0.1	2.84918171578566E-06
0.4	0.15	3.27544534290834E-06
0.4	0.2	3.71897316507083E-06
0.4	0.25	4.18870106589562E-06
0.4	0.3	4.68867994047275E-06
0.4	0.35	5.22243639847875E-06
0.4	0.4	5.79338240737803E-06
0.4	0.45	6.40508227634054E-06
0.4	0.5	7.06131201769982E-06
0.4	0.55	7.76611416022143E-06
0.4	0.6	8.52401769140711E-06
0.4	0.65	9.33989254600725E-06
0.4	0.7	1.02191926193605E-05
0.4	0.75	1.11679132551654E-05
0.4	0.8	1.21925706675949E-05
0.4	0.85	1.33004306466577E-05
0.4	0.9	1.44991653034512E-05
0.4	0.95	1.57972856856397E-05
0.4	1.0	1.72036470675995E-05
0.4	1.05	1.87276820651471E-05
0.4	1.1	2.03792163223436E-05
0.4	1.15	2.21682824750007E-05
0.4	1.2	2.41049587402687E-05
0.5	0.0	3.07716140534486E-16
0.5	0.05	1.84283184815389E-05
0.5	0.1	2.47660862888989E-05
0.5	0.15	2.77084651715016E-05
0.5	0.2	3.01539765125148E-05
0.5	0.25	3.24898414810183E-05
0.5	0.3	3.47775945511090E-05
0.5	0.35	3.70449490756979E-05
0.5	0.4	3.93092563959936E-05
0.5	0.45	4.15836109726739E-05
0.5	0.5	4.38778129873944E-05
0.5	0.55	4.62001465098316E-05
0.5	0.6	4.85579604647936E-05
0.5	0.65	5.09583828067091E-05
0.5	0.7	5.34077541785685E-05
0.5	0.75	5.59132320539903E-05
0.5	0.8	5.84815429991237E-05
0.5	0.85	6.11196289793426E-05
0.5	0.9	6.38349910418859E-05
0.5	0.95	6.66352119457612E-05
0.5	1.0	6.95278208486468E-05
0.5	1.05	7.25210019215904E-05
0.5	1.1	7.56225892262345E-05
0.5	1.15	7.88408168194533E-05
0.5	1.2	8.21837410156924E-05
0.6	0.0	3.95836812797641E-16
0.6	0.05	4.91883399609252E-05
0.6	0.1	7.61474974012569E-05
0.6	0.15	8.89984073501865E-05
0.6	0.2	9.59937379823398E-05
0.6	0.25	1.01368511153869E-04
0.6	0.3	1.06183641893086E-04
0.6	0.35	1.10686395041518E-04
0.6	0.4	1.14985243470852E-04
0.6	0.45	1.19146229857604E-04
0.6	0.5	1.23212413213164E-04
0.6	0.55	1.27214553651054E-04
0.6	0.6	1.31175116713663E-04
0.6	0.65	1.35111497156161E-04
0.6	0.7	1.39039551148797E-04
0.6	0.75	1.42971960197824E-04
0.6	0.8	1.46920448343274E-04
0.6	0.85	1.50896739428228E-04
0.6	0.9	1.54910504943884E-04
0.6	0.95	1.58971951615261E-04
0.6	1.0	1.63091642364217E-04
0.6	1.05	1.67278244309484E-04
0.6	1.1	1.71540928633035E-04
0.6	1.15	1.75888855890652E-04
0.6	1.2	1.80330766097962E-04
0.7	0.0	1.43011085964468E-16
0.7	0.05	8.00283679973770E-05
0.7	0.1	1.34645207724760E-04
0.7	0.15	1.68427032973452E-04
0.7	0.2	1.87710549210115E-04
0.7	0.25	1.99245673065048E-04
0.7	0.3	2.07696021508951E-04
0.7	0.35	2.14889927973214E-04
0.7	0.4	2.21394064282936E-04
0.7	0.45	2.27457700926040E-04
0.7	0.5	2.33221637140640E-04
0.7	0.55	2.38775446049510E-04
0.7	0.6	2.44177445994638E-04
0.7	0.65	2.49467779445718E-04
0.7	0.7	2.54678634503007E-04
0.7	0.75	2.59833091620931E-04
0.7	0.8	2.64951827414185E-04
0.7	0.85	2.70052843253845E-04
0.7	0.9	2.75150912644371E-04
0.7	0.95	2.80259880316343E-04
0.7	1.0	2.85394158623531E-04
0.7	1.05	2.90563367713557E-04
0.7	1.1	2.95781300066799E-04
0.7	1.15	3.01058208511303E-04
0.7	1.2	3.06401228226830E-04
0.8	0.0	4.17776912829555E-17
0.8	0.05	1.07054002088779E-04
0.8	0.1	1.88105855917083E-04
0.8	0.15	2.45974845321519E-04
0.8	0.2	2.84762927472705E-04
0.8	0.25	3.09451592298675E-04
0.8	0.3	3.25398827273762E-04
0.8	0.35	3.36955422531520E-04
0.8	0.4	3.46442697395725E-04
0.8	0.45	3.54785452672023E-04
0.8	0.5	3.62409522235448E-04
0.8	0.55	3.69559917018049E-04
0.8	0.6	3.76383170885040E-04
0.8	0.65	3.82971924708871E-04
0.8	0.7	3.89386484487988E-04
0.8	0.75	3.95671825743413E-04
0.8	0.8	4.01861914198265E-04
0.8	0.85	4.07983366504028E-04
0.8	0.9	4.14060455867920E-04
0.8	0.95	4.20109295928469E-04
0.8	1.0	4.26151767585979E-04
0.8	1.05	4.32200512528363E-04
0.8	1.1	4.38269106840963E-04
0.8	1.15	4.44372688856159E-04
0.8	1.2	4.50521439957043E-04
0.9	0.0	-1.66189609682415E-16
0.9	0.05	1.30071519759907E-04
0.9	0.1	2.34496893714984E-04
0.9	0.15	3.15162827699593E-04
0.9	0.2	3.74967836130102E-04
0.9	0.25	4.17383522837993E-04
0.9	0.3	4.46409498041226E-04
0.9	0.35	4.66326786492359E-04
0.9	0.4	4.80922001307733E-04
0.9	0.45	4.92654409222855E-04
0.9	0.5	5.02757526786050E-04
0.9	0.55	5.11839368469814E-04
0.9	0.6	5.20254013081985E-04
0.9	0.65	5.28218709070955E-04
0.9	0.7	5.35866109373908E-04
0.9	0.75	5.43281873347328E-04
0.9	0.8	5.50523165131447E-04
0.9	0.85	5.57634844233791E-04
0.9	0.9	5.64651213491585E-04
0.9	0.95	5.71597435564459E-04
0.9	1.0	5.78500582629177E-04
0.9	1.05	5.85379138066919E-04
0.9	1.1	5.92250219715131E-04
0.9	1.15	5.99131301944536E-04
0.9	1.2	6.06035981364582E-04
1.0	0.0	8.82703037241290E-17
1.0	0.05	1.49526365228064E-04
1.0	0.1	2.74140933937338E-04
1.0	0.15	3.75189708610025E-04
1.0	0.2	4.54879740869259E-04
1.0	0.25	5.15798204776955E-04
1.0	0.3	5.60868704738619E-04
1.0	0.35	5.93351157728691E-04
1.0	0.4	6.16716600200806E-04
1.0	0.45	6.34182703619753E-04
1.0	0.5	6.48121610133638E-04
1.0	0.55	6.59947576704189E-04
1.0	0.6	6.70442206051694E-04
1.0	0.65	6.80067645688269E-04
1.0	0.7	6.89109418206684E-04
1.0	0.75	6.97749862516908E-04
1.0	0.8	7.06094471441202E-04
1.0	0.85	7.14223806034814E-04
1.0	0.9	7.22189138073332E-04
1.0	0.95	7.30032380584789E-04
1.0	1.0	7.37788633037509E-04
1.0	1.05	7.45484418742978E-04
1.0	1.1	7.53139328578822E-04
1.0	1.15	7.60778543113446E-04
1.0	1.2	7.68415239047317E-04
1.1	0.0	2.34912212497250E-16
1.1	0.05	1.65966662807893E-04
1.1	0.1	3.07875909870093E-04
1.1	0.15	4.26753002459973E-04
1.1	0.2	5.24390362311737E-04
1.1	0.25	6.02843996209835E-04
1.1	0.3	6.64364492050955E-04
1.1	0.35	7.11407747304239E-04
1.1	0.4	7.46668133652598E-04
1.1	0.45	7.72994845794985E-04
1.1	0.5	7.93108698258325E-04
1.1	0.55	8.09192661754359E-04
1.1	0.6	8.22727712565098E-04
1.1	0.65	8.34617421133792E-04
1.1	0.7	8.45433630878306E-04
1.1	0.75	8.55530745213262E-04
1.1	0.8	8.65130492020099E-04
1.1	0.85	8.74373797465994E-04
1.1	0.9	8.83353922046051E-04
1.1	0.95	8.92135822127734E-04
1.1	1.0	9.00772741026400E-04
1.1	1.05	9.09297905580120E-04
1.1	1.1	9.17748015217265E-04
1.1	1.15	9.26146338038659E-04
1.1	1.2	9.34515647940430E-04
1.2	0.0	4.88367626059522E-16
1.2	0.05	1.79910964048484E-04
1.2	0.1	3.36613062652108E-04
1.2	0.15	4.70942346583449E-04
1.2	0.2	5.84440522931465E-04
1.2	0.25	6.78838847339160E-04
1.2	0.3	7.55970599165757E-04
1.2	0.35	8.17765804421626E-04
1.2	0.4	8.66302997765192E-04
1.2	0.45	9.03824573204813E-04
1.2	0.5	9.32698004094634E-04
1.2	0.55	9.55223190852039E-04
1.2	0.6	9.73367962198070E-04
1.2	0.65	9.88594910015379E-04
1.2	0.7	1.00188498064164E-03
1.2	0.75	1.01389016641927E-03
1.2	0.8	1.02503711736140E-03
1.2	0.85	1.03558916986565E-03
1.2	0.9	1.04571723642041E-03
1.2	0.95	1.05553433019623E-03
1.2	1.0	1.06511593180553E-03
1.2	1.05	1.07452511346312E-03
1.2	1.1	1.08380317294184E-03
1.2	1.15	1.09298902746140E-03
1.2	1.2	1.10210665552306E-03