vg	vd	ids
0.0	0.0	3.29808588207794E-18
0.0	0.05	9.65266528677145E-14
0.0	0.1	1.13647077854477E-13
0.0	0.15	1.22392570778648E-13
0.0	0.2	1.31027071352099E-13
0.0	0.25	1.40149111853612E-13
0.0	0.3	1.49837629772918E-13
0.0	0.35	1.60126204393687E-13
0.0	0.4	1.71038861947140E-13
0.0	0.45	1.82649851205003E-13
0.0	0.5	1.95039327649690E-13
0.0	0.55	2.08227479260941E-13
0.0	0.6	2.22264302142274E-13
0.0	0.65	2.37242736461857E-13
0.0	0.7	2.53243470749038E-13
0.0	0.75	2.70321926766234E-13
0.0	0.8	2.88534145562851E-13
0.0	0.85	3.08082217446670E-13
0.0	0.9	3.28946997495239E-13
0.0	0.95	3.51237177805231E-13
0.0	1.0	3.75184329307114E-13
0.0	1.05	4.00801573648206E-13
0.0	1.1	4.28282021256795E-13
0.0	1.15	4.57666861211737E-13
0.0	1.2	4.89382865515535E-13
0.1	0.0	1.48502095304474E-18
0.1	0.05	2.88843718094737E-12
0.1	0.1	3.41241332698437E-12
0.1	0.15	3.68027628471395E-12
0.1	0.2	3.94226949016027E-12
0.1	0.25	4.21780276116104E-12
0.1	0.3	4.50856003471995E-12
0.1	0.35	4.81564625822059E-12
0.1	0.4	5.14034058850303E-12
0.1	0.45	5.48380120563867E-12
0.1	0.5	5.84742820050332E-12
0.1	0.55	6.23205583719884E-12
0.1	0.6	6.63984124285806E-12
0.1	0.65	7.07347452994869E-12
0.1	0.7	7.53250029617224E-12
0.1	0.75	8.01962803095804E-12
0.1	0.8	8.53429671827222E-12
0.1	0.85	9.08595448790699E-12
0.1	0.9	9.66441592890486E-12
0.1	0.95	1.02894022421369E-11
0.1	1.0	1.09434993010408E-11
0.1	1.05	1.16495985781687E-11
0.1	1.1	1.23954078566968E-11
0.1	1.15	1.31891348462068E-11
0.1	1.2	1.40341498326278E-11
0.2	0.0	5.07827896052505E-18
0.2	0.05	8.71135377273963E-11
0.2	0.1	1.03322039844754E-10
0.2	0.15	1.11632620766622E-10
0.2	0.2	1.19688554596651E-10
0.2	0.25	1.28108880410751E-10
0.2	0.3	1.36945590535980E-10
0.2	0.35	1.46229907187769E-10
0.2	0.4	1.55993388057612E-10
0.2	0.45	1.66268728876990E-10
0.2	0.5	1.77090236386760E-10
0.2	0.55	1.88435635883666E-10
0.2	0.6	2.00514632852107E-10
0.2	0.65	2.13194269839999E-10
0.2	0.7	2.26571632216421E-10
0.2	0.75	2.40695123941197E-10
0.2	0.8	2.55403328289865E-10
0.2	0.85	2.71245809491016E-10
0.2	0.9	2.87895009620851E-10
0.2	0.95	3.05557992162247E-10
0.2	1.0	3.24134114787828E-10
0.2	1.05	3.43678179122222E-10
0.2	1.1	3.64529280125825E-10
0.2	1.15	3.86483524872906E-10
0.2	1.2	4.09705087292740E-10
0.3	0.0	-3.36150486210089E-19
0.3	0.05	2.62233781771450E-09
0.3	0.1	3.12563949331419E-09
0.3	0.15	3.38469312476635E-09
0.3	0.2	3.63312972241534E-09
0.3	0.25	3.89087809382537E-09
0.3	0.3	4.15963671909119E-09
0.3	0.35	4.44030356051511E-09
0.3	0.4	4.73370453297752E-09
0.3	0.45	5.04088696376337E-09
0.3	0.5	5.35963527959654E-09
0.3	0.55	5.69971470230624E-09
0.3	0.6	6.04754846970327E-09
0.3	0.65	6.42417564190544E-09
0.3	0.7	6.81343575648940E-09
0.3	0.75	7.22215151887902E-09
0.3	0.8	7.64980196470147E-09
0.3	0.85	8.09883223443886E-09
0.3	0.9	8.57584738289568E-09
0.3	0.95	9.07355106652005E-09
0.3	1.0	9.59597477456815E-09
0.3	1.05	1.01464076757396E-08
0.3	1.1	1.07243362771077E-08
0.3	1.15	1.13318892552254E-08
0.3	1.2	1.19706926800863E-08
0.4	0.0	2.99060600486035E-18
0.4	0.05	7.64858461584147E-08
0.4	0.1	9.19111240439557E-08
0.4	0.15	9.97730313902296E-08
0.4	0.2	1.07155973552442E-07
0.4	0.25	1.14719207751416E-07
0.4	0.3	1.22524524059230E-07
0.4	0.35	1.30597173647808E-07
0.4	0.4	1.38965020696173E-07
0.4	0.45	1.47647727526718E-07
0.4	0.5	1.56666724016977E-07
0.4	0.55	1.66042923154564E-07
0.4	0.6	1.75796218379097E-07
0.4	0.65	1.85906164905567E-07
0.4	0.7	1.96495090102653E-07
0.4	0.75	2.07523243886320E-07
0.4	0.8	2.18966575962064E-07
0.4	0.85	2.30928638173279E-07
0.4	0.9	2.43387513329860E-07
0.4	0.95	2.56362298798432E-07
0.4	1.0	2.69884643599290E-07
0.4	1.05	2.83977867570685E-07
0.4	1.1	2.98665695706839E-07
0.4	1.15	3.13973150714860E-07
0.4	1.2	3.29925113043318E-07
0.5	0.0	8.04992280182111E-18
0.5	0.05	1.59966849521679E-06
0.5	0.1	1.99925870441168E-06
0.5	0.15	2.16942458337931E-06
0.5	0.2	2.31047463934145E-06
0.5	0.25	2.44849250968302E-06
0.5	0.3	2.58650842668313E-06
0.5	0.35	2.72474721613092E-06
0.5	0.4	2.86478807697477E-06
0.5	0.45	3.00747005382947E-06
0.5	0.5	3.15138398061076E-06
0.5	0.55	3.29717176886739E-06
0.5	0.6	3.44578826830320E-06
0.5	0.65	3.59729002861222E-06
0.5	0.7	3.75112808573892E-06
0.5	0.75	3.90803591314950E-06
0.5	0.8	4.06782872177431E-06
0.5	0.85	4.23079411818415E-06
0.5	0.9	4.39695184146585E-06
0.5	0.95	4.56641678103385E-06
0.5	1.0	4.73928646584581E-06
0.5	1.05	4.91563882200993E-06
0.5	1.1	5.09554711076739E-06
0.5	1.15	5.27908971048111E-06
0.5	1.2	5.46633450691098E-06
0.6	0.0	-2.14421985630505E-18
0.6	0.05	9.46741034783685E-06
0.6	0.1	1.39115176051539E-05
0.6	0.15	1.57236209591160E-05
0.6	0.2	1.66586102809604E-05
0.6	0.25	1.73864692371882E-05
0.6	0.3	1.80584316205703E-05
0.6	0.35	1.87041321755170E-05
0.6	0.4	1.93311362568645E-05
0.6	0.45	1.99484835730011E-05
0.6	0.5	2.05545689830392E-05
0.6	0.55	2.11555878329798E-05
0.6	0.6	2.17509161991407E-05
0.6	0.65	2.23426070978936E-05
0.6	0.7	2.29321531730193E-05
0.6	0.75	2.35202007321609E-05
0.6	0.8	2.41079853797621E-05
0.6	0.85	2.46955266117998E-05
0.6	0.9	2.52836295235368E-05
0.6	0.95	2.58727834212677E-05
0.6	1.0	2.64633392292135E-05
0.6	1.05	2.70557236932155E-05
0.6	1.1	2.76501946805014E-05
0.6	1.15	2.82470312639557E-05
0.6	1.2	2.88464863143016E-05
0.7	0.0	-1.60315925041497E-17
0.7	0.05	2.09725883284955E-05
0.7	0.1	3.50414069327403E-05
0.7	0.15	4.34698015151438E-05
0.7	0.2	4.80432177477942E-05
0.7	0.25	5.06070241316337E-05
0.7	0.3	5.23963474130910E-05
0.7	0.35	5.39196518633573E-05
0.7	0.4	5.53248703799639E-05
0.7	0.45	5.66546672526536E-05
0.7	0.5	5.79325721553644E-05
0.7	0.55	5.91681702634147E-05
0.7	0.6	6.03726255232031E-05
0.7	0.65	6.15506144109353E-05
0.7	0.7	6.27084381913873E-05
0.7	0.75	6.38487266290554E-05
0.7	0.8	6.49749565188245E-05
0.7	0.85	6.60892896430022E-05
0.7	0.9	6.71937460518990E-05
0.7	0.95	6.82899299193079E-05
0.7	1.0	6.93791968455170E-05
0.7	1.05	7.04628149036247E-05
0.7	1.1	7.15416047100040E-05
0.7	1.15	7.26165457065916E-05
0.7	1.2	7.36884289813455E-05
0.8	0.0	1.05557993017501E-18
0.8	0.05	3.25224657869272E-05
0.8	0.1	5.76051375677861E-05
0.8	0.15	7.58692253573727E-05
0.8	0.2	8.82956655439064E-05
0.8	0.25	9.62034999208803E-05
0.8	0.3	1.01129097285063E-04
0.8	0.35	1.04471123155445E-04
0.8	0.4	1.07114340327950E-04
0.8	0.45	1.09440088393908E-04
0.8	0.5	1.11582653478359E-04
0.8	0.55	1.13599040101255E-04
0.8	0.6	1.15521546770727E-04
0.8	0.65	1.17371999395533E-04
0.8	0.7	1.19164885448664E-04
0.8	0.75	1.20911421724829E-04
0.8	0.8	1.22619909497611E-04
0.8	0.85	1.24296035581527E-04
0.8	0.9	1.25944713866673E-04
0.8	0.95	1.27570170427529E-04
0.8	1.0	1.29175306543778E-04
0.8	1.05	1.30762952028187E-04
0.8	1.1	1.32335265035362E-04
0.8	1.15	1.33894228289648E-04
0.8	1.2	1.35441411091322E-04
0.9	0.0	9.78196158227806E-18
0.9	0.05	4.33342798947374E-05
0.9	0.1	7.91072998765303E-05
0.9	0.15	1.07651991983197E-04
0.9	0.2	1.29550473140213E-04
0.9	0.25	1.45598463460724E-04
0.9	0.3	1.56818936888739E-04
0.9	0.35	1.64439185762542E-04
0.9	0.4	1.69742090502962E-04
0.9	0.45	1.73781093988594E-04
0.9	0.5	1.77181673490591E-04
0.9	0.55	1.80224731156613E-04
0.9	0.6	1.83032807960631E-04
0.9	0.65	1.85671573188504E-04
0.9	0.7	1.88182465630708E-04
0.9	0.75	1.90594772059894E-04
0.9	0.8	1.92927759199199E-04
0.9	0.85	1.95196660245594E-04
0.9	0.9	1.97411736649675E-04
0.9	0.95	1.99581326241700E-04
0.9	1.0	2.01711891030856E-04
0.9	1.05	2.03808703609008E-04
0.9	1.1	2.05875862508947E-04
0.9	1.15	2.07916951207064E-04
0.9	1.2	2.09935092090458E-04
1.0	0.0	8.80748808782592E-18
1.0	0.05	5.32474132299655E-05
1.0	0.1	9.89864650684293E-05
1.0	0.15	1.37388036233521E-04
1.0	0.2	1.68829315714490E-04
1.0	0.25	1.93830941731020E-04
1.0	0.3	2.13059309935022E-04
1.0	0.35	2.27343021737821E-04
1.0	0.4	2.37675123312602E-04
1.0	0.45	2.45155003048907E-04
1.0	0.5	2.50823988829140E-04
1.0	0.55	2.55455039416497E-04
1.0	0.6	2.59490220000105E-04
1.0	0.65	2.63140123428686E-04
1.0	0.7	2.66519357778337E-04
1.0	0.75	2.69699456492653E-04
1.0	0.8	2.72728267621748E-04
1.0	0.85	2.75638640826500E-04
1.0	0.9	2.78454129145795E-04
1.0	0.95	2.81191640458580E-04
1.0	1.0	2.83863409748963E-04
1.0	1.05	2.86478854502151E-04
1.0	1.1	2.89046127192024E-04
1.0	1.15	2.91570936449051E-04
1.0	1.2	2.94058180769391E-04
1.1	0.0	-3.09742066486416E-17
1.1	0.05	6.22501815130838E-05
1.1	0.1	1.17134625488154E-04
1.1	0.15	1.64720396191119E-04
1.1	0.2	2.05261903430332E-04
1.1	0.25	2.39123041287665E-04
1.1	0.3	2.66766852615476E-04
1.1	0.35	2.88763325192278E-04
1.1	0.4	3.05803675933564E-04
1.1	0.45	3.18708986038877E-04
1.1	0.5	3.28408871452410E-04
1.1	0.55	3.35853012809678E-04
1.1	0.6	3.41854492145227E-04
1.1	0.65	3.46970532381710E-04
1.1	0.7	3.51517684537356E-04
1.1	0.75	3.55668056898066E-04
1.1	0.8	3.59528650185997E-04
1.1	0.85	3.63173121166179E-04
1.1	0.9	3.66652536477904E-04
1.1	0.95	3.70001608314810E-04
1.1	1.0	3.73245127232740E-04
1.1	1.05	3.76400209123357E-04
1.1	1.1	3.79481533364237E-04
1.1	1.15	3.82498680275594E-04
1.1	1.2	3.85460061039547E-04
1.2	0.0	-2.14857434607044E-17
1.2	0.05	7.03842118914122E-05
1.2	0.1	1.33592423045170E-04
1.2	0.15	1.89621853638264E-04
1.2	0.2	2.38646992679622E-04
1.2	0.25	2.80933027458117E-04
1.2	0.3	3.16818582946775E-04
1.2	0.35	3.46715842927121E-04
1.2	0.4	3.71118625522684E-04
1.2	0.45	3.90615089321978E-04
1.2	0.5	4.05897076948947E-04
1.2	0.55	4.17753826930384E-04
1.2	0.6	4.27024300468528E-04
1.2	0.65	4.34493292808711E-04
1.2	0.7	4.40776375396134E-04
1.2	0.75	4.46275578441123E-04
1.2	0.8	4.51232122600837E-04
1.2	0.85	4.55793080441107E-04
1.2	0.9	4.60059337098909E-04
1.2	0.95	4.64103956412461E-04
1.2	1.0	4.67976465870373E-04
1.2	1.05	4.71712575009571E-04
1.2	1.1	4.75336402010199E-04
1.2	1.15	4.78865869094286E-04
1.2	1.2	4.82315245752075E-04