vg	vd	ids
0.0	0.0	1.22102026335117E-17
0.0	0.05	2.13266696289031E-13
0.0	0.1	2.44274176176923E-13
0.0	0.15	2.62716909131808E-13
0.0	0.2	2.81904295826664E-13
0.0	0.25	3.02248530042727E-13
0.0	0.3	3.23954382297759E-13
0.0	0.35	3.46989351027348E-13
0.0	0.4	3.71395598796560E-13
0.0	0.45	3.97563425090239E-13
0.0	0.5	4.25321385865810E-13
0.0	0.55	4.54954558530803E-13
0.0	0.6	4.86654576972151E-13
0.0	0.65	5.20499682633481E-13
0.0	0.7	5.56620100374622E-13
0.0	0.75	5.95266915132245E-13
0.0	0.8	6.36648474125800E-13
0.0	0.85	6.80961015286972E-13
0.0	0.9	7.28380458565706E-13
0.0	0.95	7.79306324692204E-13
0.0	1.0	8.33943257608727E-13
0.0	1.05	8.92649350540946E-13
0.0	1.1	9.55678041255092E-13
0.0	1.15	1.02357170771615E-12
0.0	1.2	1.09663236987080E-12
0.1	0.0	2.66674261989997E-17
0.1	0.05	6.37750059051152E-12
0.1	0.1	7.33646886737922E-12
0.1	0.15	7.89756976107438E-12
0.1	0.2	8.47672395586444E-12
0.1	0.25	9.08783961577871E-12
0.1	0.3	9.73341722355339E-12
0.1	0.35	1.04158425903021E-11
0.1	0.4	1.11377355195420E-11
0.1	0.45	1.19020008285556E-11
0.1	0.5	1.27113447888656E-11
0.1	0.55	1.35690958369743E-11
0.1	0.6	1.44786257126561E-11
0.1	0.65	1.54434179939690E-11
0.1	0.7	1.64672157447016E-11
0.1	0.75	1.75546404208738E-11
0.1	0.8	1.87094144427767E-11
0.1	0.85	1.99367716671724E-11
0.1	0.9	2.12408724263079E-11
0.1	0.95	2.26284976562815E-11
0.1	1.0	2.41045598181044E-11
0.1	1.05	2.56762906420133E-11
0.1	1.1	2.73498023895912E-11
0.1	1.15	2.91334607207560E-11
0.1	1.2	3.10343412876472E-11
0.2	0.0	-1.40829306025170E-17
0.2	0.05	1.92200885906933E-10
0.2	0.1	2.22157708758161E-10
0.2	0.15	2.39490561289956E-10
0.2	0.2	2.57215407883596E-10
0.2	0.25	2.75805680289324E-10
0.2	0.3	2.95327859024222E-10
0.2	0.35	3.15848549756834E-10
0.2	0.4	3.37435352055848E-10
0.2	0.45	3.60153999257658E-10
0.2	0.5	3.84082785319366E-10
0.2	0.55	4.09304771789624E-10
0.2	0.6	4.35893663391802E-10
0.2	0.65	4.63936959158785E-10
0.2	0.7	4.93527794968461E-10
0.2	0.75	5.24750585291194E-10
0.2	0.8	5.57707367103558E-10
0.2	0.85	5.92523144193824E-10
0.2	0.9	6.29283325685726E-10
0.2	0.95	6.68141219240704E-10
0.2	1.0	7.09189838130178E-10
0.2	1.05	7.52594941620528E-10
0.2	1.1	7.98496232138946E-10
0.2	1.15	8.47041255037397E-10
0.2	1.2	8.98405738669763E-10
0.3	0.0	7.24051602733780E-18
0.3	0.05	5.78028781758190E-09
0.3	0.1	6.72090564151299E-09
0.3	0.15	7.25939624827028E-09
0.3	0.2	7.80384437567740E-09
0.3	0.25	8.37076472391658E-09
0.3	0.3	8.96219454594229E-09
0.3	0.35	9.58000073946588E-09
0.3	0.4	1.02260131686204E-08
0.3	0.45	1.09020626568037E-08
0.3	0.5	1.16100079310264E-08
0.3	0.55	1.23513654500791E-08
0.3	0.6	1.31292422672709E-08
0.3	0.65	1.39447155383876E-08
0.3	0.7	1.47997070972403E-08
0.3	0.75	1.56972735590583E-08
0.3	0.8	1.66388686164648E-08
0.3	0.85	1.76277329130203E-08
0.3	0.9	1.86655861964990E-08
0.3	0.95	1.97556158169467E-08
0.3	1.0	2.09005826238972E-08
0.3	1.05	2.21031425241342E-08
0.3	1.1	2.33666167983847E-08
0.3	1.15	2.46942031076041E-08
0.3	1.2	2.60893542394112E-08
0.4	0.0	3.90041969813306E-17
0.4	0.05	1.67888552270883E-07
0.4	0.1	1.97046646051981E-07
0.4	0.15	2.13221721139062E-07
0.4	0.2	2.29229631782620E-07
0.4	0.25	2.45694256534677E-07
0.4	0.3	2.62686810215312E-07
0.4	0.35	2.80261200396817E-07
0.4	0.4	2.98464733861198E-07
0.4	0.45	3.17326268473370E-07
0.4	0.5	3.36926444391232E-07
0.4	0.55	3.57277228705804E-07
0.4	0.6	3.78415904062411E-07
0.4	0.65	4.00387492277513E-07
0.4	0.7	4.23228228920178E-07
0.4	0.75	4.46987495063350E-07
0.4	0.8	4.71698091164494E-07
0.4	0.85	4.97402348871706E-07
0.4	0.9	5.24146777111858E-07
0.4	0.95	5.51971851385715E-07
0.4	1.0	5.80922382029878E-07
0.4	1.05	6.11044711692105E-07
0.4	1.1	6.42386121806721E-07
0.4	1.15	6.74994480374960E-07
0.4	1.2	7.08919597356756E-07
0.5	0.0	-1.87544684536381E-17
0.5	0.05	3.35976879317437E-06
0.5	0.1	4.11186976063409E-06
0.5	0.15	4.43155200082007E-06
0.5	0.2	4.71262269059986E-06
0.5	0.25	4.98974321298055E-06
0.5	0.3	5.26646289921813E-06
0.5	0.35	5.54417491409649E-06
0.5	0.4	5.82350037627590E-06
0.5	0.45	6.10586753982952E-06
0.5	0.5	6.39104528259051E-06
0.5	0.55	6.67965222999168E-06
0.5	0.6	6.97200651934995E-06
0.5	0.65	7.26843872678533E-06
0.5	0.7	7.56913612662822E-06
0.5	0.75	7.87434039449055E-06
0.5	0.8	8.18425723181353E-06
0.5	0.85	8.49902370453011E-06
0.5	0.9	8.81881308766281E-06
0.5	0.95	9.14377241146786E-06
0.5	1.0	9.47401424066091E-06
0.5	1.05	9.80967897222952E-06
0.5	1.1	1.01508801189074E-05
0.5	1.15	1.04977104836774E-05
0.5	1.2	1.08502882123536E-05
0.6	0.0	1.20784540758571E-17
0.6	0.05	1.81942840607320E-05
0.6	0.1	2.62789430794374E-05
0.6	0.15	2.92868772236953E-05
0.6	0.2	3.08239870553106E-05
0.6	0.25	3.20777040478590E-05
0.6	0.3	3.32504733738502E-05
0.6	0.35	3.43765295942016E-05
0.6	0.4	3.54719619520465E-05
0.6	0.45	3.65426629547673E-05
0.6	0.5	3.75934433735148E-05
0.6	0.55	3.86286894320889E-05
0.6	0.6	3.96518259551656E-05
0.6	0.65	4.06651542694028E-05
0.6	0.7	4.16707847853587E-05
0.6	0.75	4.26701974744596E-05
0.6	0.8	4.36647247566880E-05
0.6	0.85	4.46556173624747E-05
0.6	0.9	4.56437103914254E-05
0.6	0.95	4.66299065277235E-05
0.6	1.0	4.76149192734277E-05
0.6	1.05	4.85993862900074E-05
0.6	1.1	4.95838717742622E-05
0.6	1.15	5.05688589413074E-05
0.6	1.2	5.15548414986224E-05
0.7	0.0	2.81028160740327E-17
0.7	0.05	3.81528571681808E-05
0.7	0.1	6.27694430662424E-05
0.7	0.15	7.66044737217058E-05
0.7	0.2	8.34984428469126E-05
0.7	0.25	8.72062369567053E-05
0.7	0.3	8.99029087217253E-05
0.7	0.35	9.22773263325912E-05
0.7	0.4	9.44853513415062E-05
0.7	0.45	9.65804287568690E-05
0.7	0.5	9.85879374991677E-05
0.7	0.55	1.00526292998458E-04
0.7	0.6	1.02408833916785E-04
0.7	0.65	1.04245688297301E-04
0.7	0.7	1.06044220129417E-04
0.7	0.75	1.07810182867958E-04
0.7	0.8	1.09548293398716E-04
0.7	0.85	1.11262402750318E-04
0.7	0.9	1.12955340638017E-04
0.7	0.95	1.14630101741625E-04
0.7	1.0	1.16288743271511E-04
0.7	1.05	1.17933184217072E-04
0.7	1.1	1.19565190864067E-04
0.7	1.15	1.21186231392717E-04
0.7	1.2	1.22797578919508E-04
0.8	0.0	-2.21784437719211E-17
0.8	0.05	5.69543700031423E-05
0.8	0.1	9.95573290154661E-05
0.8	0.15	1.29243616846813E-04
0.8	0.2	1.48236683422586E-04
0.8	0.25	1.59422729096031E-04
0.8	0.3	1.65991890831228E-04
0.8	0.35	1.70503555203419E-04
0.8	0.4	1.74231690767220E-04
0.8	0.45	1.77587649094167E-04
0.8	0.5	1.80702145150581E-04
0.8	0.55	1.83638445459633E-04
0.8	0.6	1.86436760868750E-04
0.8	0.65	1.89126137536390E-04
0.8	0.7	1.91726554252678E-04
0.8	0.75	1.94253781996374E-04
0.8	0.8	1.96718849619315E-04
0.8	0.85	1.99130674530272E-04
0.8	0.9	2.01496287668620E-04
0.8	0.95	2.03821677808411E-04
0.8	1.0	2.06111132028241E-04
0.8	1.05	2.08369099240717E-04
0.8	1.1	2.10598767985580E-04
0.8	1.15	2.12803155225599E-04
0.8	1.2	2.14984785296512E-04
0.9	0.0	-3.52154642032766E-17
0.9	0.05	7.35557385167669E-05
0.9	0.1	1.32762386680777E-04
0.9	0.15	1.78449739775885E-04
0.9	0.2	2.12007996297391E-04
0.9	0.25	2.35249164980970E-04
0.9	0.3	2.50419886199401E-04
0.9	0.35	2.60099468127765E-04
0.9	0.4	2.66733169738322E-04
0.9	0.45	2.71959439903560E-04
0.9	0.5	2.76508919196222E-04
0.9	0.55	2.80643487044214E-04
0.9	0.6	2.84482400682259E-04
0.9	0.65	2.88099015556697E-04
0.9	0.7	2.91542565344839E-04
0.9	0.75	2.94848448281007E-04
0.9	0.8	2.98041847390147E-04
0.9	0.85	3.01141525000032E-04
0.9	0.9	3.04161638596711E-04
0.9	0.95	3.07112571429226E-04
0.9	1.0	3.10003543415226E-04
0.9	1.05	3.12841844909001E-04
0.9	1.1	3.15632628069784E-04
0.9	1.15	3.18381769657967E-04
0.9	1.2	3.21093292559060E-04
1.0	0.0	6.21896772937888E-18
1.0	0.05	8.79704831290094E-05
1.0	0.1	1.61907741407966E-04
1.0	0.15	2.22313787510956E-04
1.0	0.2	2.70152420480175E-04
1.0	0.25	3.06658614076504E-04
1.0	0.3	3.33335206050436E-04
1.0	0.35	3.51986108184397E-04
1.0	0.4	3.64697688145628E-04
1.0	0.45	3.73618221294272E-04
1.0	0.5	3.80479172091778E-04
1.0	0.55	3.86273523462092E-04
1.0	0.6	3.91438287161012E-04
1.0	0.65	3.96165175420958E-04
1.0	0.7	4.00567333055251E-04
1.0	0.75	4.04722792379959E-04
1.0	0.8	4.08685676283164E-04
1.0	0.85	4.12493674329185E-04
1.0	0.9	4.16175154572299E-04
1.0	0.95	4.19749183540611E-04
1.0	1.0	4.23232285539669E-04
1.0	1.05	4.26635668226995E-04
1.0	1.1	4.29969328167317E-04
1.0	1.15	4.33241592276320E-04
1.0	1.2	4.36458529077127E-04
1.1	0.0	3.59075150302755E-18
1.1	0.05	1.00426010357741E-04
1.1	0.1	1.87257099735038E-04
1.1	0.15	2.60803041104142E-04
1.1	0.2	3.21785098990569E-04
1.1	0.25	3.71118728118430E-04
1.1	0.3	4.09883429800000E-04
1.1	0.35	4.39341081548573E-04
1.1	0.4	4.60972569790981E-04
1.1	0.45	4.76486533879782E-04
1.1	0.5	4.87715095788002E-04
1.1	0.55	4.96310235630373E-04
1.1	0.6	5.03411945319933E-04
1.1	0.65	5.09623448540028E-04
1.1	0.7	5.15236478986635E-04
1.1	0.75	5.20409468603653E-04
1.1	0.8	5.25249424061792E-04
1.1	0.85	5.29834011638396E-04
1.1	0.9	5.34218077770048E-04
1.1	0.95	5.38439973978258E-04
1.1	1.0	5.42527560203960E-04
1.1	1.05	5.46499980394665E-04
1.1	1.1	5.50374421804112E-04
1.1	1.15	5.54163767072230E-04
1.1	1.2	5.57875587976268E-04
1.2	0.0	-1.45713428561372E-17
1.2	0.05	1.11189934835091E-04
1.2	0.1	2.09255181758861E-04
1.2	0.15	2.94390611556322E-04
1.2	0.2	3.67172989544361E-04
1.2	0.25	4.28329500055718E-04
1.2	0.3	4.78692467218012E-04
1.2	0.35	5.19201027406550E-04
1.2	0.4	5.50925370475977E-04
1.2	0.45	5.75100086834862E-04
1.2	0.5	5.93142399129173E-04
1.2	0.55	6.06601494776213E-04
1.2	0.6	6.16976363908365E-04
1.2	0.65	6.25443793269818E-04
1.2	0.7	6.32732940135466E-04
1.2	0.75	6.39238112018240E-04
1.2	0.8	6.45177549654396E-04
1.2	0.85	6.50690494825813E-04
1.2	0.9	6.55876055305454E-04
1.2	0.95	6.60809997013140E-04
1.2	1.0	6.65543360365161E-04
1.2	1.05	6.70112073782172E-04
1.2	1.1	6.74543816494875E-04
1.2	1.15	6.78857366470128E-04
1.2	1.2	6.83068799564667E-04