vg	vd	ids
0.0	0.0	-5.33157549960310E-17
0.0	0.05	1.06247866977021E-11
0.0	0.1	1.43134031557258E-11
0.0	0.15	1.89677564884575E-11
0.0	0.2	2.54266132577641E-11
0.0	0.25	3.44878554889504E-11
0.0	0.3	4.73189928652605E-11
0.0	0.35	6.56260614641664E-11
0.0	0.4	9.18526337530553E-11
0.0	0.45	1.29630508964361E-10
0.0	0.5	1.84313014600399E-10
0.0	0.55	2.63687630824527E-10
0.0	0.6	3.79059816561910E-10
0.0	0.65	5.46836968833017E-10
0.0	0.7	7.90666577367710E-10
0.0	0.75	1.14448174577455E-09
0.0	0.8	1.65675912864605E-09
0.0	0.85	2.39634692984622E-09
0.0	0.9	3.46078013336353E-09
0.0	0.95	4.98669805852427E-09
0.0	1.0	7.16516423100390E-09
0.0	1.05	1.02611324633327E-08
0.0	1.1	1.46397491933929E-08
0.0	1.15	2.08004924862821E-08
0.0	1.2	2.94213219056897E-08
0.1	0.0	4.98102076700186E-18
0.1	0.05	1.79161819091355E-10
0.1	0.1	2.28212053833908E-10
0.1	0.15	2.82031279571751E-10
0.1	0.2	3.50209946517434E-10
0.1	0.25	4.37491292031720E-10
0.1	0.3	5.50337424729107E-10
0.1	0.35	6.97667855732360E-10
0.1	0.4	8.91812680814159E-10
0.1	0.45	1.14987495485543E-09
0.1	0.5	1.49546256119332E-09
0.1	0.55	1.96147708387714E-09
0.1	0.6	2.59323860226398E-09
0.1	0.65	3.45316936388374E-09
0.1	0.7	4.62494889279101E-09
0.1	0.75	6.22792057778310E-09
0.1	0.8	8.42513113207658E-09
0.1	0.85	1.14400262262493E-08
0.1	0.9	1.55766897175253E-08
0.1	0.95	2.12462969383454E-08
0.1	1.0	2.90042015596012E-08
0.1	1.05	3.95928840752683E-08
0.1	1.1	5.39994480723890E-08
0.1	1.15	7.35276074327398E-08
0.1	1.2	9.98857078949632E-08
0.2	0.0	2.61984851844432E-17
0.2	0.05	3.64961534546279E-09
0.2	0.1	4.53348183386820E-09
0.2	0.15	5.40064939625126E-09
0.2	0.2	6.42772259366803E-09
0.2	0.25	7.65290584303747E-09
0.2	0.3	9.12348549009319E-09
0.2	0.35	1.08998163719918E-08
0.2	0.4	1.30594058379454E-08
0.2	0.45	1.57021805123754E-08
0.2	0.5	1.89572650120061E-08
0.2	0.55	2.29930319663464E-08
0.2	0.6	2.80288149603000E-08
0.2	0.65	3.43500419205864E-08
0.2	0.7	4.23291566522838E-08
0.2	0.75	5.24496195417006E-08
0.2	0.8	6.53392556123094E-08
0.2	0.85	8.18156191298188E-08
0.2	0.9	1.02931766232484E-07
0.2	0.95	1.30036476063121E-07
0.2	1.0	1.64850307509813E-07
0.2	1.05	2.09494350475722E-07
0.2	1.1	2.66712925977941E-07
0.2	1.15	3.39995094490851E-07
0.2	1.2	4.33688211465451E-07
0.3	0.0	-7.33923076508200E-17
0.3	0.05	7.97321846375828E-08
0.3	0.1	9.82897263010208E-08
0.3	0.15	1.14875953004112E-07
0.3	0.2	1.33558414400056E-07
0.3	0.25	1.54748384729931E-07
0.3	0.3	1.78869198043157E-07
0.3	0.35	2.06409292483939E-07
0.3	0.4	2.37944124813694E-07
0.3	0.45	2.74154756995535E-07
0.3	0.5	3.15853092706452E-07
0.3	0.55	3.64012100540241E-07
0.3	0.6	4.19799378137721E-07
0.3	0.65	4.84620851903678E-07
0.3	0.7	5.60167797699123E-07
0.3	0.75	6.48481435238664E-07
0.3	0.8	7.52012657700888E-07
0.3	0.85	8.73708416812045E-07
0.3	0.9	1.01709403141135E-06
0.3	0.95	1.18637533101524E-06
0.3	1.0	1.38652078968169E-06
0.3	1.05	1.62339422022775E-06
0.3	1.1	1.90383505124289E-06
0.3	1.15	2.23578257085535E-06
0.3	1.2	2.62831108429731E-06
0.4	0.0	-6.25706379521715E-17
0.4	0.05	1.57348409519139E-06
0.4	0.1	1.95152396613463E-06
0.4	0.15	2.23939345872011E-06
0.4	0.2	2.54117337415235E-06
0.4	0.25	2.86324988630682E-06
0.4	0.3	3.20875837891891E-06
0.4	0.35	3.58040898932704E-06
0.4	0.4	3.98076438866555E-06
0.4	0.45	4.41240142653603E-06
0.4	0.5	4.87797025333544E-06
0.4	0.55	5.38033115094452E-06
0.4	0.6	5.92252652765423E-06
0.4	0.65	6.50789974425764E-06
0.4	0.7	7.14010987603028E-06
0.4	0.75	7.82317789320279E-06
0.4	0.8	8.56156243694553E-06
0.4	0.85	9.36017528233860E-06
0.4	0.9	1.02244300093757E-05
0.4	0.95	1.11603116535290E-05
0.4	1.0	1.21743271056541E-05
0.4	1.05	1.32736157116078E-05
0.4	1.1	1.44658664196093E-05
0.4	1.15	1.57592985648103E-05
0.4	1.2	1.71626984033547E-05
0.5	0.0	-8.81713901176653E-18
0.5	0.05	1.44695611160082E-05
0.5	0.1	1.91528241992123E-05
0.5	0.15	2.14012822291056E-05
0.5	0.2	2.33225533515003E-05
0.5	0.25	2.51754197736170E-05
0.5	0.3	2.70080645360502E-05
0.5	0.35	2.88432688062695E-05
0.5	0.4	3.06943262878155E-05
0.5	0.45	3.25700668577362E-05
0.5	0.5	3.44763283252968E-05
0.5	0.55	3.64181667061591E-05
0.5	0.6	3.83995926801752E-05
0.5	0.65	4.04244472197785E-05
0.5	0.7	4.24964713956611E-05
0.5	0.75	4.46194721460080E-05
0.5	0.8	4.67974196720244E-05
0.5	0.85	4.90345360842131E-05
0.5	0.9	5.13354315739943E-05
0.5	0.95	5.37049834090464E-05
0.5	1.0	5.61485373328743E-05
0.5	1.05	5.86718968375155E-05
0.5	1.1	6.12808588829684E-05
0.5	1.15	6.39821812845851E-05
0.5	1.2	6.67826838742772E-05
0.6	0.0	1.94330575409870E-17
0.6	0.05	4.22292594346640E-05
0.6	0.1	6.43335589513261E-05
0.6	0.15	7.45352984155638E-05
0.6	0.2	8.02268769437443E-05
0.6	0.25	8.47086318428974E-05
0.6	0.3	8.87549251125182E-05
0.6	0.35	9.25773034943691E-05
0.6	0.4	9.62707968024610E-05
0.6	0.45	9.98869684806403E-05
0.6	0.5	1.03454971120966E-04
0.6	0.55	1.06994018170676E-04
0.6	0.6	1.10517742995557E-04
0.6	0.65	1.14036588773573E-04
0.6	0.7	1.17559388170187E-04
0.6	0.75	1.21093242202978E-04
0.6	0.8	1.24645674443726E-04
0.6	0.85	1.28222711939817E-04
0.6	0.9	1.31830915381110E-04
0.6	0.95	1.35477161024631E-04
0.6	1.0	1.39167871991205E-04
0.6	1.05	1.42909742873567E-04
0.6	1.1	1.46709405295760E-04
0.6	1.15	1.50574417186362E-04
0.6	1.2	1.54511662446266E-04
0.7	0.0	-2.93692753093646E-17
0.7	0.05	7.15602748249461E-05
0.7	0.1	1.18903586944442E-04
0.7	0.15	1.47203551591738E-04
0.7	0.2	1.62997305114216E-04
0.7	0.25	1.72558420169654E-04
0.7	0.3	1.79707461685542E-04
0.7	0.35	1.85851081879923E-04
0.7	0.4	1.91471548941031E-04
0.7	0.45	1.96791363856580E-04
0.7	0.5	2.01920423814855E-04
0.7	0.55	2.06918224362106E-04
0.7	0.6	2.11821151300549E-04
0.7	0.65	2.16654045923926E-04
0.7	0.7	2.21435605264412E-04
0.7	0.75	2.26180404378726E-04
0.7	0.8	2.30900239001795E-04
0.7	0.85	2.35606742973843E-04
0.7	0.9	2.40309412159978E-04
0.7	0.95	2.45017374361065E-04
0.7	1.0	2.49740078114025E-04
0.7	1.05	2.54485464365510E-04
0.7	1.1	2.59262045773479E-04
0.7	1.15	2.64079530489979E-04
0.7	1.2	2.68943865714338E-04
0.8	0.0	4.12064677861614E-17
0.8	0.05	9.79966805346149E-05
0.8	0.1	1.70393717494821E-04
0.8	0.15	2.20672260343004E-04
0.8	0.2	2.53435843561065E-04
0.8	0.25	2.73893754702416E-04
0.8	0.3	2.87161586345438E-04
0.8	0.35	2.96939239746135E-04
0.8	0.4	3.05063652243138E-04
0.8	0.45	3.12317690920406E-04
0.8	0.5	3.19071935939590E-04
0.8	0.55	3.25513284698494E-04
0.8	0.6	3.31738946482970E-04
0.8	0.65	3.37804691269925E-04
0.8	0.7	3.43750122133532E-04
0.8	0.75	3.49600091157024E-04
0.8	0.8	3.55378104666868E-04
0.8	0.85	3.61099286779695E-04
0.8	0.9	3.66780445113491E-04
0.8	0.95	3.72433387941820E-04
0.8	1.0	3.78070419153158E-04
0.8	1.05	3.83704464099670E-04
0.8	1.1	3.89341723736795E-04
0.8	1.15	3.94997173695534E-04
0.8	1.2	4.00679549029058E-04
0.9	0.0	-1.88238618611397E-18
0.9	0.05	1.20970155666642E-04
0.9	0.1	2.16096639387621E-04
0.9	0.15	2.87887530603293E-04
0.9	0.2	3.39785784799474E-04
0.9	0.25	3.75689056622068E-04
0.9	0.3	3.99823650615850E-04
0.9	0.35	4.16367139406851E-04
0.9	0.4	4.28646671945594E-04
0.9	0.45	4.38666587369481E-04
0.9	0.5	4.47454659763290E-04
0.9	0.55	4.55531723962227E-04
0.9	0.6	4.63163880645580E-04
0.9	0.65	4.70491788901852E-04
0.9	0.7	4.77595584525049E-04
0.9	0.75	4.84526820020733E-04
0.9	0.8	4.91325072028159E-04
0.9	0.85	4.98015589239262E-04
0.9	0.9	5.04623881839994E-04
0.9	0.95	5.11167334131618E-04
0.9	1.0	5.17661115593157E-04
0.9	1.05	5.24123433419167E-04
0.9	1.1	5.30564287485396E-04
0.9	1.15	5.36997880595511E-04
0.9	1.2	5.43437027900628E-04
1.0	0.0	4.32270924137182E-17
1.0	0.05	1.40687953398860E-04
1.0	0.1	2.55844252837756E-04
1.0	0.15	3.47359297957211E-04
1.0	0.2	4.17958105762691E-04
1.0	0.25	4.70680499809082E-04
1.0	0.3	5.08807057547295E-04
1.0	0.35	5.35817282963199E-04
1.0	0.4	5.55159811377145E-04
1.0	0.45	5.69750265563914E-04
1.0	0.5	5.81585909199661E-04
1.0	0.55	5.91843801790784E-04
1.0	0.6	6.01176244221603E-04
1.0	0.65	6.09928211805064E-04
1.0	0.7	6.18281982663557E-04
1.0	0.75	6.26345321032864E-04
1.0	0.8	6.34187566987422E-04
1.0	0.85	6.41853589568790E-04
1.0	0.9	6.49384283931919E-04
1.0	0.95	6.56802721007057E-04
1.0	1.0	6.64136023246802E-04
1.0	1.05	6.71403007015213E-04
1.0	1.1	6.78621090580059E-04
1.0	1.15	6.85807204309159E-04
1.0	1.2	6.92974315066802E-04
1.1	0.0	-1.58235125341246E-17
1.1	0.05	1.57547239210992E-04
1.1	0.1	2.90136312067200E-04
1.1	0.15	3.99256403480771E-04
1.1	0.2	4.87165101544026E-04
1.1	0.25	5.56344771859928E-04
1.1	0.3	6.09416870565528E-04
1.1	0.35	6.49145967948107E-04
1.1	0.4	6.78429305617474E-04
1.1	0.45	7.00147182780660E-04
1.1	0.5	7.16837095749191E-04
1.1	0.55	7.30399211062030E-04
1.1	0.6	7.42078663292692E-04
1.1	0.65	7.52622713535330E-04
1.1	0.7	7.62448106121171E-04
1.1	0.75	7.71781642536989E-04
1.1	0.8	7.80755849223691E-04
1.1	0.85	7.89457332487617E-04
1.1	0.9	7.97945139190412E-04
1.1	0.95	8.06264830251672E-04
1.1	1.0	8.14448749990682E-04
1.1	1.05	8.22528053386701E-04
1.1	1.1	8.30523475834098E-04
1.1	1.15	8.38454504866916E-04
1.1	1.2	8.46344472397649E-04
1.2	0.0	-2.01168622322546E-17
1.2	0.05	1.71974858484328E-04
1.2	0.1	3.19662151070450E-04
1.2	0.15	4.44291763220973E-04
1.2	0.2	5.47813612341999E-04
1.2	0.25	6.32341554411366E-04
1.2	0.3	7.00054696870945E-04
1.2	0.35	7.53196493518895E-04
1.2	0.4	7.94107484745749E-04
1.2	0.45	8.25220496749549E-04
1.2	0.5	8.48966588608681E-04
1.2	0.55	8.67554587443055E-04
1.2	0.6	8.82748916190093E-04
1.2	0.65	8.95804471106037E-04
1.2	0.7	9.07528615353614E-04
1.2	0.75	9.18396168134392E-04
1.2	0.8	9.28678078659890E-04
1.2	0.85	9.38533219139262E-04
1.2	0.9	9.48063428080764E-04
1.2	0.95	9.57341816632571E-04
1.2	1.0	9.66422419250492E-04
1.2	1.05	9.75342844523024E-04
1.2	1.1	9.84138235982045E-04
1.2	1.15	9.92833682035910E-04
1.2	1.2	1.00145198936054E-03