vg	vd	ids
0.0	0.0	-2.05555786441167E-17
0.0	0.05	8.58291686512116E-13
0.0	0.1	1.06326609234262E-12
0.0	0.15	1.21937414538735E-12
0.0	0.2	1.39446456092013E-12
0.0	0.25	1.59580835444417E-12
0.0	0.3	1.82844009932638E-12
0.0	0.35	2.09842601822446E-12
0.0	0.4	2.41340824645213E-12
0.0	0.45	2.78277365674365E-12
0.0	0.5	3.21841127684766E-12
0.0	0.55	3.73514951611964E-12
0.0	0.6	4.35181243937999E-12
0.0	0.65	5.09215335333053E-12
0.0	0.7	5.98647722607648E-12
0.0	0.75	7.07347563849133E-12
0.0	0.8	8.40266962842620E-12
0.0	0.85	1.00376909650793E-11
0.0	0.9	1.20601146648880E-11
0.0	0.95	1.45751854812763E-11
0.0	1.0	1.77187479830902E-11
0.0	1.05	2.16662764860871E-11
0.0	1.1	2.66437964987501E-11
0.0	1.15	3.29367724161059E-11
0.0	1.2	4.09417941158678E-11
0.1	0.0	-7.91145424464959E-18
0.1	0.05	2.20295972965063E-11
0.1	0.1	2.71135685387990E-11
0.1	0.15	3.07423504030458E-11
0.1	0.2	3.46798501947019E-11
0.1	0.25	3.90770089783134E-11
0.1	0.3	4.40000524378805E-11
0.1	0.35	4.95255092710578E-11
0.1	0.4	5.57428238339911E-11
0.1	0.45	6.27583728703313E-11
0.1	0.5	7.06981731511742E-11
0.1	0.55	7.97125035810203E-11
0.1	0.6	8.99820641288848E-11
0.1	0.65	1.01722259314505E-10
0.1	0.7	1.15207440964142E-10
0.1	0.75	1.30742510077570E-10
0.1	0.8	1.48722965709135E-10
0.1	0.85	1.69623788827933E-10
0.1	0.9	1.94024024349401E-10
0.1	0.95	2.22661919878804E-10
0.1	1.0	2.56391141054774E-10
0.1	1.05	2.96327323075755E-10
0.1	1.1	3.43875046521795E-10
0.1	1.15	4.00646043944443E-10
0.1	1.2	4.68759725741925E-10
0.2	0.0	-8.15746340019525E-19
0.2	0.05	5.84780388200014E-10
0.2	0.1	7.18766958752890E-10
0.2	0.15	8.10292311569335E-10
0.2	0.2	9.07171486198926E-10
0.2	0.25	1.01317283510783E-09
0.2	0.3	1.12938025223617E-09
0.2	0.35	1.25694154900798E-09
0.2	0.4	1.39715183978666E-09
0.2	0.45	1.55146907088873E-09
0.2	0.5	1.72155389759605E-09
0.2	0.55	1.90929382884777E-09
0.2	0.6	2.11685728486903E-09
0.2	0.65	2.34672613064110E-09
0.2	0.7	2.60177167226339E-09
0.2	0.75	2.88529274894310E-09
0.2	0.8	3.20101064611725E-09
0.2	0.85	3.55368757332547E-09
0.2	0.9	3.94764971484380E-09
0.2	0.95	4.39035157201881E-09
0.2	1.0	4.88939804646757E-09
0.2	1.05	5.45177258017454E-09
0.2	1.1	6.08780925782992E-09
0.2	1.15	6.80934613678133E-09
0.2	1.2	7.63076213486030E-09
0.3	0.0	-3.64807906387136E-18
0.3	0.05	1.56169621920050E-08
0.3	0.1	1.92451763846082E-08
0.3	0.15	2.16390147231629E-08
0.3	0.2	2.41131507740923E-08
0.3	0.25	2.67718001200842E-08
0.3	0.3	2.96352541474010E-08
0.3	0.35	3.27225795586180E-08
0.3	0.4	3.60528722919563E-08
0.3	0.45	3.96521422787212E-08
0.3	0.5	4.35383841269877E-08
0.3	0.55	4.77439288953087E-08
0.3	0.6	5.22910309587203E-08
0.3	0.65	5.72162824886174E-08
0.3	0.7	6.25482571255084E-08
0.3	0.75	6.83335683758767E-08
0.3	0.8	7.46074621158251E-08
0.3	0.85	8.14196301376525E-08
0.3	0.9	8.88224706319421E-08
0.3	0.95	9.68748449355604E-08
0.3	1.0	1.05642226354789E-07
0.3	1.05	1.15198253611575E-07
0.3	1.1	1.25625480206607E-07
0.3	1.15	1.37016890903794E-07
0.3	1.2	1.49476734273786E-07
0.4	0.0	7.23755819864488E-18
0.4	0.05	3.87350687281220E-07
0.4	0.1	4.81982161526082E-07
0.4	0.15	5.40113589939274E-07
0.4	0.2	5.97593557640938E-07
0.4	0.25	6.57618862761662E-07
0.4	0.3	7.20594675979428E-07
0.4	0.35	7.86792709602769E-07
0.4	0.4	8.56376660113650E-07
0.4	0.45	9.29792065358374E-07
0.4	0.5	1.00704306227937E-06
0.4	0.55	1.08842729003484E-06
0.4	0.6	1.17414555081212E-06
0.4	0.65	1.26450661957881E-06
0.4	0.7	1.35967688544651E-06
0.4	0.75	1.45993678741880E-06
0.4	0.8	1.56554706664563E-06
0.4	0.85	1.67678666682639E-06
0.4	0.9	1.79395180948495E-06
0.4	0.95	1.91734521803428E-06
0.4	1.0	2.04729892575608E-06
0.4	1.05	2.18415432723181E-06
0.4	1.1	2.32828122240189E-06
0.4	1.15	2.48006868118280E-06
0.4	1.2	2.63993110198026E-06
0.5	0.0	-3.39299873380478E-18
0.5	0.05	5.11616069974068E-06
0.5	0.1	6.79803010333427E-06
0.5	0.15	7.55861629114095E-06
0.5	0.2	8.16985648259534E-06
0.5	0.25	8.75892251911621E-06
0.5	0.3	9.34288083334717E-06
0.5	0.35	9.92650256708419E-06
0.5	0.4	1.05124441818330E-05
0.5	0.45	1.11024528474497E-05
0.5	0.5	1.16979133843419E-05
0.5	0.55	1.22998014094766E-05
0.5	0.6	1.29090083179731E-05
0.5	0.65	1.35261548972752E-05
0.5	0.7	1.41519242551160E-05
0.5	0.75	1.47867599587203E-05
0.5	0.8	1.54312490956036E-05
0.5	0.85	1.60857773709545E-05
0.5	0.9	1.67508311978171E-05
0.5	0.95	1.74268486590237E-05
0.5	1.0	1.81142454785119E-05
0.5	1.05	1.88134707156598E-05
0.5	1.1	1.95249505562235E-05
0.5	1.15	2.02491615138525E-05
0.5	1.2	2.09864940090006E-05
0.6	0.0	-3.56956109519442E-18
0.6	0.05	1.86690135936095E-05
0.6	0.1	2.90227851072268E-05
0.6	0.15	3.40641251354220E-05
0.6	0.2	3.67678038235641E-05
0.6	0.25	3.87684326514331E-05
0.6	0.3	4.05619330968898E-05
0.6	0.35	4.22587883743165E-05
0.6	0.4	4.38930791761750E-05
0.6	0.45	4.54823013950621E-05
0.6	0.5	4.70376766902195E-05
0.6	0.55	4.85676942447762E-05
0.6	0.6	5.00779419779788E-05
0.6	0.65	5.15732825794573E-05
0.6	0.7	5.30571339003109E-05
0.6	0.75	5.45324143809704E-05
0.6	0.8	5.60015706776829E-05
0.6	0.85	5.74666560439929E-05
0.6	0.9	5.89292714061619E-05
0.6	0.95	6.03912630346859E-05
0.6	1.0	6.18537898879609E-05
0.6	1.05	6.33182491046791E-05
0.6	1.1	6.47857487506356E-05
0.6	1.15	6.62574800115621E-05
0.6	1.2	6.77343085724878E-05
0.7	0.0	-5.36476218248217E-18
0.7	0.05	3.46339448596533E-05
0.7	0.1	5.91602677008119E-05
0.7	0.15	7.50831744862870E-05
0.7	0.2	8.46221688320302E-05
0.7	0.25	9.03506386856632E-05
0.7	0.3	9.43598470877889E-05
0.7	0.35	9.77050331151559E-05
0.7	0.4	1.00741226773063E-04
0.7	0.45	1.03584841223902E-04
0.7	0.5	1.06289862570239E-04
0.7	0.55	1.08890693351030E-04
0.7	0.6	1.11410365904421E-04
0.7	0.65	1.13865760790676E-04
0.7	0.7	1.16268419934046E-04
0.7	0.75	1.18627960807823E-04
0.7	0.8	1.20951319854141E-04
0.7	0.85	1.23244495923618E-04
0.7	0.9	1.25512076071987E-04
0.7	0.95	1.27758231142405E-04
0.7	1.0	1.29986338836974E-04
0.7	1.05	1.32199523090076E-04
0.7	1.1	1.34400102190710E-04
0.7	1.15	1.36590873705931E-04
0.7	1.2	1.38773697405492E-04
0.8	0.0	3.07384408467695E-18
0.8	0.05	4.98857123744238E-05
0.8	0.1	8.91639596485982E-05
0.8	0.15	1.18623871762379E-04
0.8	0.2	1.39536196589298E-04
0.8	0.25	1.53604493664692E-04
0.8	0.3	1.62881601936537E-04
0.8	0.35	1.69392115833888E-04
0.8	0.4	1.74562006955600E-04
0.8	0.45	1.79070359472236E-04
0.8	0.5	1.83183981113920E-04
0.8	0.55	1.87023909264537E-04
0.8	0.6	1.90661873758648E-04
0.8	0.65	1.94145381535267E-04
0.8	0.7	1.97507217826594E-04
0.8	0.75	2.00771020861882E-04
0.8	0.8	2.03953838860114E-04
0.8	0.85	2.07068709696907E-04
0.8	0.9	2.10126327107076E-04
0.8	0.95	2.13134589380860E-04
0.8	1.0	2.16100224669455E-04
0.8	1.05	2.19029530718999E-04
0.8	1.1	2.21926825292407E-04
0.8	1.15	2.24796886482572E-04
0.8	1.2	2.27642736894681E-04
0.9	0.0	-1.61758492098366E-17
0.9	0.05	6.38151413439157E-05
0.9	0.1	1.16977861326614E-04
0.9	0.15	1.59920237129258E-04
0.9	0.2	1.93439774408353E-04
0.9	0.25	2.18613245549607E-04
0.9	0.3	2.36807696703785E-04
0.9	0.35	2.49668756508589E-04
0.9	0.4	2.58959546697861E-04
0.9	0.45	2.66186727373174E-04
0.9	0.5	2.72292843902497E-04
0.9	0.55	2.77728669239818E-04
0.9	0.6	2.82712256062153E-04
0.9	0.65	2.87369661225833E-04
0.9	0.7	2.91782466495154E-04
0.9	0.75	2.96006380970358E-04
0.9	0.8	3.00080533796071E-04
0.9	0.85	3.04032352446458E-04
0.9	0.9	3.07882530482012E-04
0.9	0.95	3.11646764370435E-04
0.9	1.0	3.15337056360505E-04
0.9	1.05	3.18964011335177E-04
0.9	1.1	3.22535311893277E-04
0.9	1.15	3.26058213901565E-04
0.9	1.2	3.29539288622944E-04
1.0	0.0	3.80328111718121E-18
1.0	0.05	7.63364761565003E-05
1.0	0.1	1.42184292198858E-04
1.0	0.15	1.97762868428602E-04
1.0	0.2	2.43607494033767E-04
1.0	0.25	2.80451933928133E-04
1.0	0.3	3.09220277128762E-04
1.0	0.35	3.31045052582506E-04
1.0	0.4	3.47273479615347E-04
1.0	0.45	3.59397736620115E-04
1.0	0.5	3.68835617029694E-04
1.0	0.55	3.76651043626998E-04
1.0	0.6	3.83470651741322E-04
1.0	0.65	3.89619241238549E-04
1.0	0.7	3.95288577958384E-04
1.0	0.75	4.00606023528832E-04
1.0	0.8	4.05656389307259E-04
1.0	0.85	4.10498531332173E-04
1.0	0.9	4.15173386493241E-04
1.0	0.95	4.19711005826447E-04
1.0	1.0	4.24133497412272E-04
1.0	1.05	4.28457868581212E-04
1.0	1.1	4.32697609074769E-04
1.0	1.15	4.36862514292977E-04
1.0	1.2	4.40964811365373E-04
1.1	0.0	-8.90345876370824E-18
1.1	0.05	8.75079614740750E-05
1.1	0.1	1.64795327292117E-04
1.1	0.15	2.31944871930371E-04
1.1	0.2	2.89329314088104E-04
1.1	0.25	3.37477363867180E-04
1.1	0.3	3.77050882047409E-04
1.1	0.35	4.08850419413551E-04
1.1	0.4	4.33832745463403E-04
1.1	0.45	4.53124489468650E-04
1.1	0.5	4.67985513022216E-04
1.1	0.55	4.79686358009251E-04
1.1	0.6	4.89296444919203E-04
1.1	0.65	4.97556355449716E-04
1.1	0.7	5.04902576260476E-04
1.1	0.75	5.11595406806820E-04
1.1	0.8	5.17807063234335E-04
1.1	0.85	5.23661103685259E-04
1.1	0.9	5.29240482500575E-04
1.1	0.95	5.34604857585950E-04
1.1	1.0	5.39792416002452E-04
1.1	1.05	5.44836412962287E-04
1.1	1.1	5.49754403003409E-04
1.1	1.15	5.54568087379366E-04
1.1	1.2	5.59290879803639E-04
1.2	0.0	-8.80484838021787E-19
1.2	0.05	9.74402027037116E-05
1.2	0.1	1.84975081252890E-04
1.2	0.15	2.62597885612698E-04
1.2	0.2	3.30575865557883E-04
1.2	0.25	3.89306876320926E-04
1.2	0.3	4.39287961443544E-04
1.2	0.35	4.81111185620420E-04
1.2	0.4	5.15474251950706E-04
1.2	0.45	5.43199182230538E-04
1.2	0.5	5.65239732192675E-04
1.2	0.55	5.82668358187686E-04
1.2	0.6	5.96598763994671E-04
1.2	0.65	6.08045849331221E-04
1.2	0.7	6.17796477069038E-04
1.2	0.75	6.26372003239173E-04
1.2	0.8	6.34107770264062E-04
1.2	0.85	6.41222374078537E-04
1.2	0.9	6.47872788025696E-04
1.2	0.95	6.54172235133116E-04
1.2	1.0	6.60201454839279E-04
1.2	1.05	6.66013344496725E-04
1.2	1.1	6.71647028449833E-04
1.2	1.15	6.77133154964988E-04
1.2	1.2	6.82489783467605E-04