vg	vd	ids
0.0	0.0	1.92687766462568E-17
0.0	0.05	1.99489972356238E-11
0.0	0.1	2.75183234395097E-11
0.0	0.15	3.78081797031595E-11
0.0	0.2	5.27155274262978E-11
0.0	0.25	7.45087238939292E-11
0.0	0.3	1.06512731902408E-10
0.0	0.35	1.53864066608833E-10
0.0	0.4	2.24271865702747E-10
0.0	0.45	3.29212930398916E-10
0.0	0.5	4.85842967773428E-10
0.0	0.55	7.19541387903923E-10
0.0	0.6	1.06777389482543E-09
0.0	0.65	1.58545432679376E-09
0.0	0.7	2.35261197141603E-09
0.0	0.75	3.48518636459655E-09
0.0	0.8	5.14996762687217E-09
0.0	0.85	7.58521288304014E-09
0.0	0.9	1.11286527071679E-08
0.0	0.95	1.62555717915165E-08
0.0	1.0	2.36287055956491E-08
0.0	1.05	3.41648523324246E-08
0.0	1.1	4.91209741823425E-08
0.0	1.15	7.02018130945818E-08
0.0	1.2	9.96993606880045E-08
0.1	0.0	-1.34939821777970E-17
0.1	0.05	3.11738619468873E-10
0.1	0.1	3.97185449043834E-10
0.1	0.15	4.96780804980316E-10
0.1	0.2	6.26793216680800E-10
0.1	0.25	7.98638498264043E-10
0.1	0.3	1.02850825336203E-09
0.1	0.35	1.33938180977662E-09
0.1	0.4	1.76373554923885E-09
0.1	0.45	2.34782159109717E-09
0.1	0.5	3.15673666268450E-09
0.1	0.55	4.28094958430073E-09
0.1	0.6	5.84723695339298E-09
0.1	0.65	8.03922653547609E-09
0.1	0.7	1.11120362009092E-08
0.1	0.75	1.54194702418178E-08
0.1	0.8	2.14540303311682E-08
0.1	0.85	2.98922511195577E-08
0.1	0.9	4.16589066182022E-08
0.1	0.95	5.80079559406044E-08
0.1	1.0	8.06252598028383E-08
0.1	1.05	1.11758204714829E-07
0.1	1.1	1.54372811272521E-07
0.1	1.15	2.12344400895262E-07
0.1	1.2	2.90671908856814E-07
0.2	0.0	-1.30168589558805E-16
0.2	0.05	6.36012342752488E-09
0.2	0.1	7.80505503205007E-09
0.2	0.15	9.27319347587913E-09
0.2	0.2	1.10314462633842E-08
0.2	0.25	1.31565244012072E-08
0.2	0.3	1.57477850689866E-08
0.2	0.35	1.89356588870561E-08
0.2	0.4	2.28921888141741E-08
0.2	0.45	2.78437947110321E-08
0.2	0.5	3.40922986463301E-08
0.2	0.55	4.20384840508887E-08
0.2	0.6	5.22150980572395E-08
0.2	0.65	6.53278345583077E-08
0.2	0.7	8.23045189011338E-08
0.2	0.75	1.04374747545979E-07
0.2	0.8	1.33147037372845E-07
0.2	0.85	1.70697162155121E-07
0.2	0.9	2.19642649816171E-07
0.2	0.95	2.83407728058167E-07
0.2	1.0	3.66461505375031E-07
0.2	1.05	4.74401591237686E-07
0.2	1.1	6.14175411249669E-07
0.2	1.15	7.94376301398206E-07
0.2	1.2	1.02541523670602E-06
0.3	0.0	-4.64832337750349E-18
0.3	0.05	1.43891301936995E-07
0.3	0.1	1.74327592994588E-07
0.3	0.15	2.01828533425607E-07
0.3	0.2	2.32750983510821E-07
0.3	0.25	2.67789115717661E-07
0.3	0.3	3.07701201592313E-07
0.3	0.35	3.53378155169446E-07
0.3	0.4	4.05883594861523E-07
0.3	0.45	4.66504109651579E-07
0.3	0.5	5.36800811698677E-07
0.3	0.55	6.18675462212040E-07
0.3	0.6	7.14448377606573E-07
0.3	0.65	8.26955212767556E-07
0.3	0.7	9.59648384172416E-07
0.3	0.75	1.11671898467303E-06
0.3	0.8	1.30324937174908E-06
0.3	0.85	1.52534713191735E-06
0.3	0.9	1.79029837217357E-06
0.3	0.95	2.10671811196309E-06
0.3	1.0	2.48466666736831E-06
0.3	1.05	2.93578694493624E-06
0.3	1.1	3.47339889207129E-06
0.3	1.15	4.11241003062387E-06
0.3	1.2	4.86900979720728E-06
0.4	0.0	1.19344912448654E-16
0.4	0.05	2.87582307791581E-06
0.4	0.1	3.50362201691892E-06
0.4	0.15	3.96274343354529E-06
0.4	0.2	4.43691294457749E-06
0.4	0.25	4.93687174153492E-06
0.4	0.3	5.46798798374215E-06
0.4	0.35	6.03455536936954E-06
0.4	0.4	6.64047654647456E-06
0.4	0.45	7.28966228397889E-06
0.4	0.5	7.98621785008840E-06
0.4	0.55	8.73450574836687E-06
0.4	0.6	9.53939372822182E-06
0.4	0.65	1.04062066554473E-05
0.4	0.7	1.13408906443336E-05
0.4	0.75	1.23500759209861E-05
0.4	0.8	1.34411151442657E-05
0.4	0.85	1.46221235628625E-05
0.4	0.9	1.59020481994545E-05
0.4	0.95	1.72906091405196E-05
0.4	1.0	1.87983141650667E-05
0.4	1.05	2.04363432408673E-05
0.4	1.1	2.22164486294573E-05
0.4	1.15	2.41507763884161E-05
0.4	1.2	2.62517926691893E-05
0.5	0.0	-7.93491010086719E-19
0.5	0.05	2.34191457532303E-05
0.5	0.1	3.10024818042134E-05
0.5	0.15	3.42369474292074E-05
0.5	0.2	3.68507084679109E-05
0.5	0.25	3.93217215848486E-05
0.5	0.3	4.17404252700043E-05
0.5	0.35	4.41465492827810E-05
0.5	0.4	4.65605894949166E-05
0.5	0.45	4.89959548590125E-05
0.5	0.5	5.14618042916705E-05
0.5	0.55	5.39656482290545E-05
0.5	0.6	5.65138785060427E-05
0.5	0.65	5.91130361983046E-05
0.5	0.7	6.17691154560067E-05
0.5	0.75	6.44886917761746E-05
0.5	0.8	6.72787286302986E-05
0.5	0.85	7.01460434836160E-05
0.5	0.9	7.30988665341650E-05
0.5	0.95	7.61449699298493E-05
0.5	1.0	7.92929379060364E-05
0.5	1.05	8.25519368208978E-05
0.5	1.1	8.59313410927747E-05
0.5	1.15	8.94403906924653E-05
0.5	1.2	9.30888646806910E-05
0.6	0.0	-3.95470154895064E-17
0.6	0.05	6.14958101045434E-05
0.6	0.1	9.41556145743102E-05
0.6	0.15	1.08957244922747E-04
0.6	0.2	1.16543535248804E-04
0.6	0.25	1.22154613831499E-04
0.6	0.3	1.27102051999401E-04
0.6	0.35	1.31745551348460E-04
0.6	0.4	1.36225674175679E-04
0.6	0.45	1.40606225427041E-04
0.6	0.5	1.44924128080103E-04
0.6	0.55	1.49202969857264E-04
0.6	0.6	1.53460654450443E-04
0.6	0.65	1.57710008637087E-04
0.6	0.7	1.61963459522327E-04
0.6	0.75	1.66231740217893E-04
0.6	0.8	1.70524048699104E-04
0.6	0.85	1.74852033344754E-04
0.6	0.9	1.79223464113705E-04
0.6	0.95	1.83649468652613E-04
0.6	1.0	1.88139831046228E-04
0.6	1.05	1.92704716045575E-04
0.6	1.1	1.97353129249901E-04
0.6	1.15	2.02096968490109E-04
0.6	1.2	2.06944225399232E-04
0.7	0.0	4.83169259349313E-17
0.7	0.05	9.91315068811024E-05
0.7	0.1	1.65032324155998E-04
0.7	0.15	2.04432870282098E-04
0.7	0.2	2.25971768362210E-04
0.7	0.25	2.38275562243750E-04
0.7	0.3	2.46943530776297E-04
0.7	0.35	2.54194220139576E-04
0.7	0.4	2.60791702617819E-04
0.7	0.45	2.67039781581313E-04
0.7	0.5	2.73066947754235E-04
0.7	0.55	2.78941165266362E-04
0.7	0.6	2.84705971289050E-04
0.7	0.65	2.90388562334885E-04
0.7	0.7	2.96013074567254E-04
0.7	0.75	3.01596849630914E-04
0.7	0.8	3.07156218863630E-04
0.7	0.85	3.12706457461115E-04
0.7	0.9	3.18259102769235E-04
0.7	0.95	3.23830181266620E-04
0.7	1.0	3.29428405586986E-04
0.7	1.05	3.35068457350028E-04
0.7	1.1	3.40763739892455E-04
0.7	1.15	3.46520130132366E-04
0.7	1.2	3.52353719686234E-04
0.8	0.0	-1.28526420665652E-16
0.8	0.05	1.31511253273377E-04
0.8	0.1	2.28964237209618E-04
0.8	0.15	2.96725355827270E-04
0.8	0.2	3.40681510138777E-04
0.8	0.25	3.67590353361244E-04
0.8	0.3	3.84295125220839E-04
0.8	0.35	3.95992606329407E-04
0.8	0.4	4.05440260860846E-04
0.8	0.45	4.13833435554872E-04
0.8	0.5	4.21656353775024E-04
0.8	0.55	4.29122914526041E-04
0.8	0.6	4.36342507799119E-04
0.8	0.65	4.43380382913097E-04
0.8	0.7	4.50277765833107E-04
0.8	0.75	4.57072729160424E-04
0.8	0.8	4.63784164916358E-04
0.8	0.85	4.70440937842372E-04
0.8	0.9	4.77058176965679E-04
0.8	0.95	4.83654772130826E-04
0.8	1.0	4.90246998648506E-04
0.8	1.05	4.96850448084823E-04
0.8	1.1	5.03476990775195E-04
0.8	1.15	5.10143463113650E-04
0.8	1.2	5.16860801838878E-04
0.9	0.0	-5.22145343780589E-18
0.9	0.05	1.58384802646617E-04
0.9	0.1	2.83318381394086E-04
0.9	0.15	3.77842528306153E-04
0.9	0.2	4.46200420645468E-04
0.9	0.25	4.93232390211111E-04
0.9	0.3	5.24289536134745E-04
0.9	0.35	5.44839090976926E-04
0.9	0.4	5.59450711025299E-04
0.9	0.45	5.71051581044655E-04
0.9	0.5	5.81164958471999E-04
0.9	0.55	5.90472042945716E-04
0.9	0.6	5.99269886435036E-04
0.9	0.65	6.07717871730799E-04
0.9	0.7	6.15907150364955E-04
0.9	0.75	6.23900434246316E-04
0.9	0.8	6.31741253052735E-04
0.9	0.85	6.39467600051507E-04
0.9	0.9	6.47105328568557E-04
0.9	0.95	6.54681685562356E-04
0.9	1.0	6.62217136035029E-04
0.9	1.05	6.69729850584870E-04
0.9	1.1	6.77239811687206E-04
0.9	1.15	6.84760979190378E-04
0.9	1.2	6.92307341693626E-04
1.0	0.0	1.11218621065215E-16
1.0	0.05	1.80465482964341E-04
1.0	0.1	3.28621118869233E-04
1.0	0.15	4.46759534499561E-04
1.0	0.2	5.38167809603835E-04
1.0	0.25	6.06479275914780E-04
1.0	0.3	6.55640256887080E-04
1.0	0.35	6.89936396916523E-04
1.0	0.4	7.13786162626328E-04
1.0	0.45	7.31131637048773E-04
1.0	0.5	7.44845496110372E-04
1.0	0.55	7.56645776910936E-04
1.0	0.6	7.67386865169346E-04
1.0	0.65	7.77463307829185E-04
1.0	0.7	7.87076491782907E-04
1.0	0.75	7.96352590341224E-04
1.0	0.8	8.05372884722056E-04
1.0	0.85	8.14197012661820E-04
1.0	0.9	8.22869240059970E-04
1.0	0.95	8.31426990256326E-04
1.0	1.0	8.39897035350878E-04
1.0	1.05	8.48306522347908E-04
1.0	1.1	8.56680976743548E-04
1.0	1.15	8.65033529838790E-04
1.0	1.2	8.73390291231536E-04
1.1	0.0	-5.55408342219603E-17
1.1	0.05	1.98628618142545E-04
1.1	0.1	3.66201586914264E-04
1.1	0.15	5.04596933207307E-04
1.1	0.2	6.16553154263137E-04
1.1	0.25	7.04988156200493E-04
1.1	0.3	7.72936946968889E-04
1.1	0.35	8.23620443754459E-04
1.1	0.4	8.60506119527613E-04
1.1	0.45	8.87201442361707E-04
1.1	0.5	9.07083977400586E-04
1.1	0.55	9.22856457954231E-04
1.1	0.6	9.36322604587104E-04
1.1	0.65	9.48475341349258E-04
1.1	0.7	9.59796737353362E-04
1.1	0.75	9.70544160065814E-04
1.1	0.8	9.80874946356693E-04
1.1	0.85	9.90889945558849E-04
1.1	0.9	1.00065864878895E-03
1.1	0.95	1.01024136757326E-03
1.1	1.0	1.01967573483589E-03
1.1	1.05	1.02900298065811E-03
1.1	1.1	1.03825133157902E-03
1.1	1.15	1.04744660598501E-03
1.1	1.2	1.05660933402283E-03
1.2	0.0	2.05393243881016E-17
1.2	0.05	2.13669770806854E-04
1.2	0.1	3.97467008464400E-04
1.2	0.15	5.53046870684643E-04
1.2	0.2	6.82839042692155E-04
1.2	0.25	7.89348237016441E-04
1.2	0.3	8.75063258439094E-04
1.2	0.35	9.42505396011635E-04
1.2	0.4	9.94317071588654E-04
1.2	0.45	1.03332695442499E-03
1.2	0.5	1.06250517591639E-03
1.2	0.55	1.08473858570868E-03
1.2	0.6	1.10250747484265E-03
1.2	0.65	1.11762036532467E-03
1.2	0.7	1.13117177056875E-03
1.2	0.75	1.14372392334932E-03
1.2	0.8	1.15559124691094E-03
1.2	0.85	1.16696142797392E-03
1.2	0.9	1.17795169233233E-03
1.2	0.95	1.18864949088854E-03
1.2	1.0	1.19911676782637E-03
1.2	1.05	1.20941204847852E-03
1.2	1.1	1.21957150149736E-03
1.2	1.15	1.22963570302461E-03
1.2	1.2	1.23962859388422E-03