vg	vd	ids
0.0	0.0	1.47343137043081E-17
0.0	0.05	1.37971524115106E-13
0.0	0.1	1.54554859673221E-13
0.0	0.15	1.62172200423714E-13
0.0	0.2	1.69902024916493E-13
0.0	0.25	1.77906320558429E-13
0.0	0.3	1.86290464335079E-13
0.0	0.35	1.95011948480114E-13
0.0	0.4	2.04100496345480E-13
0.0	0.45	2.13608570540820E-13
0.0	0.5	2.23506779115242E-13
0.0	0.55	2.33886876335665E-13
0.0	0.6	2.44754932122715E-13
0.0	0.65	2.56066342221988E-13
0.0	0.7	2.68001236384168E-13
0.0	0.75	2.80419564048240E-13
0.0	0.8	2.93474113228985E-13
0.0	0.85	3.07104804243394E-13
0.0	0.9	3.21445863927657E-13
0.0	0.95	3.36415997708919E-13
0.0	1.0	3.52137668383629E-13
0.0	1.05	3.68629246383963E-13
0.0	1.1	3.85929049538237E-13
0.0	1.15	4.04084903985073E-13
0.0	1.2	4.23123016131091E-13
0.1	0.0	1.30488436653470E-17
0.1	0.05	4.42260888217655E-12
0.1	0.1	4.97583899764633E-12
0.1	0.15	5.23173072126429E-12
0.1	0.2	5.48806556573819E-12
0.1	0.25	5.75416784575224E-12
0.1	0.3	6.03071407327298E-12
0.1	0.35	6.31834829802803E-12
0.1	0.4	6.61751027149350E-12
0.1	0.45	6.92958708832908E-12
0.1	0.5	7.25449787177130E-12
0.1	0.55	7.59325167104192E-12
0.1	0.6	7.94663488740591E-12
0.1	0.65	8.31528013653683E-12
0.1	0.7	8.69999523943172E-12
0.1	0.75	9.10157940600269E-12
0.1	0.8	9.52089440479611E-12
0.1	0.85	9.95881957206438E-12
0.1	0.9	1.04162671040728E-11
0.1	0.95	1.08941654877284E-11
0.1	1.0	1.13935316920997E-11
0.1	1.05	1.19154057502734E-11
0.1	1.1	1.24608909796888E-11
0.1	1.15	1.30311042614560E-11
0.1	1.2	1.36272320312169E-11
0.2	0.0	-3.68266642200124E-18
0.2	0.05	1.43854314036067E-10
0.2	0.1	1.62554884617371E-10
0.2	0.15	1.71213442692935E-10
0.2	0.2	1.79822933695363E-10
0.2	0.25	1.88728453016608E-10
0.2	0.3	1.97954268059187E-10
0.2	0.35	2.07522226528768E-10
0.2	0.4	2.17453284961884E-10
0.2	0.45	2.27768154906423E-10
0.2	0.5	2.38487746508841E-10
0.2	0.55	2.49632933170523E-10
0.2	0.6	2.61225046595482E-10
0.2	0.65	2.73285842940032E-10
0.2	0.7	2.85837700614231E-10
0.2	0.75	2.98903625908361E-10
0.2	0.8	3.12507451693247E-10
0.2	0.85	3.26673619559878E-10
0.2	0.9	3.41427563831720E-10
0.2	0.95	3.56795608501297E-10
0.2	1.0	3.72805107373823E-10
0.2	1.05	3.89484361506350E-10
0.2	1.1	4.06862836391539E-10
0.2	1.15	4.24971172126798E-10
0.2	1.2	4.43841267347944E-10
0.3	0.0	-1.13200591214066E-17
0.3	0.05	4.70464464083393E-09
0.3	0.1	5.34254854934293E-09
0.3	0.15	5.63750191026441E-09
0.3	0.2	5.92775586883969E-09
0.3	0.25	6.22643259998655E-09
0.3	0.3	6.53453347214653E-09
0.3	0.35	6.85274629581582E-09
0.3	0.4	7.18213146294516E-09
0.3	0.45	7.52302914139147E-09
0.3	0.5	7.87618614764592E-09
0.3	0.55	8.24229654988422E-09
0.3	0.6	8.62193852275935E-09
0.3	0.65	9.01577493135776E-09
0.3	0.7	9.42444180922608E-09
0.3	0.75	9.84859744429868E-09
0.3	0.8	1.02889086543138E-08
0.3	0.85	1.07460488204799E-08
0.3	0.9	1.12207524435606E-08
0.3	0.95	1.17137073250029E-08
0.3	1.0	1.22256689648587E-08
0.3	1.05	1.27574001118232E-08
0.3	1.1	1.33096900493883E-08
0.3	1.15	1.38833523888946E-08
0.3	1.2	1.44792265892274E-08
0.4	0.0	4.56801089674424E-18
0.4	0.05	1.50089906859109E-07
0.4	0.1	1.71859479829136E-07
0.4	0.15	1.81703153642277E-07
0.4	0.2	1.91168717478146E-07
0.4	0.25	2.00803860342641E-07
0.4	0.3	2.10662914977436E-07
0.4	0.35	2.20780700297486E-07
0.4	0.4	2.31184065444186E-07
0.4	0.45	2.41895438132455E-07
0.4	0.5	2.52934613029649E-07
0.4	0.55	2.64319752106098E-07
0.4	0.6	2.76067954831208E-07
0.4	0.65	2.88195671988607E-07
0.4	0.7	3.00718907587853E-07
0.4	0.75	3.13653485506701E-07
0.4	0.8	3.27015086876065E-07
0.4	0.85	3.40819446046858E-07
0.4	0.9	3.55082365024140E-07
0.4	0.95	3.69819767757751E-07
0.4	1.0	3.85047815903013E-07
0.4	1.05	4.00782819255431E-07
0.4	1.1	4.17041363141690E-07
0.4	1.15	4.33840282944628E-07
0.4	1.2	4.51196611608638E-07
0.5	0.0	-9.84499407432167E-18
0.5	0.05	3.35864694817990E-06
0.5	0.1	4.01775789382439E-06
0.5	0.15	4.24798543360286E-06
0.5	0.2	4.44102559434062E-06
0.5	0.25	4.62954983106583E-06
0.5	0.3	4.81716565097268E-06
0.5	0.35	5.00536598137388E-06
0.5	0.4	5.19499444465902E-06
0.5	0.45	5.38658758067844E-06
0.5	0.5	5.58050800167942E-06
0.5	0.55	5.77703208672642E-06
0.5	0.6	5.97636222077291E-06
0.5	0.65	6.17867343835973E-06
0.5	0.7	6.38409662381908E-06
0.5	0.75	6.59275423601771E-06
0.5	0.8	6.80474299473374E-06
0.5	0.85	7.02015035937607E-06
0.5	0.9	7.23905783667152E-06
0.5	0.95	7.46152662292573E-06
0.5	1.0	7.68762887672964E-06
0.5	1.05	7.91741601477841E-06
0.5	1.1	8.15093989059504E-06
0.5	1.15	8.38825537327037E-06
0.5	1.2	8.62939842056429E-06
0.6	0.0	-2.54114168966161E-17
0.6	0.05	1.93927953077714E-05
0.6	0.1	2.77071601067853E-05
0.6	0.15	3.05034595579058E-05
0.6	0.2	3.17440478645282E-05
0.6	0.25	3.27060165523932E-05
0.6	0.3	3.35951712383865E-05
0.6	0.35	3.44493961627880E-05
0.6	0.4	3.52835251332636E-05
0.6	0.45	3.61048376254392E-05
0.6	0.5	3.69175454264329E-05
0.6	0.55	3.77241047327415E-05
0.6	0.6	3.85264383847651E-05
0.6	0.65	3.93257037611822E-05
0.6	0.7	4.01230323681836E-05
0.6	0.75	4.09190525262713E-05
0.6	0.8	4.17144932015403E-05
0.6	0.85	4.25097647095547E-05
0.6	0.9	4.33053093791908E-05
0.6	0.95	4.41014682480651E-05
0.6	1.0	4.48985222682910E-05
0.6	1.05	4.56967161463413E-05
0.6	1.1	4.64962783137076E-05
0.6	1.15	4.72973884782379E-05
0.6	1.2	4.81001645835261E-05
0.7	0.0	1.34752341846875E-17
0.7	0.05	4.12941605844493E-05
0.7	0.1	6.76050916305727E-05
0.7	0.15	8.20242886330966E-05
0.7	0.2	8.87969451398832E-05
0.7	0.25	9.20805711314916E-05
0.7	0.3	9.42954848182916E-05
0.7	0.35	9.61890359898762E-05
0.7	0.4	9.79418093177650E-05
0.7	0.45	9.96167168300432E-05
0.7	0.5	1.01240959187134E-04
0.7	0.55	1.02828212884866E-04
0.7	0.6	1.04386321673693E-04
0.7	0.65	1.05921020176154E-04
0.7	0.7	1.07435959851772E-04
0.7	0.75	1.08933923172964E-04
0.7	0.8	1.10417359757315E-04
0.7	0.85	1.11887774267931E-04
0.7	0.9	1.13346885309534E-04
0.7	0.95	1.14795815122196E-04
0.7	1.0	1.16235518099325E-04
0.7	1.05	1.17667015173064E-04
0.7	1.1	1.19090996810732E-04
0.7	1.15	1.20508122328208E-04
0.7	1.2	1.21918982801931E-04
0.8	0.0	-1.70283970282308E-17
0.8	0.05	6.18745962941413E-05
0.8	0.1	1.07818324517686E-04
0.8	0.15	1.39468996479712E-04
0.8	0.2	1.59310934507147E-04
0.8	0.25	1.70549142022085E-04
0.8	0.3	1.76697875171311E-04
0.8	0.35	1.80602281485583E-04
0.8	0.4	1.83680684761514E-04
0.8	0.45	1.86408637899578E-04
0.8	0.5	1.88958350789111E-04
0.8	0.55	1.91398177174717E-04
0.8	0.6	1.93760029820794E-04
0.8	0.65	1.96061508364725E-04
0.8	0.7	1.98313245389682E-04
0.8	0.75	2.00523308584145E-04
0.8	0.8	2.02696944658824E-04
0.8	0.85	2.04838697918808E-04
0.8	0.9	2.06952049940969E-04
0.8	0.95	2.09039636373329E-04
0.8	1.0	2.11103898125797E-04
0.8	1.05	2.13146811969913E-04
0.8	1.1	2.15170105915697E-04
0.8	1.15	2.17174891861867E-04
0.8	1.2	2.19163012302492E-04
0.9	0.0	8.18973403126056E-18
0.9	0.05	7.98466431669314E-05
0.9	0.1	1.43804300071204E-04
0.9	0.15	1.92821202050168E-04
0.9	0.2	2.28451812071312E-04
0.9	0.25	2.52708245623544E-04
0.9	0.3	2.68066341457187E-04
0.9	0.35	2.77376473745758E-04
0.9	0.4	2.83344139436261E-04
0.9	0.45	2.87788826849898E-04
0.9	0.5	2.91557743809058E-04
0.9	0.55	2.94994102267085E-04
0.9	0.6	2.98236365825499E-04
0.9	0.65	3.01347439199112E-04
0.9	0.7	3.04358825466271E-04
0.9	0.75	3.07290199622887E-04
0.9	0.8	3.10154033837542E-04
0.9	0.85	3.12960078866705E-04
0.9	0.9	3.15714803013210E-04
0.9	0.95	3.18424082345827E-04
0.9	1.0	3.21092201266269E-04
0.9	1.05	3.23722614450062E-04
0.9	1.1	3.26318779330006E-04
0.9	1.15	3.28883188628353E-04
0.9	1.2	3.31418243014143E-04
1.0	0.0	4.93387962015583E-17
1.0	0.05	9.52048134459960E-05
1.0	0.1	1.74946561195246E-04
1.0	0.15	2.39806343571851E-04
1.0	0.2	2.90856454238014E-04
1.0	0.25	3.29451311348878E-04
1.0	0.3	3.57229652181129E-04
1.0	0.35	3.76167281260796E-04
1.0	0.4	3.88563536214594E-04
1.0	0.45	3.96794815852517E-04
1.0	0.5	4.02784068813785E-04
1.0	0.55	4.07674087253502E-04
1.0	0.6	4.12017495181677E-04
1.0	0.65	4.16056600890209E-04
1.0	0.7	4.19894815620542E-04
1.0	0.75	4.23586928478063E-04
1.0	0.8	4.27163205431188E-04
1.0	0.85	4.30642866100317E-04
1.0	0.9	4.34040604729251E-04
1.0	0.95	4.37366910202805E-04
1.0	1.0	4.40629118062085E-04
1.0	1.05	4.43834311114066E-04
1.0	1.1	4.46987488352178E-04
1.0	1.15	4.50092994110630E-04
1.0	1.2	4.53154312461020E-04
1.1	0.0	3.82312994966842E-18
1.1	0.05	1.08248209440387E-04
1.1	0.1	2.01590088682276E-04
1.1	0.15	2.80406244081956E-04
1.1	0.2	3.45506372811155E-04
1.1	0.25	3.97886171730741E-04
1.1	0.3	4.38701962194520E-04
1.1	0.35	4.69305954307811E-04
1.1	0.4	4.91298492191943E-04
1.1	0.45	5.06550015533207E-04
1.1	0.5	5.17086685115362E-04
1.1	0.55	5.24751987118636E-04
1.1	0.6	5.30854606319390E-04
1.1	0.65	5.36143110182836E-04
1.1	0.7	5.40981809614162E-04
1.1	0.75	5.45536718362564E-04
1.1	0.8	5.49888148681487E-04
1.1	0.85	5.54082084290040E-04
1.1	0.9	5.58148231145872E-04
1.1	0.95	5.62105554063818E-04
1.1	1.0	5.65969521497064E-04
1.1	1.05	5.69749863763968E-04
1.1	1.1	5.73457149112984E-04
1.1	1.15	5.77096421110714E-04
1.1	1.2	5.80675123626231E-04
1.2	0.0	5.09230714975817E-17
1.2	0.05	1.19336958890339E-04
1.2	0.1	2.24336791670802E-04
1.2	0.15	3.15272577586687E-04
1.2	0.2	3.92811165203126E-04
1.2	0.25	4.57750707223449E-04
1.2	0.3	5.10976496656230E-04
1.2	0.35	5.53473374552641E-04
1.2	0.4	5.86364435998067E-04
1.2	0.45	6.10961295028741E-04
1.2	0.5	6.28797855813848E-04
1.2	0.55	6.41583235918808E-04
1.2	0.6	6.50997249773046E-04
1.2	0.65	6.58397451446846E-04
1.2	0.7	6.64678595341609E-04
1.2	0.75	6.70333715891268E-04
1.2	0.8	6.75601934843858E-04
1.2	0.85	6.80603335526744E-04
1.2	0.9	6.85396608062367E-04
1.2	0.95	6.90026090721705E-04
1.2	1.0	6.94519427034961E-04
1.2	1.05	6.98894463963001E-04
1.2	1.1	7.03166323229075E-04
1.2	1.15	7.07346196775950E-04
1.2	1.2	7.11444462615287E-04