vg	vd	ids
0.0	0.0	-5.00805395214239E-17
0.0	0.05	2.41431021140609E-13
0.0	0.1	2.78202650832772E-13
0.0	0.15	2.98827969664730E-13
0.0	0.2	3.20202866680337E-13
0.0	0.25	3.43058153353296E-13
0.0	0.3	3.67535103738963E-13
0.0	0.35	3.93312505076690E-13
0.0	0.4	4.21260707639265E-13
0.0	0.45	4.51000943551656E-13
0.0	0.5	4.82718758004409E-13
0.0	0.55	5.16992582981887E-13
0.0	0.6	5.53377986146279E-13
0.0	0.65	5.92497495827001E-13
0.0	0.7	6.34251098291191E-13
0.0	0.75	6.79445918033095E-13
0.0	0.8	7.27481582399788E-13
0.0	0.85	7.79506723458300E-13
0.0	0.9	8.35301437140408E-13
0.0	0.95	8.95147755319763E-13
0.0	1.0	9.59852927027823E-13
0.0	1.05	1.02933960815710E-12
0.0	1.1	1.10449490978283E-12
0.0	1.15	1.18551412198626E-12
0.0	1.2	1.27346442234779E-12
0.1	0.0	-1.93166069864705E-17
0.1	0.05	7.55637204668849E-12
0.1	0.1	8.73264390813709E-12
0.1	0.15	9.37894642120544E-12
0.1	0.2	1.00417430231364E-11
0.1	0.25	1.07445027368878E-11
0.1	0.3	1.14901356728876E-11
0.1	0.35	1.22817026130746E-11
0.1	0.4	1.31224040733281E-11
0.1	0.45	1.40150299080801E-11
0.1	0.5	1.49650856090958E-11
0.1	0.55	1.59748718085240E-11
0.1	0.6	1.70481970371114E-11
0.1	0.65	1.81901562599577E-11
0.1	0.7	1.94055675586776E-11
0.1	0.75	2.06992667375025E-11
0.1	0.8	2.20765002300870E-11
0.1	0.85	2.35434026405453E-11
0.1	0.9	2.51062337940426E-11
0.1	0.95	2.67720184573741E-11
0.1	1.0	2.85482415193621E-11
0.1	1.05	3.04427031569028E-11
0.1	1.1	3.24645987477181E-11
0.1	1.15	3.46232960347773E-11
0.1	1.2	3.69298006694280E-11
0.2	0.0	-5.48811258450220E-17
0.2	0.05	2.39247663921070E-10
0.2	0.1	2.77348199985864E-10
0.2	0.15	2.97929646161520E-10
0.2	0.2	3.18816250955692E-10
0.2	0.25	3.40827686929282E-10
0.2	0.3	3.64051374178717E-10
0.2	0.35	3.88569709010196E-10
0.2	0.4	4.14467478813528E-10
0.2	0.45	4.41815417255180E-10
0.2	0.5	4.70744520528668E-10
0.2	0.55	5.01325918952076E-10
0.2	0.6	5.33660032723430E-10
0.2	0.65	5.67853228967373E-10
0.2	0.7	6.04019099023319E-10
0.2	0.75	6.42277252532080E-10
0.2	0.8	6.82754971661987E-10
0.2	0.85	7.25586789887987E-10
0.2	0.9	7.70916566485842E-10
0.2	0.95	8.18896403095601E-10
0.2	1.0	8.69688709132565E-10
0.2	1.05	9.23467624239337E-10
0.2	1.1	9.80417895231881E-10
0.2	1.15	1.04073785772361E-09
0.2	1.2	1.10463975870702E-09
0.3	0.0	5.30270308736372E-17
0.3	0.05	7.58928510682040E-09
0.3	0.1	8.83423730499422E-09
0.3	0.15	9.49577415292107E-09
0.3	0.2	1.01583614150677E-08
0.3	0.25	1.08515987419326E-08
0.3	0.3	1.15783850428920E-08
0.3	0.35	1.23411656228509E-08
0.3	0.4	1.31429277500672E-08
0.3	0.45	1.39843238197684E-08
0.3	0.5	1.48690430149837E-08
0.3	0.55	1.57993216436716E-08
0.3	0.6	1.67776021808252E-08
0.3	0.65	1.78064572579654E-08
0.3	0.7	1.88885851134351E-08
0.3	0.75	2.00268015750548E-08
0.3	0.8	2.12240504767090E-08
0.3	0.85	2.24834247491769E-08
0.3	0.9	2.38081661817324E-08
0.3	0.95	2.52016793101860E-08
0.3	1.0	2.66675388506709E-08
0.3	1.05	2.82095081531279E-08
0.3	1.1	2.98315382932343E-08
0.3	1.15	3.15377870773144E-08
0.3	1.2	3.33326412298771E-08
0.4	0.0	6.24810822562473E-17
0.4	0.05	2.30848440670351E-07
0.4	0.1	2.71113807345162E-07
0.4	0.15	2.91572015166387E-07
0.4	0.2	3.11469174366228E-07
0.4	0.25	3.31987912563530E-07
0.4	0.3	3.53253656510450E-07
0.4	0.35	3.75345221413472E-07
0.4	0.4	3.98334075364958E-07
0.4	0.45	4.22252236896551E-07
0.4	0.5	4.47170755731100E-07
0.4	0.55	4.73134744454659E-07
0.4	0.6	5.00191520989314E-07
0.4	0.65	5.28388216313113E-07
0.4	0.7	5.57772353325491E-07
0.4	0.75	5.88391655729644E-07
0.4	0.8	6.20294783350972E-07
0.4	0.85	6.53531022782027E-07
0.4	0.9	6.88150732847696E-07
0.4	0.95	7.24205393595747E-07
0.4	1.0	7.61747384611127E-07
0.4	1.05	8.00830632823070E-07
0.4	1.1	8.41509875542453E-07
0.4	1.15	8.83841330655021E-07
0.4	1.2	9.27882459299299E-07
0.5	0.0	3.85608898088508E-17
0.5	0.05	4.34683758172900E-06
0.5	0.1	5.39876041744803E-06
0.5	0.15	5.79421197101734E-06
0.5	0.2	6.11582115291464E-06
0.5	0.25	6.42920018897871E-06
0.5	0.3	6.74208560742046E-06
0.5	0.35	7.05727961565394E-06
0.5	0.4	7.37561333403785E-06
0.5	0.45	7.69831782645474E-06
0.5	0.5	8.02579945051772E-06
0.5	0.55	8.35841067063160E-06
0.5	0.6	8.69641948074672E-06
0.5	0.65	9.04003586770781E-06
0.5	0.7	9.38942577231817E-06
0.5	0.75	9.74473378244786E-06
0.5	0.8	1.01060626664577E-05
0.5	0.85	1.04735319952687E-05
0.5	0.9	1.08472051545022E-05
0.5	0.95	1.12271842743067E-05
0.5	1.0	1.16135190209805E-05
0.5	1.05	1.20062788857560E-05
0.5	1.1	1.24055256073221E-05
0.5	1.15	1.28112989704305E-05
0.5	1.2	1.32236537154471E-05
0.6	0.0	1.89514764713793E-17
0.6	0.05	2.04307575423031E-05
0.6	0.1	3.02773398223851E-05
0.6	0.15	3.41627782036366E-05
0.6	0.2	3.59579345240558E-05
0.6	0.25	3.72802515839995E-05
0.6	0.3	3.84862818451735E-05
0.6	0.35	3.96414279348140E-05
0.6	0.4	4.07705393228536E-05
0.6	0.45	4.18841206888330E-05
0.6	0.5	4.29873383917687E-05
0.6	0.55	4.40832919415328E-05
0.6	0.6	4.51742896281779E-05
0.6	0.65	4.62618157442779E-05
0.6	0.7	4.73471822697245E-05
0.6	0.75	4.84312308096999E-05
0.6	0.8	4.95147841049373E-05
0.6	0.85	5.05983880970826E-05
0.6	0.9	5.16825357456671E-05
0.6	0.95	5.27677028174302E-05
0.6	1.0	5.38541664257383E-05
0.6	1.05	5.49422934085346E-05
0.6	1.1	5.60323688886221E-05
0.6	1.15	5.71245244896260E-05
0.6	1.2	5.82190927528855E-05
0.7	0.0	9.65757128885540E-18
0.7	0.05	4.08405999063662E-05
0.7	0.1	6.80085203477999E-05
0.7	0.15	8.40133927626450E-05
0.7	0.2	9.23511708152926E-05
0.7	0.25	9.67029526475858E-05
0.7	0.3	9.95809072725460E-05
0.7	0.35	1.01983265497977E-04
0.7	0.4	1.04194690677435E-04
0.7	0.45	1.06308252827385E-04
0.7	0.5	1.08359654815624E-04
0.7	0.55	1.10365498306696E-04
0.7	0.6	1.12335826393951E-04
0.7	0.65	1.14277018999070E-04
0.7	0.7	1.16194008033600E-04
0.7	0.75	1.18090021247334E-04
0.7	0.8	1.19968053855954E-04
0.7	0.85	1.21829948316987E-04
0.7	0.9	1.23677728113178E-04
0.7	0.95	1.25512816845728E-04
0.7	1.0	1.27336383812892E-04
0.7	1.05	1.29149688656467E-04
0.7	1.1	1.30953629355339E-04
0.7	1.15	1.32748998520711E-04
0.7	1.2	1.34536743058697E-04
0.8	0.0	6.37607535008494E-17
0.8	0.05	6.01582564979015E-05
0.8	0.1	1.05785105134813E-04
0.8	0.15	1.38241356518704E-04
0.8	0.2	1.59618316216236E-04
0.8	0.25	1.72588150311967E-04
0.8	0.3	1.80196423319432E-04
0.8	0.35	1.85116988331207E-04
0.8	0.4	1.88928871759658E-04
0.8	0.45	1.92283575089237E-04
0.8	0.5	1.95415972033571E-04
0.8	0.55	1.98412905038598E-04
0.8	0.6	2.01313859683392E-04
0.8	0.65	2.04140373071629E-04
0.8	0.7	2.06905925433518E-04
0.8	0.75	2.09620102418277E-04
0.8	0.8	2.12289865100655E-04
0.8	0.85	2.14920052211069E-04
0.8	0.9	2.17515237639339E-04
0.8	0.95	2.20078872395806E-04
0.8	1.0	2.22613566816752E-04
0.8	1.05	2.25122461990796E-04
0.8	1.1	2.27607025330668E-04
0.8	1.15	2.30069619361178E-04
0.8	1.2	2.32511739109185E-04
0.9	0.0	2.90225352188729E-17
0.9	0.05	7.73118688335909E-05
0.9	0.1	1.40056485407283E-04
0.9	0.15	1.89014410159699E-04
0.9	0.2	2.25514779853387E-04
0.9	0.25	2.51272076968615E-04
0.9	0.3	2.68412497872738E-04
0.9	0.35	2.79401253684564E-04
0.9	0.4	2.86687779424445E-04
0.9	0.45	2.92114342728777E-04
0.9	0.5	2.96691752209581E-04
0.9	0.55	3.00862191618061E-04
0.9	0.6	3.04795605743382E-04
0.9	0.65	3.08565483341716E-04
0.9	0.7	3.12212367495603E-04
0.9	0.75	3.15760432786507E-04
0.9	0.8	3.19225186024645E-04
0.9	0.85	3.22618481023949E-04
0.9	0.9	3.25948610826749E-04
0.9	0.95	3.29223254815978E-04
0.9	1.0	3.32447759466176E-04
0.9	1.05	3.35626805696421E-04
0.9	1.1	3.38764294975513E-04
0.9	1.15	3.41863355308910E-04
0.9	1.2	3.44927150478959E-04
1.0	0.0	-3.66968234808105E-17
1.0	0.05	9.22087783119513E-05
1.0	0.1	1.70173373908149E-04
1.0	0.15	2.34345716893374E-04
1.0	0.2	2.85636384007283E-04
1.0	0.25	3.25213075725865E-04
1.0	0.3	3.54506654849979E-04
1.0	0.35	3.75240099358755E-04
1.0	0.4	3.89424818208717E-04
1.0	0.45	3.99190007765630E-04
1.0	0.5	4.06390855213750E-04
1.0	0.55	4.12278389835136E-04
1.0	0.6	4.17512266443790E-04
1.0	0.65	4.22377858477725E-04
1.0	0.7	4.26996720264463E-04
1.0	0.75	4.31433692814374E-04
1.0	0.8	4.35726521960099E-04
1.0	0.85	4.39900475091978E-04
1.0	0.9	4.43973244571331E-04
1.0	0.95	4.47957828417993E-04
1.0	1.0	4.51864858636859E-04
1.0	1.05	4.55702407526433E-04
1.0	1.1	4.59477682458262E-04
1.0	1.15	4.63194666670123E-04
1.0	1.2	4.66859711161776E-04
1.1	0.0	8.81445405340473E-18
1.1	0.05	1.05037391373122E-04
1.1	0.1	1.96299127117561E-04
1.1	0.15	2.74047003838836E-04
1.1	0.2	3.38950521987089E-04
1.1	0.25	3.91862942861426E-04
1.1	0.3	4.33799989123752E-04
1.1	0.35	4.65958657551623E-04
1.1	0.4	4.89756758554662E-04
1.1	0.45	5.06851616667093E-04
1.1	0.5	5.19062033257619E-04
1.1	0.55	5.28127125407047E-04
1.1	0.6	5.35405121201964E-04
1.1	0.65	5.41737624538078E-04
1.1	0.7	5.47538458121652E-04
1.1	0.75	5.52994386137681E-04
1.1	0.8	5.58200369650678E-04
1.1	0.85	5.63209000721516E-04
1.1	0.9	5.68060549706817E-04
1.1	0.95	5.72778017719476E-04
1.1	1.0	5.77381122909916E-04
1.1	1.05	5.81882275175310E-04
1.1	1.1	5.86294123991971E-04
1.1	1.15	5.90624540534008E-04
1.1	1.2	5.94882503782672E-04
1.2	0.0	-1.62963097321082E-16
1.2	0.05	1.16068908386213E-04
1.2	0.1	2.18866481128408E-04
1.2	0.15	3.08546399097279E-04
1.2	0.2	3.85639550133444E-04
1.2	0.25	4.50816315589956E-04
1.2	0.3	5.04848358344420E-04
1.2	0.35	5.48610778284132E-04
1.2	0.4	5.83111004096683E-04
1.2	0.45	6.09527506767386E-04
1.2	0.5	6.29236830928034E-04
1.2	0.55	6.43784119113848E-04
1.2	0.6	6.54740916294193E-04
1.2	0.65	6.63471418982104E-04
1.2	0.7	6.70940821552340E-04
1.2	0.75	6.77690137133246E-04
1.2	0.8	6.83977891289864E-04
1.2	0.85	6.89935392867292E-04
1.2	0.9	6.95643413776256E-04
1.2	0.95	7.01148846399290E-04
1.2	1.0	7.06485173358366E-04
1.2	1.05	7.11677452473225E-04
1.2	1.1	7.16742887064298E-04
1.2	1.15	7.21697502529336E-04
1.2	1.2	7.26550921357597E-04